Freq.	V(bf_source)
1.00000000000000e+003	(-2.32835273333825e+001dB,-3.90256192012334e-002°)
1.00770481413610e+003	(-2.32835410350363e+001dB,-3.93121746298050e-002°)
1.01546899243308e+003	(-2.32835549384473e+001dB,-3.96006194084591e-002°)
1.02329299228075e+003	(-2.32835690464309e+001dB,-3.98909610782234e-002°)
1.03117727459306e+003	(-2.32835833618362e+001dB,-4.01832070901034e-002°)
1.03912230383517e+003	(-2.32835978875472e+001dB,-4.04773648011645e-002°)
1.04712854805090e+003	(-2.32836126264840e+001dB,-4.07734414710001e-002°)
1.05519647889024e+003	(-2.32836275816008e+001dB,-4.10714442579602e-002°)
1.06332657163716e+003	(-2.32836427558879e+001dB,-4.13713802154536e-002°)
1.07151930523761e+003	(-2.32836581523718e+001dB,-4.16732562877074e-002°)
1.07977516232771e+003	(-2.32836737741144e+001dB,-4.19770793062562e-002°)
1.08809462926223e+003	(-2.32836896242148e+001dB,-4.22828559854667e-002°)
1.09647819614319e+003	(-2.32837057058086e+001dB,-4.25905929186570e-002°)
1.10492635684876e+003	(-2.32837220220679e+001dB,-4.29002965737098e-002°)
1.11343960906236e+003	(-2.32837385762021e+001dB,-4.32119732888670e-002°)
1.12201845430196e+003	(-2.32837553714587e+001dB,-4.35256292682622e-002°)
1.13066339794964e+003	(-2.32837724111217e+001dB,-4.38412705775461e-002°)
1.13937494928134e+003	(-2.32837896985138e+001dB,-4.41589031392233e-002°)
1.14815362149688e+003	(-2.32838072369954e+001dB,-4.44785327280190e-002°)
1.15699993175021e+003	(-2.32838250299655e+001dB,-4.48001649661451e-002°)
1.16591440117983e+003	(-2.32838430808612e+001dB,-4.51238053185684e-002°)
1.17489755493953e+003	(-2.32838613931586e+001dB,-4.54494590878722e-002°)
1.18394992222930e+003	(-2.32838799703732e+001dB,-4.57771314095580e-002°)
1.19307203632654e+003	(-2.32838988160582e+001dB,-4.61068272466670e-002°)
1.20226443461741e+003	(-2.32839179338080e+001dB,-4.64385513846369e-002°)
1.21152765862859e+003	(-2.32839373272549e+001dB,-4.67723084262333e-002°)
1.22086225405907e+003	(-2.32839570000714e+001dB,-4.71081027858480e-002°)
1.23026877081238e+003	(-2.32839769559703e+001dB,-4.74459386844636e-002°)
1.23974776302895e+003	(-2.32839971987035e+001dB,-4.77858201434729e-002°)
1.24929978911874e+003	(-2.32840177320637e+001dB,-4.81277509796923e-002°)
1.25892541179417e+003	(-2.32840385598829e+001dB,-4.84717347990435e-002°)
1.26862519810326e+003	(-2.32840596860343e+001dB,-4.88177749911279e-002°)
1.27839971946303e+003	(-2.32840811144316e+001dB,-4.91658747229301e-002°)
1.28824955169314e+003	(-2.32841028490286e+001dB,-4.95160369329858e-002°)
1.29817527504985e+003	(-2.32841248938198e+001dB,-4.98682643252294e-002°)
1.30817747426020e+003	(-2.32841472528401e+001dB,-5.02225593626243e-002°)
1.31825673855641e+003	(-2.32841699301662e+001dB,-5.05789242609586e-002°)
1.32841366171065e+003	(-2.32841929299143e+001dB,-5.09373609822440e-002°)
1.33864884207000e+003	(-2.32842162562427e+001dB,-5.12978712282684e-002°)
1.34896288259166e+003	(-2.32842399133498e+001dB,-5.16604564341133e-002°)
1.35935639087853e+003	(-2.32842639054749e+001dB,-5.20251177610700e-002°)
1.36982997921497e+003	(-2.32842882368987e+001dB,-5.23918560900379e-002°)
1.38038426460289e+003	(-2.32843129119418e+001dB,-5.27606720146566e-002°)
1.39101986879806e+003	(-2.32843379349667e+001dB,-5.31315658339378e-002°)
1.40173741834677e+003	(-2.32843633103760e+001dB,-5.35045375454522e-002°)
1.41253754462276e+003	(-2.32843890426133e+001dB,-5.38795868379357e-002°)
1.42342088386435e+003	(-2.32844151361627e+001dB,-5.42567130839907e-002°)
1.43438807721197e+003	(-2.32844415955486e+001dB,-5.46359153327162e-002°)
1.44543977074593e+003	(-2.32844684253360e+001dB,-5.50171923020409e-002°)
1.45657661552446e+003	(-2.32844956301300e+001dB,-5.54005423711521e-002°)
1.46779926762207e+003	(-2.32845232145757e+001dB,-5.57859635728939e-002°)
1.47910838816821e+003	(-2.32845511833583e+001dB,-5.61734535856766e-002°)
1.49050464338620e+003	(-2.32845795412022e+001dB,-5.65630097258899e-002°)
1.50198870463249e+003	(-2.32846082928719e+001dB,-5.69546289395678e-002°)
1.51356124843621e+003	(-2.32846374431710e+001dB,-5.73483077945497e-002°)
1.52522295653902e+003	(-2.32846669969407e+001dB,-5.77440424721109e-002°)
1.53697451593528e+003	(-2.32846969590623e+001dB,-5.81418287589637e-002°)
1.54881661891249e+003	(-2.32847273344552e+001dB,-5.85416620381878e-002°)
1.56074996309212e+003	(-2.32847581280761e+001dB,-5.89435372817958e-002°)
1.57277525147067e+003	(-2.32847893449195e+001dB,-5.93474490412822e-002°)
1.58489319246112e+003	(-2.32848209900172e+001dB,-5.97533914394480e-002°)
1.59710449993461e+003	(-2.32848530684379e+001dB,-6.01613581616342e-002°)
1.60940989326254e+003	(-2.32848855852861e+001dB,-6.05713424467207e-002°)
1.62181009735894e+003	(-2.32849185457022e+001dB,-6.09833370786972e-002°)
1.63430584272314e+003	(-2.32849519548623e+001dB,-6.13973343771118e-002°)
1.64689786548288e+003	(-2.32849858179768e+001dB,-6.18133261885582e-002°)
1.65958690743757e+003	(-2.32850201402904e+001dB,-6.22313038774057e-002°)
1.67237371610209e+003	(-2.32850549270815e+001dB,-6.26512583164750e-002°)
1.68525904475076e+003	(-2.32850901836609e+001dB,-6.30731798782424e-002°)
1.69824365246175e+003	(-2.32851259153726e+001dB,-6.34970584250084e-002°)
1.71132830416179e+003	(-2.32851621275911e+001dB,-6.39228832999438e-002°)
1.72451377067121e+003	(-2.32851988257224e+001dB,-6.43506433176228e-002°)
1.73780082874938e+003	(-2.32852360152027e+001dB,-6.47803267544636e-002°)
1.75119026114047e+003	(-2.32852737014965e+001dB,-6.52119213392570e-002°)
1.76468285661951e+003	(-2.32853118900977e+001dB,-6.56454142438521e-002°)
1.77827941003893e+003	(-2.32853505865270e+001dB,-6.60807920731413e-002°)
1.79198072237534e+003	(-2.32853897963322e+001dB,-6.65180408559490e-002°)
1.80578760077673e+003	(-2.32854295250865e+001dB,-6.69571460347724e-002°)
1.81970085860999e+003	(-2.32854697783878e+001dB,-6.73980924570252e-002°)
1.83372131550889e+003	(-2.32855105618569e+001dB,-6.78408643642928e-002°)
1.84784979742230e+003	(-2.32855518811392e+001dB,-6.82854453832838e-002°)
1.86208713666288e+003	(-2.32855937418982e+001dB,-6.87318185161521e-002°)
1.87643417195610e+003	(-2.32856361498209e+001dB,-6.91799661303722e-002°)
1.89089174848965e+003	(-2.32856791106112e+001dB,-6.96298699492865e-002°)
1.90546071796326e+003	(-2.32857226299917e+001dB,-7.00815110424629e-002°)
1.92014193863881e+003	(-2.32857667137013e+001dB,-7.05348698158324e-002°)
1.93493627539096e+003	(-2.32858113674937e+001dB,-7.09899260019874e-002°)
1.94984459975806e+003	(-2.32858565971370e+001dB,-7.14466586507932e-002°)
1.96486778999348e+003	(-2.32859024084110e+001dB,-7.19050461194561e-002°)
1.98000673111740e+003	(-2.32859488071069e+001dB,-7.23650660632981e-002°)
1.99526231496889e+003	(-2.32859957990243e+001dB,-7.28266954259053e-002°)
2.01063544025850e+003	(-2.32860433899717e+001dB,-7.32899104299030e-002°)
2.02612701262116e+003	(-2.32860915857629e+001dB,-7.37546865675248e-002°)
2.04173794466954e+003	(-2.32861403922161e+001dB,-7.42209985910870e-002°)
2.05746915604785e+003	(-2.32861898151531e+001dB,-7.46888205041258e-002°)
2.07332157348597e+003	(-2.32862398603958e+001dB,-7.51581255519125e-002°)
2.08929613085405e+003	(-2.32862905337650e+001dB,-7.56288862125551e-002°)
2.10539376921756e+003	(-2.32863418410794e+001dB,-7.61010741881566e-002°)
2.12161543689270e+003	(-2.32863937881529e+001dB,-7.65746603957285e-002°)
2.13796208950225e+003	(-2.32864463807919e+001dB,-7.70496149588345e-002°)
2.15443469003190e+003	(-2.32864996247951e+001dB,-7.75259071987821e-002°)
2.17103420888697e+003	(-2.32865535259501e+001dB,-7.80035056262886e-002°)
2.18776162394957e+003	(-2.32866080900313e+001dB,-7.84823779334945e-002°)
2.20461792063620e+003	(-2.32866633227973e+001dB,-7.89624909855076e-002°)
2.22160409195583e+003	(-2.32867192299908e+001dB,-7.94438108126921e-002°)
2.23872113856835e+003	(-2.32867758173339e+001dB,-7.99263026029818e-002°)
2.25597006884359e+003	(-2.32868330905262e+001dB,-8.04099306945628e-002°)
2.27335189892065e+003	(-2.32868910552434e+001dB,-8.08946585683316e-002°)
2.29086765276779e+003	(-2.32869497171343e+001dB,-8.13804488408074e-002°)
2.30851836224278e+003	(-2.32870090818174e+001dB,-8.18672632578991e-002°)
2.32630506715364e+003	(-2.32870691548803e+001dB,-8.23550626875390e-002°)
2.34422881531994e+003	(-2.32871299418745e+001dB,-8.28438071140626e-002°)
2.36229066263448e+003	(-2.32871914483154e+001dB,-8.33334556320339e-002°)
2.38049167312553e+003	(-2.32872536796769e+001dB,-8.38239664402497e-002°)
2.39883291901951e+003	(-2.32873166413915e+001dB,-8.43152968366985e-002°)
2.41731548080412e+003	(-2.32873803388446e+001dB,-8.48074032134540e-002°)
2.43594044729205e+003	(-2.32874447773730e+001dB,-8.53002410516634e-002°)
2.45470891568505e+003	(-2.32875099622625e+001dB,-8.57937649174364e-002°)
2.47362199163864e+003	(-2.32875758987432e+001dB,-8.62879284575677e-002°)
2.49268078932720e+003	(-2.32876425919887e+001dB,-8.67826843961947e-002°)
2.51188643150960e+003	(-2.32877100471105e+001dB,-8.72779845312374e-002°)
2.53124004959538e+003	(-2.32877782691565e+001dB,-8.77737797314579e-002°)
2.55074278371138e+003	(-2.32878472631077e+001dB,-8.82700199343713e-002°)
2.57039578276888e+003	(-2.32879170338735e+001dB,-8.87666541440124e-002°)
2.59020020453134e+003	(-2.32879875862906e+001dB,-8.92636304292906e-002°)
2.61015721568256e+003	(-2.32880589251181e+001dB,-8.97608959231011e-002°)
2.63026799189540e+003	(-2.32881310550339e+001dB,-9.02583968214158e-002°)
2.65053371790110e+003	(-2.32882039806328e+001dB,-9.07560783834617e-002°)
2.67095558755901e+003	(-2.32882777064203e+001dB,-9.12538849319644e-002°)
2.69153480392694e+003	(-2.32883522368133e+001dB,-9.17517598538057e-002°)
2.71227257933205e+003	(-2.32884275761317e+001dB,-9.22496456019394e-002°)
2.73317013544226e+003	(-2.32885037285980e+001dB,-9.27474836968800e-002°)
2.75422870333819e+003	(-2.32885806983332e+001dB,-9.32452147296134e-002°)
2.77544952358573e+003	(-2.32886584893512e+001dB,-9.37427783646296e-002°)
2.79683384630910e+003	(-2.32887371055584e+001dB,-9.42401133434473e-002°)
2.81838293126448e+003	(-2.32888165507462e+001dB,-9.47371574893528e-002°)
2.84009804791424e+003	(-2.32888968285897e+001dB,-9.52338477120572e-002°)
2.86198047550173e+003	(-2.32889779426440e+001dB,-9.57301200132552e-002°)
2.88403150312663e+003	(-2.32890598963384e+001dB,-9.62259094932697e-002°)
2.90625242982089e+003	(-2.32891426929750e+001dB,-9.67211503574094e-002°)
2.92864456462526e+003	(-2.32892263357217e+001dB,-9.72157759241811e-002°)
2.95120922666641e+003	(-2.32893108276118e+001dB,-9.77097186331173e-002°)
2.97394774523463e+003	(-2.32893961715377e+001dB,-9.82029100540152e-002°)
2.99686145986215e+003	(-2.32894823702479e+001dB,-9.86952808964491e-002°)
3.01995172040204e+003	(-2.32895694263428e+001dB,-9.91867610205601e-002°)
3.04321988710775e+003	(-2.32896573422699e+001dB,-9.96772794479821e-002°)
3.06666733071321e+003	(-2.32897461203221e+001dB,-1.00166764373743e-001°)
3.09029543251362e+003	(-2.32898357626318e+001dB,-1.00655143179169e-001°)
3.11410558444679e+003	(-2.32899262711672e+001dB,-1.01142342445306e-001°)
3.13809918917516e+003	(-2.32900176477289e+001dB,-1.01628287967126e-001°)
3.16227766016841e+003	(-2.32901098939460e+001dB,-1.02112904768606e-001°)
3.18664242178676e+003	(-2.32902030112716e+001dB,-1.02596117118503e-001°)
3.21119490936485e+003	(-2.32902970009791e+001dB,-1.03077848547243e-001°)
3.23593656929631e+003	(-2.32903918641583e+001dB,-1.03558021864289e-001°)
3.26086885911897e+003	(-2.32904876017125e+001dB,-1.04036559176166e-001°)
3.28599324760069e+003	(-2.32905842143528e+001dB,-1.04513381906184e-001°)
3.31131121482594e+003	(-2.32906817025959e+001dB,-1.04988410813776e-001°)
3.33682425228298e+003	(-2.32907800667593e+001dB,-1.05461566015734e-001°)
3.36253386295166e+003	(-2.32908793069580e+001dB,-1.05932767007774e-001°)
3.38844156139206e+003	(-2.32909794231013e+001dB,-1.06401932686650e-001°)
3.41454887383364e+003	(-2.32910804148880e+001dB,-1.06868981374163e-001°)
3.44085733826517e+003	(-2.32911822818043e+001dB,-1.07333830840549e-001°)
3.46736850452535e+003	(-2.32912850231185e+001dB,-1.07796398330167e-001°)
3.49408393439410e+003	(-2.32913886378792e+001dB,-1.08256600587004e-001°)
3.52100520168456e+003	(-2.32914931249109e+001dB,-1.08714353881388e-001°)
3.54813389233579e+003	(-2.32915984828110e+001dB,-1.09169574037567e-001°)
3.57547160450625e+003	(-2.32917047099464e+001dB,-1.09622176462143e-001°)
3.60301994866789e+003	(-2.32918118044504e+001dB,-1.10072076173303e-001°)
3.63078054770105e+003	(-2.32919197642199e+001dB,-1.10519187830422e-001°)
3.65875503699007e+003	(-2.32920285869117e+001dB,-1.10963425765509e-001°)
3.68694506451962e+003	(-2.32921382699403e+001dB,-1.11404704014455e-001°)
3.71535229097177e+003	(-2.32922488104750e+001dB,-1.11842936349509e-001°)
3.74397838982385e+003	(-2.32923602054363e+001dB,-1.12278036312419e-001°)
3.77282504744704e+003	(-2.32924724514948e+001dB,-1.12709917248639e-001°)
3.80189396320565e+003	(-2.32925855450670e+001dB,-1.13138492341852e-001°)
3.83118684955733e+003	(-2.32926994823149e+001dB,-1.13563674649420e-001°)
3.86070543215386e+003	(-2.32928142591421e+001dB,-1.13985377138658e-001°)
3.89045144994285e+003	(-2.32929298711920e+001dB,-1.14403512723883e-001°)
3.92042665527020e+003	(-2.32930463138465e+001dB,-1.14817994303649e-001°)
3.95063281398328e+003	(-2.32931635822239e+001dB,-1.15228734799158e-001°)
3.98107170553502e+003	(-2.32932816711763e+001dB,-1.15635647193361e-001°)
4.01174512308867e+003	(-2.32934005752895e+001dB,-1.16038644570172e-001°)
4.04265487362349e+003	(-2.32935202888804e+001dB,-1.16437640154614e-001°)
4.07380277804118e+003	(-2.32936408059962e+001dB,-1.16832547353769e-001°)
4.10519067127313e+003	(-2.32937621204129e+001dB,-1.17223279797633e-001°)
4.13682040238856e+003	(-2.32938842256358e+001dB,-1.17609751381209e-001°)
4.16869383470340e+003	(-2.32940071148968e+001dB,-1.17991876306515e-001°)
4.20081284589012e+003	(-2.32941307811538e+001dB,-1.18369569125530e-001°)
4.23317932808826e+003	(-2.32942552170927e+001dB,-1.18742744782893e-001°)
4.26579518801598e+003	(-2.32943804151242e+001dB,-1.19111318659916e-001°)
4.29866234708233e+003	(-2.32945063673857e+001dB,-1.19475206618012e-001°)
4.33178274150047e+003	(-2.32946330657404e+001dB,-1.19834325043350e-001°)
4.36515832240171e+003	(-2.32947605017777e+001dB,-1.20188590890956e-001°)
4.39879105595049e+003	(-2.32948886668144e+001dB,-1.20537921729599e-001°)
4.43268292346014e+003	(-2.32950175518938e+001dB,-1.20882235786929e-001°)
4.46683592150969e+003	(-2.32951471477888e+001dB,-1.21221451994305e-001°)
4.50125206206139e+003	(-2.32952774450005e+001dB,-1.21555490032260e-001°)
4.53593337257933e+003	(-2.32954084337615e+001dB,-1.21884270375807e-001°)
4.57088189614881e+003	(-2.32955401040361e+001dB,-1.22207714339674e-001°)
4.60609969159672e+003	(-2.32956724455222e+001dB,-1.22525744124131e-001°)
4.64158883361284e+003	(-2.32958054476533e+001dB,-1.22838282860043e-001°)
4.67735141287204e+003	(-2.32959390996011e+001dB,-1.23145254654172e-001°)
4.71338953615747e+003	(-2.32960733902766e+001dB,-1.23446584634477e-001°)
4.74970532648462e+003	(-2.32962083083333e+001dB,-1.23742198995207e-001°)
4.78630092322645e+003	(-2.32963438421701e+001dB,-1.24032025041315e-001°)
4.82317848223937e+003	(-2.32964799799327e+001dB,-1.24315991233563e-001°)
4.86034017599028e+003	(-2.32966167095194e+001dB,-1.24594027232178e-001°)
4.89778819368453e+003	(-2.32967540185815e+001dB,-1.24866063941191e-001°)
4.93552474139487e+003	(-2.32968918945288e+001dB,-1.25132033551319e-001°)
4.97355204219146e+003	(-2.32970303245325e+001dB,-1.25391869583653e-001°)
5.01187233627279e+003	(-2.32971692955283e+001dB,-1.25645506931852e-001°)
5.05048788109766e+003	(-2.32973087942233e+001dB,-1.25892881903811e-001°)
5.08940095151816e+003	(-2.32974488070961e+001dB,-1.26133932263649e-001°)
5.12861383991372e+003	(-2.32975893204056e+001dB,-1.26368597272110e-001°)
5.16812885632611e+003	(-2.32977303201922e+001dB,-1.26596817726531e-001°)
5.20794832859554e+003	(-2.32978717922852e+001dB,-1.26818536000282e-001°)
5.24807460249780e+003	(-2.32980137223066e+001dB,-1.27033696081419e-001°)
5.28851004188245e+003	(-2.32981560956761e+001dB,-1.27242243610392e-001°)
5.32925702881208e+003	(-2.32982988976180e+001dB,-1.27444125916448e-001°)
5.37031796370260e+003	(-2.32984421131654e+001dB,-1.27639292054302e-001°)
5.41169526546471e+003	(-2.32985857271666e+001dB,-1.27827692838596e-001°)
5.45339137164635e+003	(-2.32987297242910e+001dB,-1.28009280877888e-001°)
5.49540873857632e+003	(-2.32988740890355e+001dB,-1.28184010607922e-001°)
5.53774984150898e+003	(-2.32990188057300e+001dB,-1.28351838323233e-001°)
5.58041717477005e+003	(-2.32991638585454e+001dB,-1.28512722208033e-001°)
5.62341325190357e+003	(-2.32993092314982e+001dB,-1.28666622365669e-001°)
5.66674060581999e+003	(-2.32994549084592e+001dB,-1.28813500846789e-001°)
5.71040178894535e+003	(-2.32996008731588e+001dB,-1.28953321677138e-001°)
5.75439937337165e+003	(-2.32997471091952e+001dB,-1.29086050882826e-001°)
5.79873595100840e+003	(-2.32998936000413e+001dB,-1.29211656515116e-001°)
5.84341413373526e+003	(-2.33000403290513e+001dB,-1.29330108673826e-001°)
5.88843655355598e+003	(-2.33001872794691e+001dB,-1.29441379528853e-001°)
5.93380586275337e+003	(-2.33003344344349e+001dB,-1.29545443341010e-001°)
5.97952473404561e+003	(-2.33004817769936e+001dB,-1.29642276481073e-001°)
6.02559586074367e+003	(-2.33006292901021e+001dB,-1.29731857447215e-001°)
6.07202195690998e+003	(-2.33007769566368e+001dB,-1.29814166881241e-001°)
6.11880575751831e+003	(-2.33009247594025e+001dB,-1.29889187583260e-001°)
6.16595001861492e+003	(-2.33010726811391e+001dB,-1.29956904525184e-001°)
6.21345751748085e+003	(-2.33012207045302e+001dB,-1.30017304861813e-001°)
6.26133105279562e+003	(-2.33013688122114e+001dB,-1.30070377941475e-001°)
6.30957344480203e+003	(-2.33015169867780e+001dB,-1.30116115314192e-001°)
6.35818753547233e+003	(-2.33016652107937e+001dB,-1.30154510738928e-001°)
6.40717618867564e+003	(-2.33018134667977e+001dB,-1.30185560188798e-001°)
6.45654229034666e+003	(-2.33019617373137e+001dB,-1.30209261855508e-001°)
6.50628874865567e+003	(-2.33021100048588e+001dB,-1.30225616150592e-001°)
6.55641849417989e+003	(-2.33022582519500e+001dB,-1.30234625707083e-001°)
6.60693448007606e+003	(-2.33024064611139e+001dB,-1.30236295377916e-001°)
6.65783968225447e+003	(-2.33025546148942e+001dB,-1.30230632233973e-001°)
6.70913709955422e+003	(-2.33027026958603e+001dB,-1.30217645559496e-001°)
6.76082975391993e+003	(-2.33028506866149e+001dB,-1.30197346846700e-001°)
6.81292069057972e+003	(-2.33029985698032e+001dB,-1.30169749788463e-001°)
6.86541297822466e+003	(-2.33031463281194e+001dB,-1.30134870269910e-001°)
6.91830970918948e+003	(-2.33032939443160e+001dB,-1.30092726357165e-001°)
6.97161399963479e+003	(-2.33034414012126e+001dB,-1.30043338286548e-001°)
7.02532898973064e+003	(-2.33035886817001e+001dB,-1.29986728450427e-001°)
7.07945784384150e+003	(-2.33037357687542e+001dB,-1.29922921382564e-001°)
7.13400375071268e+003	(-2.33038826454380e+001dB,-1.29851943741900e-001°)
7.18896992365819e+003	(-2.33040292949123e+001dB,-1.29773824294456e-001°)
7.24435960075002e+003	(-2.33041757004429e+001dB,-1.29688593894139e-001°)
7.30017604500890e+003	(-2.33043218454081e+001dB,-1.29596285462223e-001°)
7.35642254459654e+003	(-2.33044677133054e+001dB,-1.29496933965134e-001°)
7.41310241300930e+003	(-2.33046132877590e+001dB,-1.29390576390804e-001°)
7.47021898927344e+003	(-2.33047585525279e+001dB,-1.29277251724555e-001°)
7.52777563814179e+003	(-2.33049034915114e+001dB,-1.29157000922392e-001°)
7.58577575029197e+003	(-2.33050480887573e+001dB,-1.29029866884134e-001°)
7.64422274252613e+003	(-2.33051923284678e+001dB,-1.28895894424482e-001°)
7.70312005797228e+003	(-2.33053361950055e+001dB,-1.28755130244173e-001°)
7.76247116628705e+003	(-2.33054796729025e+001dB,-1.28607622897747e-001°)
7.82227956386016e+003	(-2.33056227468633e+001dB,-1.28453422762874e-001°)
7.88254877402035e+003	(-2.33057654017726e+001dB,-1.28292582006573e-001°)
