Freq.	V(n005)/I(R5)
1.00000000000000e+003	(3.39795978659918e+001dB,-9.85837889709664e-007°)
1.04712854805090e+003	(3.39795978659918e+001dB,-1.03229899652094e-006°)
1.09647819614319e+003	(3.39795978659917e+001dB,-1.08094974748539e-006°)
1.14815362149688e+003	(3.39795978659917e+001dB,-1.13189333747773e-006°)
1.20226443461741e+003	(3.39795978659916e+001dB,-1.18523782492407e-006°)
1.25892541179417e+003	(3.39795978659915e+001dB,-1.24109635996893e-006°)
1.31825673855641e+003	(3.39795978659915e+001dB,-1.29958742619400e-006°)
1.38038426460289e+003	(3.39795978659914e+001dB,-1.36083509122196e-006°)
1.44543977074593e+003	(3.39795978659913e+001dB,-1.42496926922608e-006°)
1.51356124843621e+003	(3.39795978659912e+001dB,-1.49212599667287e-006°)
1.58489319246111e+003	(3.39795978659912e+001dB,-1.56244772331338e-006°)
1.65958690743756e+003	(3.39795978659911e+001dB,-1.63608360964054e-006°)
1.73780082874938e+003	(3.39795978659909e+001dB,-1.71318984762272e-006°)
1.81970085860999e+003	(3.39795978659908e+001dB,-1.79392998988993e-006°)
1.90546071796325e+003	(3.39795978659907e+001dB,-1.87847529612562e-006°)
1.99526231496888e+003	(3.39795978659905e+001dB,-1.96700509872593e-006°)
2.08929613085404e+003	(3.39795978659904e+001dB,-2.05970718086791e-006°)
2.18776162394956e+003	(3.39795978659902e+001dB,-2.15677817500745e-006°)
2.29086765276778e+003	(3.39795978659900e+001dB,-2.25842398327331e-006°)
2.39883291901949e+003	(3.39795978659898e+001dB,-2.36486020788493e-006°)
2.51188643150958e+003	(3.39795978659895e+001dB,-2.47631261474175e-006°)
2.63026799189539e+003	(3.39795978659893e+001dB,-2.59301760879314e-006°)
2.75422870333817e+003	(3.39795978659890e+001dB,-2.71522273572890e-006°)
2.88403150312661e+003	(3.39795978659887e+001dB,-2.84318720889905e-006°)
3.01995172040202e+003	(3.39795978659883e+001dB,-2.97718245640563e-006°)
3.16227766016839e+003	(3.39795978659880e+001dB,-3.11749270041934e-006°)
3.31131121482592e+003	(3.39795978659876e+001dB,-3.26441555612691e-006°)
3.46736850452532e+003	(3.39795978659871e+001dB,-3.41826266589387e-006°)
3.63078054770102e+003	(3.39795978659866e+001dB,-3.57936035817833e-006°)
3.80189396320562e+003	(3.39795978659861e+001dB,-3.74805034064591e-006°)
3.98107170553498e+003	(3.39795978659855e+001dB,-3.92469042677780e-006°)
4.16869383470336e+003	(3.39795978659849e+001dB,-4.10965529129528e-006°)
4.36515832240167e+003	(3.39795978659841e+001dB,-4.30333726747696e-006°)
4.57088189614876e+003	(3.39795978659834e+001dB,-4.50614717611135e-006°)
4.78630092322640e+003	(3.39795978659825e+001dB,-4.71851520320045e-006°)
5.01187233627274e+003	(3.39795978659816e+001dB,-4.94089180542046e-006°)
5.24807460249774e+003	(3.39795978659805e+001dB,-5.17374866966565e-006°)
5.49540873857626e+003	(3.39795978659794e+001dB,-5.41757970905149e-006°)
5.75439937337159e+003	(3.39795978659782e+001dB,-5.67290211968561e-006°)
6.02559586074360e+003	(3.39795978659768e+001dB,-5.94025746624415e-006°)
6.30957344480195e+003	(3.39795978659753e+001dB,-6.22021284015311e-006°)
6.60693448007598e+003	(3.39795978659737e+001dB,-6.51336205557876e-006°)
6.91830970918939e+003	(3.39795978659719e+001dB,-6.82032690904450e-006°)
7.24435960074992e+003	(3.39795978659700e+001dB,-7.14175850460993e-006°)
7.58577575029186e+003	(3.39795978659678e+001dB,-7.47833862961045e-006°)
7.94328234724284e+003	(3.39795978659655e+001dB,-7.83078120304544e-006°)
8.31763771102674e+003	(3.39795978659629e+001dB,-8.19983378137491e-006°)
8.70963589956084e+003	(3.39795978659601e+001dB,-8.58627916028712e-006°)
9.12010839355913e+003	(3.39795978659570e+001dB,-8.99093701525375e-006°)
9.54992586021439e+003	(3.39795978659536e+001dB,-9.41466566125436e-006°)
1.00000000000000e+004	(3.39795978659499e+001dB,-9.85836384880341e-006°)
1.04712854805090e+004	(3.39795978659458e+001dB,-1.03229726914433e-005°)
1.09647819614319e+004	(3.39795978659414e+001dB,-1.08094776497040e-005°)
1.14815362149689e+004	(3.39795978659365e+001dB,-1.13189106225395e-005°)
1.20226443461742e+004	(3.39795978659311e+001dB,-1.18523521308658e-005°)
1.25892541179417e+004	(3.39795978659252e+001dB,-1.24109336206497e-005°)
1.31825673855641e+004	(3.39795978659188e+001dB,-1.29958398561340e-005°)
1.38038426460289e+004	(3.39795978659118e+001dB,-1.36083114251942e-005°)
1.44543977074593e+004	(3.39795978659040e+001dB,-1.42496473780133e-005°)
1.51356124843621e+004	(3.39795978658956e+001dB,-1.49212079698740e-005°)
1.58489319246112e+004	(3.39795978658863e+001dB,-1.56244175623725e-005°)
1.65958690743757e+004	(3.39795978658762e+001dB,-1.63607676221130e-005°)
1.73780082874938e+004	(3.39795978658651e+001dB,-1.71318199114508e-005°)
1.81970085860999e+004	(3.39795978658529e+001dB,-1.79392097559183e-005°)
1.90546071796326e+004	(3.39795978658396e+001dB,-1.87846495459744e-005°)
1.99526231496889e+004	(3.39795978658251e+001dB,-1.96699323474374e-005°)
2.08929613085405e+004	(3.39795978658091e+001dB,-2.05969357177658e-005°)
2.18776162394956e+004	(3.39795978657917e+001dB,-2.15676256586984e-005°)
2.29086765276778e+004	(3.39795978657726e+001dB,-2.25840608115185e-005°)
2.39883291901950e+004	(3.39795978657518e+001dB,-2.36483967751560e-005°)
2.51188643150959e+004	(3.39795978657289e+001dB,-2.47628907450818e-005°)
2.63026799189540e+004	(3.39795978657040e+001dB,-2.59299061995707e-005°)
2.75422870333818e+004	(3.39795978656768e+001dB,-2.71519179746338e-005°)
2.88403150312662e+004	(3.39795978656470e+001dB,-2.84315174860408e-005°)
3.01995172040203e+004	(3.39795978656146e+001dB,-2.97714182105898e-005°)
3.16227766016840e+004	(3.39795978655791e+001dB,-3.11744614181820e-005°)
3.31131121482593e+004	(3.39795978655404e+001dB,-3.26436222245453e-005°)
3.46736850452534e+004	(3.39795978654982e+001dB,-3.41820158208147e-005°)
3.63078054770103e+004	(3.39795978654523e+001dB,-3.57929041572248e-005°)
3.80189396320563e+004	(3.39795978654022e+001dB,-3.74797027679247e-005°)
3.98107170553500e+004	(3.39795978653476e+001dB,-3.92459880060164e-005°)
4.16869383470338e+004	(3.39795978652883e+001dB,-4.10955046538355e-005°)
4.36515832240169e+004	(3.39795978652238e+001dB,-4.30321738002414e-005°)
4.57088189614878e+004	(3.39795978651538e+001dB,-4.50601011348899e-005°)
4.78630092322641e+004	(3.39795978650778e+001dB,-4.71835856600831e-005°)
5.01187233627275e+004	(3.39795978649953e+001dB,-4.94071287371510e-005°)
5.24807460249776e+004	(3.39795978649061e+001dB,-5.17354436685227e-005°)
5.49540873857628e+004	(3.39795978648095e+001dB,-5.41734655507583e-005°)
5.75439937337161e+004	(3.39795978647051e+001dB,-5.67263618684953e-005°)
6.02559586074362e+004	(3.39795978645925e+001dB,-5.93995432622548e-005°)
6.30957344480197e+004	(3.39795978644712e+001dB,-6.21986750836156e-005°)
6.60693448007600e+004	(3.39795978643408e+001dB,-6.51296893305099e-005°)
6.91830970918941e+004	(3.39795978642006e+001dB,-6.81987971928280e-005°)
7.24435960074995e+004	(3.39795978640505e+001dB,-7.14125022967101e-005°)
7.58577575029189e+004	(3.39795978638899e+001dB,-7.47776142713350e-005°)
7.94328234724287e+004	(3.39795978637186e+001dB,-7.83012634445359e-005°)
8.31763771102677e+004	(3.39795978635363e+001dB,-8.19909157209431e-005°)
8.70963589956087e+004	(3.39795978633427e+001dB,-8.58543886275254e-005°)
9.12010839355916e+004	(3.39795978631379e+001dB,-8.98998677723071e-005°)
9.54992586021443e+004	(3.39795978629218e+001dB,-9.41359243352315e-005°)
1.00000000000001e+005	(3.39795978626947e+001dB,-9.85715332418306e-005°)
1.04712854805091e+005	(3.39795978624568e+001dB,-1.03216092379136e-004°)
1.09647819614319e+005	(3.39795978622088e+001dB,-1.08079442536739e-004°)
1.14815362149689e+005	(3.39795978619513e+001dB,-1.13171888511604e-004°)
1.20226443461742e+005	(3.39795978616854e+001dB,-1.18504221043872e-004°)
1.25892541179418e+005	(3.39795978614122e+001dB,-1.24087739993212e-004°)
1.31825673855642e+005	(3.39795978611333e+001dB,-1.29934278504316e-004°)
1.38038426460290e+005	(3.39795978608506e+001dB,-1.36056228355000e-004°)
1.44543977074594e+005	(3.39795978605661e+001dB,-1.42466566585996e-004°)
1.51356124843622e+005	(3.39795978602823e+001dB,-1.49178883281132e-004°)
1.58489319246113e+005	(3.39795978600020e+001dB,-1.56207410766073e-004°)
1.65958690743757e+005	(3.39795978597284e+001dB,-1.63567054219269e-004°)
1.73780082874939e+005	(3.39795978594647e+001dB,-1.71273423568989e-004°)
1.81970085861000e+005	(3.39795978592149e+001dB,-1.79342867025903e-004°)
1.90546071796326e+005	(3.39795978589831e+001dB,-1.87792506223618e-004°)
1.99526231496890e+005	(3.39795978587736e+001dB,-1.96640272801560e-004°)
2.08929613085406e+005	(3.39795978585911e+001dB,-2.05904946866965e-004°)
2.18776162394957e+005	(3.39795978584405e+001dB,-2.15606197293157e-004°)
2.29086765276779e+005	(3.39795978583270e+001dB,-2.25764623728526e-004°)
2.39883291901951e+005	(3.39795978582561e+001dB,-2.36401800676854e-004°)
2.51188643150960e+005	(3.39795978582332e+001dB,-2.47540323732784e-004°)
2.63026799189541e+005	(3.39795978582642e+001dB,-2.59203857855581e-004°)
2.75422870333819e+005	(3.39795978583550e+001dB,-2.71417188132435e-004°)
2.88403150312663e+005	(3.39795978585118e+001dB,-2.84206272691666e-004°)
3.01995172040204e+005	(3.39795978587406e+001dB,-2.97598298553217e-004°)
3.16227766016841e+005	(3.39795978590481e+001dB,-3.11621739815564e-004°)
3.31131121482594e+005	(3.39795978594407e+001dB,-3.26306419024233e-004°)
3.46736850452535e+005	(3.39795978599252e+001dB,-3.41683571248792e-004°)
3.63078054770105e+005	(3.39795978605085e+001dB,-3.57785911520438e-004°)
3.80189396320565e+005	(3.39795978611976e+001dB,-3.74647705611275e-004°)
3.98107170553501e+005	(3.39795978619998e+001dB,-3.92304844255293e-004°)
4.16869383470339e+005	(3.39795978629225e+001dB,-4.10794921108176e-004°)
4.36515832240170e+005	(3.39795978639734e+001dB,-4.30157314674106e-004°)
4.57088189614879e+005	(3.39795978651600e+001dB,-4.50433274392426e-004°)
4.78630092322643e+005	(3.39795978664904e+001dB,-4.71666010966720e-004°)
5.01187233627277e+005	(3.39795978679722e+001dB,-4.93900791303662e-004°)
5.24807460249778e+005	(3.39795978696133e+001dB,-5.17185038584037e-004°)
5.49540873857630e+005	(3.39795978714213e+001dB,-5.41568437069321e-004°)
5.75439937337163e+005	(3.39795978734033e+001dB,-5.67103042447608e-004°)
6.02559586074364e+005	(3.39795978755661e+001dB,-5.93843398240289e-004°)
6.30957344480200e+005	(3.39795978779152e+001dB,-6.21846657609292e-004°)
6.60693448007603e+005	(3.39795978804552e+001dB,-6.51172712284580e-004°)
6.91830970918944e+005	(3.39795978831887e+001dB,-6.81884327647688e-004°)
7.24435960074998e+005	(3.39795978861162e+001dB,-7.14047285478022e-004°)
7.58577575029192e+005	(3.39795978892349e+001dB,-7.47730533942853e-004°)
7.94328234724290e+005	(3.39795978925383e+001dB,-7.83006345779154e-004°)
8.31763771102680e+005	(3.39795978960147e+001dB,-8.19950484961420e-004°)
8.70963589956090e+005	(3.39795978996460e+001dB,-8.58642382467963e-004°)
9.12010839355920e+005	(3.39795979034062e+001dB,-8.99165321272778e-004°)
9.54992586021446e+005	(3.39795979072595e+001dB,-9.41606631843132e-004°)
1.00000000000001e+006	(3.39795979111578e+001dB,-9.86057897940029e-004°)
1.04712854805091e+006	(3.39795979150377e+001dB,-1.03261517369663e-003°)
1.09647819614320e+006	(3.39795979188176e+001dB,-1.08137921262324e-003°)
1.14815362149690e+006	(3.39795979223937e+001dB,-1.13245570890507e-003°)
1.20226443461743e+006	(3.39795979256348e+001dB,-1.18595555178342e-003°)
1.25892541179418e+006	(3.39795979283771e+001dB,-1.24199509337193e-003°)
1.31825673855642e+006	(3.39795979304175e+001dB,-1.30069643084336e-003°)
1.38038426460290e+006	(3.39795979315059e+001dB,-1.36218770306623e-003°)
1.44543977074594e+006	(3.39795979313360e+001dB,-1.42660340235885e-003°)
1.51356124843623e+006	(3.39795979295349e+001dB,-1.49408470178421e-003°)
1.58489319246113e+006	(3.39795979256506e+001dB,-1.56477979804777e-003°)
1.65958690743758e+006	(3.39795979191380e+001dB,-1.63884427036375e-003°)
1.73780082874940e+006	(3.39795979093423e+001dB,-1.71644145486504e-003°)
1.81970085861001e+006	(3.39795978954805e+001dB,-1.79774283477682e-003°)
1.90546071796327e+006	(3.39795978766197e+001dB,-1.88292844562497e-003°)
1.99526231496890e+006	(3.39795978516532e+001dB,-1.97218729472691e-003°)
2.08929613085406e+006	(3.39795978192727e+001dB,-2.06571779438701e-003°)
2.18776162394958e+006	(3.39795977779381e+001dB,-2.16372820706020e-003°)
2.29086765276780e+006	(3.39795977258431e+001dB,-2.26643710162905e-003°)
2.39883291901952e+006	(3.39795976608778e+001dB,-2.37407381864873e-003°)
2.51188643150961e+006	(3.39795975805867e+001dB,-2.48687894311306e-003°)
2.63026799189541e+006	(3.39795974821245e+001dB,-2.60510478256985e-003°)
2.75422870333820e+006	(3.39795973622067e+001dB,-2.72901584901167e-003°)
2.88403150312664e+006	(3.39795972170582e+001dB,-2.85888934270070e-003°)
3.01995172040205e+006	(3.39795970423578e+001dB,-2.99501563673542e-003°)
3.16227766016842e+006	(3.39795968331800e+001dB,-3.13769876166461e-003°)
3.31131121482595e+006	(3.39795965839352e+001dB,-3.28725689013634e-003°)
3.46736850452536e+006	(3.39795962883067e+001dB,-3.44402282273587e-003°)
3.63078054770106e+006	(3.39795959391873e+001dB,-3.60834447719345e-003°)
3.80189396320566e+006	(3.39795955286145e+001dB,-3.78058538466727e-003°)
3.98107170553502e+006	(3.39795950477049e+001dB,-3.96112519806899e-003°)
4.16869383470341e+006	(3.39795944865885e+001dB,-4.15036021887405e-003°)
4.36515832240172e+006	(3.39795938343428e+001dB,-4.34870395035693e-003°)
4.57088189614881e+006	(3.39795930789257e+001dB,-4.55658768601760e-003°)
4.78630092322645e+006	(3.39795922071079e+001dB,-4.77446114295303e-003°)
5.01187233627279e+006	(3.39795912044030e+001dB,-5.00279315014088e-003°)
5.24807460249780e+006	(3.39795900549942e+001dB,-5.24207240139112e-003°)
5.49540873857632e+006	(3.39795887416563e+001dB,-5.49280828205173e-003°)
5.75439937337165e+006	(3.39795872456702e+001dB,-5.75553177709402e-003°)
6.02559586074366e+006	(3.39795855467285e+001dB,-6.03079646655714e-003°)
6.30957344480202e+006	(3.39795836228289e+001dB,-6.31917961209231e-003°)
6.60693448007605e+006	(3.39795814501527e+001dB,-6.62128333596164e-003°)
6.91830970918946e+006	(3.39795790029264e+001dB,-6.93773589132339e-003°)
7.24435960075000e+006	(3.39795762532619e+001dB,-7.26919302054211e-003°)
7.58577575029195e+006	(3.39795731709747e+001dB,-7.61633939591214e-003°)
7.94328234724293e+006	(3.39795697233752e+001dB,-7.97989013569149e-003°)
8.31763771102683e+006	(3.39795658750327e+001dB,-8.36059238725144e-003°)
8.70963589956093e+006	(3.39795615875077e+001dB,-8.75922696830646e-003°)
9.12010839355923e+006	(3.39795568190519e+001dB,-9.17661005714607e-003°)
9.54992586021450e+006	(3.39795515242733e+001dB,-9.61359492306397e-003°)
1.00000000000001e+007	(3.39795456537637e+001dB,-1.00710736886563e-002°)
1.04712854805091e+007	(3.39795391536869e+001dB,-1.05499791166090e-002°)
1.09647819614320e+007	(3.39795319653258e+001dB,-1.10512864143395e-002°)
1.14815362149690e+007	(3.39795240245847e+001dB,-1.15760150508632e-002°)
1.20226443461743e+007	(3.39795152614456e+001dB,-1.21252305809322e-002°)
1.25892541179419e+007	(3.39795055993739e+001dB,-1.27000464721101e-002°)
1.31825673855643e+007	(3.39794949546718e+001dB,-1.33016259308709e-002°)
1.38038426460291e+007	(3.39794832357739e+001dB,-1.39311837238686e-002°)
1.44543977074595e+007	(3.39794703424822e+001dB,-1.45899879906109e-002°)
1.51356124843623e+007	(3.39794561651354e+001dB,-1.52793620434904e-002°)
1.58489319246114e+007	(3.39794405837068e+001dB,-1.60006861509716e-002°)
1.65958690743759e+007	(3.39794234668268e+001dB,-1.67553992995822e-002°)
1.73780082874940e+007	(3.39794046707225e+001dB,-1.75450009304620e-002°)
1.81970085861001e+007	(3.39793840380702e+001dB,-1.83710526468258e-002°)
1.90546071796328e+007	(3.39793613967522e+001dB,-1.92351798900981e-002°)
1.99526231496891e+007	(3.39793365585130e+001dB,-2.01390735850180e-002°)
2.08929613085407e+007	(3.39793093175069e+001dB,-2.10844917583640e-002°)
2.18776162394959e+007	(3.39792794487308e+001dB,-2.20732611427633e-002°)
2.29086765276781e+007	(3.39792467063350e+001dB,-2.31072787874232e-002°)
2.39883291901953e+007	(3.39792108218049e+001dB,-2.41885137129389e-002°)
2.51188643150962e+007	(3.39791715020089e+001dB,-2.53190086697546e-002°)
2.63026799189542e+007	(3.39791284271035e+001dB,-2.65008820919349e-002°)
2.75422870333821e+007	(3.39790812482930e+001dB,-2.77363303839105e-002°)
2.88403150312665e+007	(3.39790295854374e+001dB,-2.90276307432584e-002°)
3.01995172040207e+007	(3.39789730245030e+001dB,-3.03771448153946e-002°)
3.16227766016843e+007	(3.39789111148522e+001dB,-3.17873236079892e-002°)
3.31131121482597e+007	(3.39788433663643e+001dB,-3.32607142805575e-002°)
3.46736850452537e+007	(3.39787692463765e+001dB,-3.47999696924194e-002°)
3.63078054770107e+007	(3.39786881764254e+001dB,-3.64078619759453e-002°)
3.80189396320568e+007	(3.39785995287509e+001dB,-3.80873019545893e-002°)
3.98107170553504e+007	(3.39785026224924e+001dB,-3.98413670257818e-002°)
4.16869383470342e+007	(3.39783967194443e+001dB,-4.16733412958571e-002°)
4.36515832240173e+007	(3.39782810191293e+001dB,-4.35867734668364e-002°)
4.57088189614883e+007	(3.39781546527454e+001dB,-4.55855605033335e-002°)
4.78630092322647e+007	(3.39780166751815e+001dB,-4.76740688592626e-002°)
5.01187233627281e+007	(3.39778660536341e+001dB,-4.98573106227454e-002°)
5.24807460249782e+007	(3.39777016501409e+001dB,-5.21412002110176e-002°)
5.49540873857634e+007	(3.39775221930843e+001dB,-5.45329293630296e-002°)
5.75439937337167e+007	(3.39773262284389e+001dB,-5.70415153453339e-002°)
6.02559586074368e+007	(3.39771120333468e+001dB,-5.96785997226363e-002°)
6.30957344480204e+007	(3.39768774587019e+001dB,-6.24595982417058e-002°)
6.60693448007608e+007	(3.39766196363099e+001dB,-6.54053052046573e-002°)
6.91830970918949e+007	(3.39763344255932e+001dB,-6.85439641354112e-002°)
7.24435960075003e+007	(3.39760153608070e+001dB,-7.19133970386121e-002°)
7.58577575029197e+007	(3.39756516686894e+001dB,-7.55613493047178e-002°)
7.94328234724296e+007	(3.39752247229691e+001dB,-7.95379198588499e-002°)
8.31763771102686e+007	(3.39747026632007e+001dB,-8.38629891295141e-002°)
8.70963589956096e+007	(3.39740363039721e+001dB,-8.84324182511462e-002°)
9.12010839355926e+007	(3.39731714784582e+001dB,-9.28358966006120e-002°)
9.54992586021453e+007	(3.39721063872576e+001dB,-9.62524877738887e-002°)
1.00000000000002e+008	(3.39709650570369e+001dB,-9.79465810393935e-002°)
1.04712854805092e+008	(3.39699303791919e+001dB,-9.81921847194603e-002°)
1.09647819614321e+008	(3.39690649012327e+001dB,-9.80528073476737e-002°)
1.14815362149690e+008	(3.39682997233105e+001dB,-9.82853730322868e-002°)
1.20226443461744e+008	(3.39675453845726e+001dB,-9.90423712792844e-002°)
1.25892541179419e+008	(3.39667447133156e+001dB,-1.00181375881072e-001°)
1.31825673855643e+008	(3.39658695789483e+001dB,-1.01505773673782e-001°)
1.38038426460291e+008	(3.39649075418291e+001dB,-1.02843660339856e-001°)
1.44543977074595e+008	(3.39638531894293e+001dB,-1.04055537233784e-001°)
1.51356124843624e+008	(3.39627040083025e+001dB,-1.05024458200303e-001°)
1.58489319246114e+008	(3.39614586977791e+001dB,-1.05645617362905e-001°)
1.65958690743759e+008	(3.39601166060191e+001dB,-1.05818687509698e-001°)
1.73780082874941e+008	(3.39586776577935e+001dB,-1.05442678490822e-001°)
1.81970085861002e+008	(3.39571424997767e+001dB,-1.04412563692371e-001°)
1.90546071796328e+008	(3.39555127495025e+001dB,-1.02617077789361e-001°)
1.99526231496892e+008	(3.39537913027743e+001dB,-9.99373083669230e-002°)
2.08929613085408e+008	(3.39519826829399e+001dB,-9.62458684474108e-002°)
2.18776162394960e+008	(3.39500934269309e+001dB,-9.14065448202496e-002°)
2.29086765276782e+008	(3.39481325070843e+001dB,-8.52743856673984e-002°)
2.39883291901954e+008	(3.39461117886615e+001dB,-7.76962350345244e-002°)
2.51188643150963e+008	(3.39440465224101e+001dB,-6.85117508293731e-002°)
2.63026799189543e+008	(3.39419558702581e+001dB,-5.75549630152548e-002°)
2.75422870333822e+008	(3.39398634606478e+001dB,-4.46564429484271e-002°)
