Freq.	V(n004)/I(R5)
1.00000000000000e+003	(3.39795978659923e+001dB,-9.81247421401707e-007°)
1.04712854805090e+003	(3.39795978659923e+001dB,-1.02749218602406e-006°)
1.09647819614319e+003	(3.39795978659923e+001dB,-1.07591639919846e-006°)
1.14815362149688e+003	(3.39795978659924e+001dB,-1.12662277470100e-006°)
1.20226443461741e+003	(3.39795978659924e+001dB,-1.17971886799047e-006°)
1.25892541179417e+003	(3.39795978659924e+001dB,-1.23531730270888e-006°)
1.31825673855641e+003	(3.39795978659924e+001dB,-1.29353601045775e-006°)
1.38038426460289e+003	(3.39795978659924e+001dB,-1.35449848109784e-006°)
1.44543977074593e+003	(3.39795978659924e+001dB,-1.41833402367824e-006°)
1.51356124843621e+003	(3.39795978659924e+001dB,-1.48517804161101e-006°)
1.58489319246111e+003	(3.39795978659925e+001dB,-1.55517232148827e-006°)
1.65958690743756e+003	(3.39795978659925e+001dB,-1.62846532849177e-006°)
1.73780082874938e+003	(3.39795978659925e+001dB,-1.70521252796741e-006°)
1.81970085860999e+003	(3.39795978659926e+001dB,-1.78557671070965e-006°)
1.90546071796325e+003	(3.39795978659926e+001dB,-1.86972833920449e-006°)
1.99526231496888e+003	(3.39795978659926e+001dB,-1.95784591037612e-006°)
2.08929613085404e+003	(3.39795978659927e+001dB,-2.05011633312748e-006°)
2.18776162394956e+003	(3.39795978659927e+001dB,-2.14673532475284e-006°)
2.29086765276778e+003	(3.39795978659927e+001dB,-2.24790782809734e-006°)
2.39883291901949e+003	(3.39795978659928e+001dB,-2.35384844164436e-006°)
2.51188643150958e+003	(3.39795978659929e+001dB,-2.46478187970918e-006°)
2.63026799189539e+003	(3.39795978659929e+001dB,-2.58094344623425e-006°)
2.75422870333817e+003	(3.39795978659930e+001dB,-2.70257953582299e-006°)
2.88403150312661e+003	(3.39795978659931e+001dB,-2.82994815398163e-006°)
3.01995172040202e+003	(3.39795978659931e+001dB,-2.96331946404464e-006°)
3.16227766016839e+003	(3.39795978659932e+001dB,-3.10297636529437e-006°)
3.31131121482592e+003	(3.39795978659933e+001dB,-3.24921508730959e-006°)
3.46736850452532e+003	(3.39795978659934e+001dB,-3.40234582065650e-006°)
3.63078054770102e+003	(3.39795978659935e+001dB,-3.56269337523150e-006°)
3.80189396320562e+003	(3.39795978659937e+001dB,-3.73059786736626e-006°)
3.98107170553498e+003	(3.39795978659938e+001dB,-3.90641544447863e-006°)
4.16869383470336e+003	(3.39795978659940e+001dB,-4.09051903485442e-006°)
4.36515832240167e+003	(3.39795978659941e+001dB,-4.28329914672994e-006°)
4.57088189614876e+003	(3.39795978659943e+001dB,-4.48516468781512e-006°)
4.78630092322640e+003	(3.39795978659945e+001dB,-4.69654384131867e-006°)
5.01187233627274e+003	(3.39795978659947e+001dB,-4.91788496427827e-006°)
5.24807460249774e+003	(3.39795978659950e+001dB,-5.14965754900433e-006°)
5.49540873857626e+003	(3.39795978659953e+001dB,-5.39235321057166e-006°)
5.75439937337159e+003	(3.39795978659956e+001dB,-5.64648673364167e-006°)
6.02559586074360e+003	(3.39795978659959e+001dB,-5.91259716083262e-006°)
6.30957344480195e+003	(3.39795978659962e+001dB,-6.19124894535705e-006°)
6.60693448007598e+003	(3.39795978659966e+001dB,-6.48303313203163e-006°)
6.91830970918939e+003	(3.39795978659971e+001dB,-6.78856862921828e-006°)
7.24435960074992e+003	(3.39795978659975e+001dB,-7.10850350218376e-006°)
7.58577575029186e+003	(3.39795978659980e+001dB,-7.44351636878590e-006°)
7.94328234724284e+003	(3.39795978659986e+001dB,-7.79431781891195e-006°)
8.31763771102674e+003	(3.39795978659992e+001dB,-8.16165193086824e-006°)
8.70963589956084e+003	(3.39795978659999e+001dB,-8.54629785593089e-006°)
9.12010839355913e+003	(3.39795978660006e+001dB,-8.94907144931796e-006°)
9.54992586021439e+003	(3.39795978660015e+001dB,-9.37082703308405e-006°)
1.00000000000000e+004	(3.39795978660024e+001dB,-9.81245917034257e-006°)
1.04712854805090e+004	(3.39795978660033e+001dB,-1.02749045939202e-005°)
1.09647819614319e+004	(3.39795978660044e+001dB,-1.07591441702209e-005°)
1.14815362149689e+004	(3.39795978660056e+001dB,-1.12662049986744e-005°)
1.20226443461742e+004	(3.39795978660069e+001dB,-1.17971625688278e-005°)
1.25892541179417e+004	(3.39795978660084e+001dB,-1.23531430589796e-005°)
1.31825673855641e+004	(3.39795978660100e+001dB,-1.29353257085184e-005°)
1.38038426460289e+004	(3.39795978660117e+001dB,-1.35449453333088e-005°)
1.44543977074593e+004	(3.39795978660136e+001dB,-1.41832949341022e-005°)
1.51356124843621e+004	(3.39795978660158e+001dB,-1.48517284331642e-005°)
1.58489319246112e+004	(3.39795978660181e+001dB,-1.55516635556389e-005°)
1.65958690743757e+004	(3.39795978660207e+001dB,-1.62845848286462e-005°)
1.73780082874938e+004	(3.39795978660235e+001dB,-1.70520467334398e-005°)
1.81970085860999e+004	(3.39795978660267e+001dB,-1.78556769863018e-005°)
1.90546071796326e+004	(3.39795978660301e+001dB,-1.86971800010523e-005°)
1.99526231496889e+004	(3.39795978660339e+001dB,-1.95783404914407e-005°)
2.08929613085405e+004	(3.39795978660381e+001dB,-2.05010272729836e-005°)
2.18776162394956e+004	(3.39795978660428e+001dB,-2.14671971929342e-005°)
2.29086765276778e+004	(3.39795978660479e+001dB,-2.24788992978447e-005°)
2.39883291901950e+004	(3.39795978660536e+001dB,-2.35382791617685e-005°)
2.51188643150959e+004	(3.39795978660600e+001dB,-2.46475834530876e-005°)
2.63026799189540e+004	(3.39795978660670e+001dB,-2.58091646438668e-005°)
2.75422870333818e+004	(3.39795978660748e+001dB,-2.70254860536094e-005°)
2.88403150312662e+004	(3.39795978660834e+001dB,-2.82991270201732e-005°)
3.01995172040203e+004	(3.39795978660930e+001dB,-2.96327883790477e-005°)
3.16227766016840e+004	(3.39795978661037e+001dB,-3.10292981773259e-005°)
3.31131121482593e+004	(3.39795978661157e+001dB,-3.24916176575354e-005°)
3.46736850452534e+004	(3.39795978661290e+001dB,-3.40228475129138e-005°)
3.63078054770103e+004	(3.39795978661438e+001dB,-3.56262344957872e-005°)
3.80189396320563e+004	(3.39795978661605e+001dB,-3.73051782166929e-005°)
3.98107170553500e+004	(3.39795978661791e+001dB,-3.90632383820902e-005°)
4.16869383470338e+004	(3.39795978662000e+001dB,-4.09041423255142e-005°)
4.36515832240169e+004	(3.39795978662235e+001dB,-4.28317928616374e-005°)
4.57088189614878e+004	(3.39795978662499e+001dB,-4.48502765612595e-005°)
4.78630092322641e+004	(3.39795978662796e+001dB,-4.69638723802433e-005°)
5.01187233627275e+004	(3.39795978663131e+001dB,-4.91770607235277e-005°)
5.24807460249776e+004	(3.39795978663510e+001dB,-5.14945329065666e-005°)
5.49540873857628e+004	(3.39795978663938e+001dB,-5.39212010499845e-005°)
5.75439937337161e+004	(3.39795978664423e+001dB,-5.64622085441168e-005°)
6.02559586074362e+004	(3.39795978664973e+001dB,-5.91229408251269e-005°)
6.30957344480197e+004	(3.39795978665597e+001dB,-6.19090368094567e-005°)
6.60693448007600e+004	(3.39795978666307e+001dB,-6.48264008672349e-005°)
6.91830970918941e+004	(3.39795978667115e+001dB,-6.78812152379241e-005°)
7.24435960074995e+004	(3.39795978668036e+001dB,-7.10799532129187e-005°)
7.58577575029189e+004	(3.39795978669086e+001dB,-7.44293926841379e-005°)
7.94328234724287e+004	(3.39795978670285e+001dB,-7.79366307196044e-005°)
8.31763771102677e+004	(3.39795978671655e+001dB,-8.16090984318121e-005°)
8.70963589956087e+004	(3.39795978673221e+001dB,-8.54545768814343e-005°)
9.12010839355916e+004	(3.39795978675011e+001dB,-8.94812135075405e-005°)
9.54992586021443e+004	(3.39795978677059e+001dB,-9.36975395138583e-005°)
1.00000000000001e+005	(3.39795978679403e+001dB,-9.81124879769308e-005°)
1.04712854805091e+005	(3.39795978682085e+001dB,-1.02735412935717e-004°)
1.09647819614319e+005	(3.39795978685153e+001dB,-1.07576109298867e-004°)
1.14815362149689e+005	(3.39795978688662e+001dB,-1.12644833777138e-004°)
1.20226443461742e+005	(3.39795978692673e+001dB,-1.17952326791125e-004°)
1.25892541179418e+005	(3.39795978697256e+001dB,-1.23509835509812e-004°)
1.31825673855642e+005	(3.39795978702486e+001dB,-1.29329137838246e-004°)
1.38038426460290e+005	(3.39795978708452e+001dB,-1.35422567799160e-004°)
1.44543977074594e+005	(3.39795978715249e+001dB,-1.41803041841698e-004°)
1.51356124843622e+005	(3.39795978722982e+001dB,-1.48484086726048e-004°)
1.58489319246113e+005	(3.39795978731770e+001dB,-1.55479868348483e-004°)
1.65958690743757e+005	(3.39795978741742e+001dB,-1.62805222384205e-004°)
1.73780082874939e+005	(3.39795978753041e+001dB,-1.70475685967947e-004°)
1.81970085861000e+005	(3.39795978765822e+001dB,-1.78507531034550e-004°)
1.90546071796326e+005	(3.39795978780256e+001dB,-1.86917799376895e-004°)
1.99526231496890e+005	(3.39795978796530e+001dB,-1.95724339008263e-004°)
2.08929613085406e+005	(3.39795978814846e+001dB,-2.04945842439825e-004°)
2.18776162394957e+005	(3.39795978835425e+001dB,-2.14601886822022e-004°)
2.29086765276779e+005	(3.39795978858505e+001dB,-2.24712975718103e-004°)
2.39883291901951e+005	(3.39795978884346e+001dB,-2.35300583016793e-004°)
2.51188643150960e+005	(3.39795978913229e+001dB,-2.46387198926506e-004°)
2.63026799189541e+005	(3.39795978945460e+001dB,-2.57996378008255e-004°)
2.75422870333819e+005	(3.39795978981368e+001dB,-2.70152789732612e-004°)
2.88403150312663e+005	(3.39795979021312e+001dB,-2.82882271141636e-004°)
3.01995172040204e+005	(3.39795979065681e+001dB,-2.96211882362667e-004°)
3.16227766016841e+005	(3.39795979114895e+001dB,-3.10169964637088e-004°)
3.31131121482594e+005	(3.39795979169413e+001dB,-3.24786201311485e-004°)
3.46736850452535e+005	(3.39795979229732e+001dB,-3.40091681644524e-004°)
3.63078054770105e+005	(3.39795979296390e+001dB,-3.56118967916017e-004°)
3.80189396320565e+005	(3.39795979369977e+001dB,-3.72902165828304e-004°)
3.98107170553501e+005	(3.39795979451131e+001dB,-3.90476998501746e-004°)
4.16869383470339e+005	(3.39795979540547e+001dB,-4.08880883884788e-004°)
4.36515832240170e+005	(3.39795979638983e+001dB,-4.28153016435057e-004°)
4.57088189614879e+005	(3.39795979747264e+001dB,-4.48334452719500e-004°)
4.78630092322643e+005	(3.39795979866286e+001dB,-4.69468201319729e-004°)
5.01187233627277e+005	(3.39795979997027e+001dB,-4.91599317375834e-004°)
5.24807460249778e+005	(3.39795980140550e+001dB,-5.14775002068712e-004°)
5.49540873857630e+005	(3.39795980298011e+001dB,-5.39044706999365e-004°)
5.75439937337163e+005	(3.39795980470668e+001dB,-5.64460244035904e-004°)
6.02559586074364e+005	(3.39795980659887e+001dB,-5.91075901042805e-004°)
6.30957344480200e+005	(3.39795980867149e+001dB,-6.18948563228991e-004°)
6.60693448007603e+005	(3.39795981094063e+001dB,-6.48137841335290e-004°)
6.91830970918944e+005	(3.39795981342370e+001dB,-6.78706206196761e-004°)
7.24435960074998e+005	(3.39795981613955e+001dB,-7.10719130689237e-004°)
7.58577575029192e+005	(3.39795981910852e+001dB,-7.44245239034865e-004°)
7.94328234724290e+005	(3.39795982235259e+001dB,-7.79356464279908e-004°)
8.31763771102680e+005	(3.39795982589540e+001dB,-8.16128214074580e-004°)
8.70963589956090e+005	(3.39795982976237e+001dB,-8.54639545662614e-004°)
9.12010839355920e+005	(3.39795983398074e+001dB,-8.94973349999004e-004°)
9.54992586021446e+005	(3.39795983857969e+001dB,-9.37216546294576e-004°)
1.00000000000001e+006	(3.39795984359033e+001dB,-9.81460286899425e-004°)
1.04712854805091e+006	(3.39795984904575e+001dB,-1.02780017335156e-003°)
1.09647819614320e+006	(3.39795985498103e+001dB,-1.07633648440805e-003°)
1.14815362149690e+006	(3.39795986143322e+001dB,-1.12717441623599e-003°)
1.20226443461743e+006	(3.39795986844127e+001dB,-1.18042433572535e-003°)
1.25892541179418e+006	(3.39795987604591e+001dB,-1.23620204720912e-003°)
1.31825673855642e+006	(3.39795988428950e+001dB,-1.29462907351306e-003°)
1.38038426460290e+006	(3.39795989321581e+001dB,-1.35583295151248e-003°)
1.44543977074594e+006	(3.39795990286969e+001dB,-1.41994754280155e-003°)
1.51356124843623e+006	(3.39795991329666e+001dB,-1.48711335991821e-003°)
1.58489319246113e+006	(3.39795992454243e+001dB,-1.55747790832586e-003°)
1.65958690743758e+006	(3.39795993665225e+001dB,-1.63119604440211e-003°)
1.73780082874940e+006	(3.39795994967017e+001dB,-1.70843034911755e-003°)
1.81970085861001e+006	(3.39795996363806e+001dB,-1.78935151774834e-003°)
1.90546071796327e+006	(3.39795997859461e+001dB,-1.87413876484049e-003°)
1.99526231496890e+006	(3.39795999457395e+001dB,-1.96298024378590e-003°)
2.08929613085406e+006	(3.39796001160428e+001dB,-2.05607348054416e-003°)
2.18776162394958e+006	(3.39796002970611e+001dB,-2.15362581986850e-003°)
2.29086765276780e+006	(3.39796004889045e+001dB,-2.25585488324462e-003°)
2.39883291901952e+006	(3.39796006915663e+001dB,-2.36298903659914e-003°)
2.51188643150961e+006	(3.39796009049005e+001dB,-2.47526786643235e-003°)
2.63026799189541e+006	(3.39796011285967e+001dB,-2.59294266235876e-003°)
2.75422870333820e+006	(3.39796013621534e+001dB,-2.71627690470487e-003°)
2.88403150312664e+006	(3.39796016048501e+001dB,-2.84554675547937e-003°)
3.01995172040205e+006	(3.39796018557185e+001dB,-2.98104155173300e-003°)
3.16227766016842e+006	(3.39796021135132e+001dB,-3.12306430086524e-003°)
3.31131121482595e+006	(3.39796023766832e+001dB,-3.27193217807337e-003°)
3.46736850452536e+006	(3.39796026433440e+001dB,-3.42797702737743e-003°)
3.63078054770106e+006	(3.39796029112513e+001dB,-3.59154586863269e-003°)
3.80189396320566e+006	(3.39796031777780e+001dB,-3.76300141456815e-003°)
3.98107170553502e+006	(3.39796034398937e+001dB,-3.94272260304478e-003°)
4.16869383470341e+006	(3.39796036941484e+001dB,-4.13110515143206e-003°)
4.36515832240172e+006	(3.39796039366606e+001dB,-4.32856214126990e-003°)
4.57088189614881e+006	(3.39796041631097e+001dB,-4.53552464254508e-003°)
4.78630092322645e+006	(3.39796043687328e+001dB,-4.75244238772939e-003°)
5.01187233627279e+006	(3.39796045483259e+001dB,-4.97978450621556e-003°)
5.24807460249780e+006	(3.39796046962484e+001dB,-5.21804032956802e-003°)
5.49540873857632e+006	(3.39796048064297e+001dB,-5.46772027754768e-003°)
5.75439937337165e+006	(3.39796048723777e+001dB,-5.72935683356266e-003°)
6.02559586074366e+006	(3.39796048871864e+001dB,-6.00350561675216e-003°)
6.30957344480202e+006	(3.39796048435411e+001dB,-6.29074655592364e-003°)
6.60693448007605e+006	(3.39796047337207e+001dB,-6.59168516842895e-003°)
6.91830970918946e+006	(3.39796045495936e+001dB,-6.90695394487268e-003°)
7.24435960075000e+006	(3.39796042826065e+001dB,-7.23721383875470e-003°)
7.58577575029195e+006	(3.39796039237647e+001dB,-7.58315585819933e-003°)
7.94328234724293e+006	(3.39796034636023e+001dB,-7.94550275584796e-003°)
8.31763771102683e+006	(3.39796028921406e+001dB,-8.32501081234505e-003°)
8.70963589956093e+006	(3.39796021988359e+001dB,-8.72247170850726e-003°)
9.12010839355923e+006	(3.39796013725144e+001dB,-9.13871448184624e-003°)
9.54992586021450e+006	(3.39796004012947e+001dB,-9.57460756397412e-003°)
1.00000000000001e+007	(3.39795992724980e+001dB,-1.00310608966627e-002°)
1.04712854805091e+007	(3.39795979725464e+001dB,-1.05090281260989e-002°)
1.09647819614320e+007	(3.39795964868488e+001dB,-1.10095088765747e-002°)
1.14815362149690e+007	(3.39795947996756e+001dB,-1.15335511069135e-002°)
1.20226443461743e+007	(3.39795928940218e+001dB,-1.20822535548936e-002°)
1.25892541179419e+007	(3.39795907514596e+001dB,-1.26567682769007e-002°)
1.31825673855643e+007	(3.39795883519796e+001dB,-1.32583032921126e-002°)
1.38038426460291e+007	(3.39795856738227e+001dB,-1.38881253423829e-002°)
1.44543977074595e+007	(3.39795826933007e+001dB,-1.45475627811499e-002°)
1.51356124843623e+007	(3.39795793846075e+001dB,-1.52380086067827e-002°)
1.58489319246114e+007	(3.39795757196206e+001dB,-1.59609236582373e-002°)
1.65958690743759e+007	(3.39795716676928e+001dB,-1.67178399937358e-002°)
1.73780082874940e+007	(3.39795671954356e+001dB,-1.75103644766454e-002°)
1.81970085861001e+007	(3.39795622664945e+001dB,-1.83401825970179e-002°)
1.90546071796328e+007	(3.39795568413173e+001dB,-1.92090625628527e-002°)
1.99526231496891e+007	(3.39795508769185e+001dB,-2.01188597022312e-002°)
2.08929613085407e+007	(3.39795443266410e+001dB,-2.10715212268982e-002°)
2.18776162394959e+007	(3.39795371399197e+001dB,-2.20690914201931e-002°)
2.29086765276781e+007	(3.39795292620521e+001dB,-2.31137173285740e-002°)
2.39883291901953e+007	(3.39795206339825e+001dB,-2.42076550577401e-002°)
2.51188643150962e+007	(3.39795111921092e+001dB,-2.53532768035416e-002°)
2.63026799189542e+007	(3.39795008681259e+001dB,-2.65530787870979e-002°)
2.75422870333821e+007	(3.39794895889147e+001dB,-2.78096903168015e-002°)
2.88403150312665e+007	(3.39794772765080e+001dB,-2.91258842726091e-002°)
3.01995172040207e+007	(3.39794638481478e+001dB,-3.05045894080062e-002°)
3.16227766016843e+007	(3.39794492164734e+001dB,-3.19489050038032e-002°)
3.31131121482597e+007	(3.39794332898785e+001dB,-3.34621186020716e-002°)
3.46736850452537e+007	(3.39794159730900e+001dB,-3.50477278226982e-002°)
3.63078054770107e+007	(3.39793971680284e+001dB,-3.67094676561627e-002°)
3.80189396320568e+007	(3.39793767750245e+001dB,-3.84513451897693e-002°)
3.98107170553504e+007	(3.39793546944734e+001dB,-4.02776845457980e-002°)
4.16869383470342e+007	(3.39793308290092e+001dB,-4.21931860201241e-002°)
4.36515832240173e+007	(3.39793050862664e+001dB,-4.42030052138164e-002°)
4.57088189614883e+007	(3.39792773822347e+001dB,-4.63128606710313e-002°)
4.78630092322647e+007	(3.39792476450702e+001dB,-4.85291826873768e-002°)
5.01187233627281e+007	(3.39792158188985e+001dB,-5.08593223522326e-002°)
5.24807460249782e+007	(3.39791818664619e+001dB,-5.33118498387143e-002°)
5.49540873857634e+007	(3.39791457680187e+001dB,-5.58969864978707e-002°)
5.75439937337167e+007	(3.39791075109255e+001dB,-5.86272395196059e-002°)
6.02559586074368e+007	(3.39790670581234e+001dB,-6.15183449334707e-002°)
6.30957344480204e+007	(3.39790242707391e+001dB,-6.45906784079396e-002°)
6.60693448007608e+007	(3.39789787325357e+001dB,-6.78713604849962e-002°)
6.91830970918949e+007	(3.39789293658234e+001dB,-7.13973275011382e-002°)
7.24435960075003e+007	(3.39788736073198e+001dB,-7.52195039949988e-002°)
7.58577575029197e+007	(3.39788056745999e+001dB,-7.94073359413362e-002°)
7.94328234724296e+007	(3.39787130689491e+001dB,-8.40495641381108e-002°)
8.31763771102686e+007	(3.39785702584097e+001dB,-8.92366517625760e-002°)
8.70963589956096e+007	(3.39783305865872e+001dB,-9.49862601744664e-002°)
9.12010839355926e+007	(3.39779285442244e+001dB,-1.01056320321470e-001°)
9.54992586021453e+007	(3.39773256532951e+001dB,-1.06733714118151e-001°)
1.00000000000002e+008	(3.39765992475166e+001dB,-1.11122030643221e-001°)
1.04712854805092e+008	(3.39759271359659e+001dB,-1.14100389391896e-001°)
1.09647819614321e+008	(3.39754181839620e+001dB,-1.16500172935778e-001°)
1.14815362149690e+008	(3.39750502236996e+001dB,-1.19156400167142e-001°)
1.20226443461744e+008	(3.39747541810676e+001dB,-1.22414072919209e-001°)
1.25892541179419e+008	(3.39744756718657e+001dB,-1.26293535253836e-001°)
1.31825673855643e+008	(3.39741835623395e+001dB,-1.30711200653519e-001°)
1.38038426460291e+008	(3.39738618482095e+001dB,-1.35577759685165e-001°)
1.44543977074595e+008	(3.39735022837648e+001dB,-1.40823578446221e-001°)
1.51356124843624e+008	(3.39731001816796e+001dB,-1.46399174899656e-001°)
1.58489319246114e+008	(3.39726523333849e+001dB,-1.52270179447675e-001°)
1.65958690743759e+008	(3.39721560345569e+001dB,-1.58412444230181e-001°)
1.73780082874941e+008	(3.39716086420366e+001dB,-1.64808394751486e-001°)
1.81970085861002e+008	(3.39710073794226e+001dB,-1.71444512141877e-001°)
1.90546071796328e+008	(3.39703492579290e+001dB,-1.78309634741870e-001°)
1.99526231496892e+008	(3.39696310502190e+001dB,-1.85393814492760e-001°)
2.08929613085408e+008	(3.39688492880123e+001dB,-1.92687543870905e-001°)
2.18776162394960e+008	(3.39680002695635e+001dB,-2.00181233922311e-001°)
2.29086765276782e+008	(3.39670800701200e+001dB,-2.07864868500831e-001°)
2.39883291901954e+008	(3.39660845515731e+001dB,-2.15727788639711e-001°)
2.51188643150963e+008	(3.39650093687562e+001dB,-2.23758579043500e-001°)
2.63026799189543e+008	(3.39638499701386e+001dB,-2.31945039564304e-001°)
2.75422870333822e+008	(3.39626015904975e+001dB,-2.40274230501658e-001°)
