Freq.	(V(n005)/I(R5)-50)/(V(n005)/I(R5)+50)
1.00000000000000e+003	(-9.88732681190869e+001dB,-4.32951209650687e-002°)
1.04712854805090e+003	(-9.88732678816235e+001dB,-4.53355562628369e-002°)
1.09647819614319e+003	(-9.88732676212944e+001dB,-4.74721541764200e-002°)
1.14815362149688e+003	(-9.88732673359267e+001dB,-4.97094466979389e-002°)
1.20226443461741e+003	(-9.88732670227535e+001dB,-5.20521794063618e-002°)
1.25892541179417e+003	(-9.88732666796936e+001dB,-5.45053214949839e-002°)
1.31825673855641e+003	(-9.88732663032691e+001dB,-5.70740763741215e-002°)
1.38038426460289e+003	(-9.88732658905323e+001dB,-5.97638926878751e-002°)
1.44543977074593e+003	(-9.88732654380077e+001dB,-6.25804758357191e-002°)
1.51356124843621e+003	(-9.88732649422050e+001dB,-6.55298000850557e-002°)
1.58489319246111e+003	(-9.88732643978507e+001dB,-6.86181213364185e-002°)
1.65958690743756e+003	(-9.88732638015930e+001dB,-7.18519902139690e-002°)
1.73780082874938e+003	(-9.88732631477340e+001dB,-7.52382661173774e-002°)
1.81970085860999e+003	(-9.88732624304630e+001dB,-7.87841316939602e-002°)
1.90546071796325e+003	(-9.88732616442427e+001dB,-8.24971080539852e-002°)
1.99526231496888e+003	(-9.88732607823480e+001dB,-8.63850708147820e-002°)
2.08929613085404e+003	(-9.88732598368083e+001dB,-9.04562667004390e-002°)
2.18776162394956e+003	(-9.88732588005138e+001dB,-9.47193310617781e-002°)
2.29086765276778e+003	(-9.88732576640026e+001dB,-9.91833063032986e-002°)
2.39883291901949e+003	(-9.88732564177164e+001dB,-1.03857660805690e-001°)
2.51188643150958e+003	(-9.88732550513759e+001dB,-1.08752309275862e-001°)
2.63026799189539e+003	(-9.88732535530770e+001dB,-1.13877633608478e-001°)
2.75422870333817e+003	(-9.88732519103846e+001dB,-1.19244504927231e-001°)
2.88403150312661e+003	(-9.88732501091392e+001dB,-1.24864306704847e-001°)
3.01995172040202e+003	(-9.88732481345306e+001dB,-1.30748958798076e-001°)
3.16227766016839e+003	(-9.88732459685817e+001dB,-1.36910942845167e-001°)
3.31131121482592e+003	(-9.88732435942334e+001dB,-1.43363328622947e-001°)
3.46736850452532e+003	(-9.88732409906881e+001dB,-1.50119801816922e-001°)
3.63078054770102e+003	(-9.88732381363273e+001dB,-1.57194692993267e-001°)
3.80189396320562e+003	(-9.88732350058661e+001dB,-1.64603007976586e-001°)
3.98107170553498e+003	(-9.88732315736156e+001dB,-1.72360459804188e-001°)
4.16869383470336e+003	(-9.88732278103281e+001dB,-1.80483501828770e-001°)
4.36515832240167e+003	(-9.88732236838696e+001dB,-1.88989362725535e-001°)
4.57088189614876e+003	(-9.88732191594886e+001dB,-1.97896082881409e-001°)
4.78630092322640e+003	(-9.88732141985953e+001dB,-2.07222552889642e-001°)
5.01187233627274e+003	(-9.88732087589747e+001dB,-2.16988553289344e-001°)
5.24807460249774e+003	(-9.88732027943183e+001dB,-2.27214796661210e-001°)
5.49540873857626e+003	(-9.88731962549138e+001dB,-2.37922971350078e-001°)
5.75439937337159e+003	(-9.88731890837418e+001dB,-2.49135787726794e-001°)
6.02559586074360e+003	(-9.88731812210976e+001dB,-2.60877025936926e-001°)
6.30957344480195e+003	(-9.88731726002215e+001dB,-2.73171586588296e-001°)
6.60693448007598e+003	(-9.88731631472700e+001dB,-2.86045543201053e-001°)
6.91830970918939e+003	(-9.88731527819375e+001dB,-2.99526197467699e-001°)
7.24435960074992e+003	(-9.88731414173654e+001dB,-3.13642137366023e-001°)
7.58577575029186e+003	(-9.88731289559216e+001dB,-3.28423297329029e-001°)
7.94328234724284e+003	(-9.88731152924946e+001dB,-3.43901021851260e-001°)
8.31763771102674e+003	(-9.88731003108798e+001dB,-3.60108131354773e-001°)
8.70963589956084e+003	(-9.88730838833829e+001dB,-3.77078992358994e-001°)
9.12010839355913e+003	(-9.88730658717398e+001dB,-3.94849589395637e-001°)
9.54992586021439e+003	(-9.88730461220205e+001dB,-4.13457601868315e-001°)
1.00000000000000e+004	(-9.88730244669553e+001dB,-4.32942482794337e-001°)
1.04712854805090e+004	(-9.88730007228747e+001dB,-4.53345543050025e-001°)
1.09647819614319e+004	(-9.88729746875972e+001dB,-4.74710038083671e-001°)
1.14815362149689e+004	(-9.88729461408747e+001dB,-4.97081259437788e-001°)
1.20226443461742e+004	(-9.88729148397402e+001dB,-5.20506629988669e-001°)
1.25892541179417e+004	(-9.88728805193098e+001dB,-5.45035804670385e-001°)
1.31825673855641e+004	(-9.88728428876947e+001dB,-5.70720774745186e-001°)
1.38038426460289e+004	(-9.88728016254100e+001dB,-5.97615977174201e-001°)
1.44543977074593e+004	(-9.88727563824839e+001dB,-6.25778409614655e-001°)
1.51356124843621e+004	(-9.88727067749254e+001dB,-6.55267749828050e-001°)
1.58489319246112e+004	(-9.88726523813904e+001dB,-6.86146481923112e-001°)
1.65958690743757e+004	(-9.88725927403476e+001dB,-7.18480026773127e-001°)
1.73780082874938e+004	(-9.88725273457561e+001dB,-7.52336880587531e-001°)
1.81970085860999e+004	(-9.88724556424247e+001dB,-7.87788756621190e-001°)
1.90546071796326e+004	(-9.88723770219242e+001dB,-8.24910736997485e-001°)
1.99526231496889e+004	(-9.88722908167478e+001dB,-8.63781428892472e-001°)
2.08929613085405e+004	(-9.88721962955963e+001dB,-9.04483129567208e-001°)
2.18776162394956e+004	(-9.88720926561684e+001dB,-9.47101996808991e-001°)
2.29086765276778e+004	(-9.88719790184849e+001dB,-9.91728229676213e-001°)
2.39883291901950e+004	(-9.88718544192440e+001dB,-1.03845625432329e+000°)
2.51188643150959e+004	(-9.88717178001336e+001dB,-1.08738492271159e+000°)
2.63026799189540e+004	(-9.88715680021492e+001dB,-1.13861771348898e+000°)
2.75422870333818e+004	(-9.88714037546396e+001dB,-1.19226294866179e+000°)
2.88403150312662e+004	(-9.88712236636891e+001dB,-1.24843401582724e+000°)
3.01995172040203e+004	(-9.88710262013049e+001dB,-1.30724960100027e+000°)
3.16227766016840e+004	(-9.88708096924433e+001dB,-1.36883393114461e+000°)
3.31131121482593e+004	(-9.88705723002447e+001dB,-1.43331702933208e+000°)
3.46736850452534e+004	(-9.88703120117681e+001dB,-1.50083497640020e+000°)
3.63078054770103e+004	(-9.88700266179333e+001dB,-1.57153019003947e+000°)
3.80189396320563e+004	(-9.88697136996640e+001dB,-1.64555170935240e+000°)
3.98107170553500e+004	(-9.88693706027553e+001dB,-1.72305549342589e+000°)
4.16869383470338e+004	(-9.88689944182076e+001dB,-1.80420473496501e+000°)
4.36515832240169e+004	(-9.88685819566526e+001dB,-1.88917018186773e+000°)
4.57088189614878e+004	(-9.88681297220670e+001dB,-1.97813047385189e+000°)
4.78630092322641e+004	(-9.88676338813602e+001dB,-2.07127249298499e+000°)
5.01187233627275e+004	(-9.88670902331978e+001dB,-2.16879172464880e+000°)
5.24807460249776e+004	(-9.88664941715365e+001dB,-2.27089263612392e+000°)
5.49540873857628e+004	(-9.88658406489661e+001dB,-2.37778906166839e+000°)
5.75439937337161e+004	(-9.88651241298033e+001dB,-2.48970461129794e+000°)
6.02559586074362e+004	(-9.88643385508372e+001dB,-2.60687308220145e+000°)
6.30957344480197e+004	(-9.88634772631237e+001dB,-2.72953889138679e+000°)
6.60693448007600e+004	(-9.88625329819917e+001dB,-2.85795751796451e+000°)
6.91830970918941e+004	(-9.88614977238424e+001dB,-2.99239595768235e+000°)
7.24435960074995e+004	(-9.88603627391067e+001dB,-3.13313319452221e+000°)
7.58577575029189e+004	(-9.88591184423016e+001dB,-3.28046067151771e+000°)
7.94328234724287e+004	(-9.88577543305963e+001dB,-3.43468279107500e+000°)
8.31763771102677e+004	(-9.88562588981753e+001dB,-3.59611740325011e+000°)
8.70963589956087e+004	(-9.88546195418645e+001dB,-3.76509632087295e+000°)
9.12010839355916e+004	(-9.88528224587376e+001dB,-3.94196582544595e+000°)
9.54992586021443e+004	(-9.88508525317438e+001dB,-4.12708718557731e+000°)
1.00000000000001e+005	(-9.88486932106389e+001dB,-4.32083717169173e+000°)
1.04712854805091e+005	(-9.88463263767504e+001dB,-4.52360857293570e+000°)
1.09647819614319e+005	(-9.88437321982903e+001dB,-4.73581069980322e+000°)
1.14815362149689e+005	(-9.88408889758709e+001dB,-4.95786988578421e+000°)
1.20226443461742e+005	(-9.88377729681621e+001dB,-5.19022996095762e+000°)
1.25892541179418e+005	(-9.88343582098143e+001dB,-5.43335271403543e+000°)
1.31825673855642e+005	(-9.88306163097050e+001dB,-5.68771831629013e+000°)
1.38038426460290e+005	(-9.88265162349056e+001dB,-5.95382570857271e+000°)
1.44543977074594e+005	(-9.88220240762088e+001dB,-6.23219294171588e+000°)
1.51356124843622e+005	(-9.88171027965911e+001dB,-6.52335745237123e+000°)
1.58489319246113e+005	(-9.88117119565548e+001dB,-6.82787626692582e+000°)
1.65958690743757e+005	(-9.88058074255514e+001dB,-7.14632612336060e+000°)
1.73780082874939e+005	(-9.87993410655306e+001dB,-7.47930347648240e+000°)
1.81970085861000e+005	(-9.87922603957901e+001dB,-7.82742438755584e+000°)
1.90546071796326e+005	(-9.87845082339344e+001dB,-8.19132426968454e+000°)
1.99526231496890e+005	(-9.87760223146295e+001dB,-8.57165745683862e+000°)
2.08929613085406e+005	(-9.87667348815497e+001dB,-8.96909658205829e+000°)
2.18776162394957e+005	(-9.87565722596705e+001dB,-9.38433173721241e+000°)
2.29086765276779e+005	(-9.87454544015203e+001dB,-9.81806936682085e+000°)
2.39883291901951e+005	(-9.87332944113286e+001dB,-1.02710308757649e+001°)
2.51188643150960e+005	(-9.87199980490080e+001dB,-1.07439509133567e+001°)
2.63026799189541e+005	(-9.87054632155198e+001dB,-1.12375752831580e+001°)
2.75422870333819e+005	(-9.86895794213303e+001dB,-1.17526584488247e+001°)
2.88403150312663e+005	(-9.86722272446003e+001dB,-1.22899605739878e+001°)
3.01995172040204e+005	(-9.86532777817131e+001dB,-1.28502440752005e+001°)
3.16227766016841e+005	(-9.86325920995589e+001dB,-1.34342696120575e+001°)
3.31131121482594e+005	(-9.86100206936514e+001dB,-1.40427914922146e+001°)
3.46736850452535e+005	(-9.85854029671115e+001dB,-1.46765524259602e+001°)
3.63078054770105e+005	(-9.85585667353558e+001dB,-1.53362775986544e+001°)
3.80189396320565e+005	(-9.85293277775896e+001dB,-1.60226680274763e+001°)
3.98107170553501e+005	(-9.84974894437703e+001dB,-1.67363931576280e+001°)
4.16869383470339e+005	(-9.84628423393428e+001dB,-1.74780826910727e+001°)
4.36515832240170e+005	(-9.84251641067089e+001dB,-1.82483176426548e+001°)
4.57088189614879e+005	(-9.83842193215083e+001dB,-1.90476206268973e+001°)
4.78630092322643e+005	(-9.83397595350210e+001dB,-1.98764454192271e+001°)
5.01187233627277e+005	(-9.82915234810687e+001dB,-2.07351658438856e+001°)
5.24807460249778e+005	(-9.82392374743383e+001dB,-2.16240640916050e+001°)
5.49540873857630e+005	(-9.81826160313854e+001dB,-2.25433185755172e+001°)
5.75439937337163e+005	(-9.81213627338949e+001dB,-2.34929914975035e+001°)
6.02559586074364e+005	(-9.80551713607451e+001dB,-2.44730163456909e+001°)
6.30957344480200e+005	(-9.79837273101564e+001dB,-2.54831855299273e+001°)
6.60693448007603e+005	(-9.79067093238751e+001dB,-2.65231384937674e+001°)
6.91830970918944e+005	(-9.78237915287416e+001dB,-2.75923505915418e+001°)
7.24435960074998e+005	(-9.77346457890994e+001dB,-2.86901231183940e+001°)
7.58577575029192e+005	(-9.76389443696562e+001dB,-2.98155748717421e+001°)
7.94328234724290e+005	(-9.75363628822951e+001dB,-3.09676356477567e+001°)
8.31763771102680e+005	(-9.74265834876456e+001dB,-3.21450420772286e+001°)
8.70963589956090e+005	(-9.73092983043142e+001dB,-3.33463361830759e+001°)
9.12010839355920e+005	(-9.71842129689551e+001dB,-3.45698669939204e+001°)
9.54992586021446e+005	(-9.70510502716087e+001dB,-3.58137955109257e+001°)
1.00000000000001e+006	(-9.69095537879509e+001dB,-3.70761032108362e+001°)
1.04712854805091e+006	(-9.67594914141487e+001dB,-3.83546041855451e+001°)
1.09647819614320e+006	(-9.66006587087043e+001dB,-3.96469609008619e+001°)
1.14815362149690e+006	(-9.64328819434076e+001dB,-4.09507034099129e+001°)
1.20226443461743e+006	(-9.62560207693797e+001dB,-4.22632517434553e+001°)
1.25892541179418e+006	(-9.60699704109926e+001dB,-4.35819410417731e+001°)
1.31825673855642e+006	(-9.58746633147292e+001dB,-4.49040489073994e+001°)
1.38038426460290e+006	(-9.56700701971732e+001dB,-4.62268243240251e+001°)
1.44543977074594e+006	(-9.54562004556380e+001dB,-4.75475174364322e+001°)
1.51356124843623e+006	(-9.52331019279411e+001dB,-4.88634094404495e+001°)
1.58489319246113e+006	(-9.50008600121558e+001dB,-5.01718418218495e+001°)
1.65958690743758e+006	(-9.47595961788358e+001dB,-5.14702442243396e+001°)
1.73780082874940e+006	(-9.45094659304957e+001dB,-5.27561602726609e+001°)
1.81970085861001e+006	(-9.42506562795406e+001dB,-5.40272707950510e+001°)
1.90546071796327e+006	(-9.39833828296900e+001dB,-5.52814139700040e+001°)
1.99526231496890e+006	(-9.37078865573187e+001dB,-5.65166020802709e+001°)
2.08929613085406e+006	(-9.34244303887748e+001dB,-5.77310346678082e+001°)
2.18776162394958e+006	(-9.31332956745854e+001dB,-5.89231080234603e+001°)
2.29086765276780e+006	(-9.28347786506849e+001dB,-6.00914210583064e+001°)
2.39883291901952e+006	(-9.25291869742341e+001dB,-6.12347777204001e+001°)
2.51188643150961e+006	(-9.22168364049871e+001dB,-6.23521861895886e+001°)
2.63026799189541e+006	(-9.18980476939784e+001dB,-6.34428551615075e+001°)
2.75422870333820e+006	(-9.15731437251234e+001dB,-6.45061875791965e+001°)
2.88403150312664e+006	(-9.12424469413707e+001dB,-6.55417721773540e+001°)
3.01995172040205e+006	(-9.09062770742730e+001dB,-6.65493732366466e+001°)
3.16227766016842e+006	(-9.05649491821541e+001dB,-6.75289189208978e+001°)
3.31131121482595e+006	(-9.02187719921750e+001dB,-6.84804885634389e+001°)
3.46736850452536e+006	(-8.98680465315771e+001dB,-6.94042992390026e+001°)
3.63078054770106e+006	(-8.95130650270582e+001dB,-7.03006919334210e+001°)
3.80189396320566e+006	(-8.91541100453430e+001dB,-7.11701175872843e+001°)
3.98107170553502e+006	(-8.87914538457865e+001dB,-7.20131232657989e+001°)
4.16869383470341e+006	(-8.84253579138014e+001dB,-7.28303386650106e+001°)
4.36515832240172e+006	(-8.80560726448820e+001dB,-7.36224631535466e+001°)
4.57088189614881e+006	(-8.76838371503669e+001dB,-7.43902535005897e+001°)
4.78630092322645e+006	(-8.73088791594964e+001dB,-7.51345124338638e+001°)
5.01187233627279e+006	(-8.69314149956672e+001dB,-7.58560781322531e+001°)
5.24807460249780e+006	(-8.65516496094489e+001dB,-7.65558147410038e+001°)
5.49540873857632e+006	(-8.61697766548989e+001dB,-7.72346039655254e+001°)
5.75439937337165e+006	(-8.57859786004089e+001dB,-7.78933377783101e+001°)
6.02559586074366e+006	(-8.54004268687768e+001dB,-7.85329122460554e+001°)
6.30957344480202e+006	(-8.50132820044013e+001dB,-7.91542224566215e+001°)
6.60693448007605e+006	(-8.46246938678902e+001dB,-7.97581585040596e+001°)
6.91830970918946e+006	(-8.42348018597910e+001dB,-8.03456024648358e+001°)
7.24435960075000e+006	(-8.38437351755230e+001dB,-8.09174262837620e+001°)
7.58577575029195e+006	(-8.34516130935617e+001dB,-8.14744904650847e+001°)
7.94328234724293e+006	(-8.30585452982104e+001dB,-8.20176434677080e+001°)
8.31763771102683e+006	(-8.26646322365348e+001dB,-8.25477216823025e+001°)
8.70963589956093e+006	(-8.22699655081135e+001dB,-8.30655498826302e+001°)
9.12010839355923e+006	(-8.18746282843000e+001dB,-8.35719420369106e+001°)
9.54992586021450e+006	(-8.14786957524589e+001dB,-8.40677023820807e+001°)
1.00000000000001e+007	(-8.10822355794511e+001dB,-8.45536266682579e+001°)
1.04712854805091e+007	(-8.06853083877319e+001dB,-8.50305034963788e+001°)
1.09647819614320e+007	(-8.02879682371507e+001dB,-8.54991156887518e+001°)
1.14815362149690e+007	(-7.98902631052420e+001dB,-8.59602416398376e+001°)
1.20226443461743e+007	(-7.94922353591931e+001dB,-8.64146566132131e+001°)
1.25892541179419e+007	(-7.90939222131000e+001dB,-8.68631339590819e+001°)
1.31825673855643e+007	(-7.86953561647804e+001dB,-8.73064462379323e+001°)
1.38038426460291e+007	(-7.82965654072536e+001dB,-8.77453662421972e+001°)
1.44543977074595e+007	(-7.78975742107253e+001dB,-8.81806679143098e+001°)
1.51356124843623e+007	(-7.74984032717573e+001dB,-8.86131271640634e+001°)
1.58489319246114e+007	(-7.70990700269160e+001dB,-8.90435225882221e+001°)
1.65958690743759e+007	(-7.66995889287284e+001dB,-8.94726360964057e+001°)
1.73780082874940e+007	(-7.62999716821195e+001dB,-8.99012534467744e+001°)
1.81970085861001e+007	(-7.59002274396220e+001dB,-9.03301646923759e+001°)
1.90546071796328e+007	(-7.55003629535077e+001dB,-9.07601645339114e+001°)
1.99526231496891e+007	(-7.51003826826199e+001dB,-9.11920525737104e+001°)
2.08929613085407e+007	(-7.47002888509420e+001dB,-9.16266334573531e+001°)
2.18776162394959e+007	(-7.43000814538548e+001dB,-9.20647168853632e+001°)
2.29086765276781e+007	(-7.38997582064958e+001dB,-9.25071174692891e+001°)
2.39883291901953e+007	(-7.34993144265444e+001dB,-9.29546543986358e+001°)
2.51188643150962e+007	(-7.30987428409051e+001dB,-9.34081508763599e+001°)
2.63026799189542e+007	(-7.26980333020301e+001dB,-9.38684332687239e+001°)
2.75422870333821e+007	(-7.22971723945595e+001dB,-9.43363299027378e+001°)
2.88403150312665e+007	(-7.18961429061637e+001dB,-9.48126694310157e+001°)
3.01995172040207e+007	(-7.14949231273163e+001dB,-9.52982786643251e+001°)
3.16227766016843e+007	(-7.10934859321325e+001dB,-9.57939797553177e+001°)
3.31131121482597e+007	(-7.06917975750818e+001dB,-9.63005865948193e+001°)
3.46736850452537e+007	(-7.02898161142197e+001dB,-9.68189002618807e+001°)
3.63078054770107e+007	(-6.98874893375268e+001dB,-9.73497033522077e+001°)
3.80189396320568e+007	(-6.94847520204790e+001dB,-9.78937530047376e+001°)
3.98107170553504e+007	(-6.90815222732192e+001dB,-9.84517724688183e+001°)
4.16869383470342e+007	(-6.86776966342692e+001dB,-9.90244411329999e+001°)
4.36515832240173e+007	(-6.82731434186100e+001dB,-9.96123831292251e+001°)
4.57088189614883e+007	(-6.78676936065990e+001dB,-1.00216155040008e+002°)
4.78630092322647e+007	(-6.74611282286616e+001dB,-1.00836234075921e+002°)
5.01187233627281e+007	(-6.70531607006094e+001dB,-1.01473009759643e+002°)
5.24807460249782e+007	(-6.66434118079724e+001dB,-1.02126785423010e+002°)
5.49540873857634e+007	(-6.62313738975285e+001dB,-1.02797802239131e+002°)
5.75439937337167e+007	(-6.58163591450120e+001dB,-1.03486311143472e+002°)
6.02559586074368e+007	(-6.53974243762721e+001dB,-1.04192743065451e+002°)
6.30957344480204e+007	(-6.49732619079394e+001dB,-1.04918078025209e+002°)
6.60693448007608e+007	(-6.45420433489869e+001dB,-1.05664614317956e+002°)
6.91830970918949e+007	(-6.41012059048821e+001dB,-1.06437539796933e+002°)
7.24435960075003e+007	(-6.36471941699550e+001dB,-1.07248094752411e+002°)
7.58577575029197e+007	(-6.31752625408817e+001dB,-1.08119791934637e+002°)
7.94328234724296e+007	(-6.26797340082739e+001dB,-1.09099993760495e+002°)
8.31763771102686e+007	(-6.21558746811654e+001dB,-1.10278561043879e+002°)
8.70963589956096e+007	(-6.16059431673226e+001dB,-1.11806332769286e+002°)
9.12010839355926e+007	(-6.10518944163946e+001dB,-1.13872825124222e+002°)
9.54992586021453e+007	(-6.05462146292341e+001dB,-1.16558427752576e+002°)
1.00000000000002e+008	(-6.01486218337628e+001dB,-1.19599838782972e+002°)
1.04712854805092e+008	(-5.98656691399048e+001dB,-1.22463001053333e+002°)
1.09647819614321e+008	(-5.96411817426615e+001dB,-1.24810558594046e+002°)
1.14815362149690e+008	(-5.94158974851305e+001dB,-1.26686154352632e+002°)
1.20226443461744e+008	(-5.91624176432463e+001dB,-1.28292770518210e+002°)
1.25892541179419e+008	(-5.88772227688946e+001dB,-1.29804138376127e+002°)
1.31825673855643e+008	(-5.85657841580941e+001dB,-1.31324839392900e+002°)
1.38038426460291e+008	(-5.82348703803869e+001dB,-1.32909202846001e+002°)
1.44543977074595e+008	(-5.78901211893181e+001dB,-1.34583604393290e+002°)
1.51356124843624e+008	(-5.75357211964857e+001dB,-1.36360518619074e+002°)
1.58489319246114e+008	(-5.71746577697662e+001dB,-1.38245955200596e+002°)
1.65958690743759e+008	(-5.68090476501794e+001dB,-1.40243131424109e+002°)
1.73780082874941e+008	(-5.64404008038307e+001dB,-1.42354225291301e+002°)
1.81970085861002e+008	(-5.60698087962592e+001dB,-1.44581189168395e+002°)
1.90546071796328e+008	(-5.56980732985151e+001dB,-1.46926111370509e+002°)
1.99526231496892e+008	(-5.53257922887516e+001dB,-1.49391362785681e+002°)
2.08929613085408e+008	(-5.49534175434402e+001dB,-1.51979643287448e+002°)
2.18776162394960e+008	(-5.45812928440603e+001dB,-1.54693983487868e+002°)
2.29086765276782e+008	(-5.42096791687019e+001dB,-1.57537728735660e+002°)
