Freq.	(V(n004)/I(R5)-50)/(V(n004)/I(R5)+50)
Step Information: X=45  (Run: 1/3)
1.00000000000000e+003	(-3.87635468438799e+001dB,-1.79999958423959e+002°)
1.04712854805090e+003	(-3.87635468438802e+001dB,-1.79999956464541e+002°)
1.09647819614319e+003	(-3.87635468438805e+001dB,-1.79999954412778e+002°)
1.14815362149688e+003	(-3.87635468438805e+001dB,-1.79999952264319e+002°)
1.20226443461741e+003	(-3.87635468438808e+001dB,-1.79999950014606e+002°)
1.25892541179417e+003	(-3.87635468438809e+001dB,-1.79999947658867e+002°)
1.31825673855641e+003	(-3.87635468438813e+001dB,-1.79999945192105e+002°)
1.38038426460289e+003	(-3.87635468438818e+001dB,-1.79999942609089e+002°)
1.44543977074593e+003	(-3.87635468438822e+001dB,-1.79999939904339e+002°)
1.51356124843621e+003	(-3.87635468438826e+001dB,-1.79999937072117e+002°)
1.58489319246111e+003	(-3.87635468438831e+001dB,-1.79999934106418e+002°)
1.65958690743756e+003	(-3.87635468438836e+001dB,-1.79999931000949e+002°)
1.73780082874938e+003	(-3.87635468438839e+001dB,-1.79999927749125e+002°)
1.81970085860999e+003	(-3.87635468438846e+001dB,-1.79999924344046e+002°)
1.90546071796325e+003	(-3.87635468438853e+001dB,-1.79999920778491e+002°)
1.99526231496888e+003	(-3.87635468438857e+001dB,-1.79999917044897e+002°)
2.08929613085404e+003	(-3.87635468438866e+001dB,-1.79999913135344e+002°)
2.18776162394956e+003	(-3.87635468438873e+001dB,-1.79999909041539e+002°)
2.29086765276778e+003	(-3.87635468438883e+001dB,-1.79999904754800e+002°)
2.39883291901949e+003	(-3.87635468438894e+001dB,-1.79999900266033e+002°)
2.51188643150958e+003	(-3.87635468438902e+001dB,-1.79999895565717e+002°)
2.63026799189539e+003	(-3.87635468438917e+001dB,-1.79999890643881e+002°)
2.75422870333817e+003	(-3.87635468438930e+001dB,-1.79999885490088e+002°)
2.88403150312661e+003	(-3.87635468438943e+001dB,-1.79999880093403e+002°)
3.01995172040202e+003	(-3.87635468438958e+001dB,-1.79999874442381e+002°)
3.16227766016839e+003	(-3.87635468438978e+001dB,-1.79999868525034e+002°)
3.31131121482592e+003	(-3.87635468438994e+001dB,-1.79999862328812e+002°)
3.46736850452532e+003	(-3.87635468439016e+001dB,-1.79999855840571e+002°)
3.63078054770102e+003	(-3.87635468439036e+001dB,-1.79999849046549e+002°)
3.80189396320562e+003	(-3.87635468439064e+001dB,-1.79999841932336e+002°)
3.98107170553498e+003	(-3.87635468439093e+001dB,-1.79999834482840e+002°)
4.16869383470336e+003	(-3.87635468439122e+001dB,-1.79999826682260e+002°)
4.36515832240167e+003	(-3.87635468439154e+001dB,-1.79999818514052e+002°)
4.57088189614876e+003	(-3.87635468439191e+001dB,-1.79999809960888e+002°)
4.78630092322640e+003	(-3.87635468439231e+001dB,-1.79999801004627e+002°)
5.01187233627274e+003	(-3.87635468439275e+001dB,-1.79999791626271e+002°)
5.24807460249774e+003	(-3.87635468439323e+001dB,-1.79999781805927e+002°)
5.49540873857626e+003	(-3.87635468439373e+001dB,-1.79999771522767e+002°)
5.75439937337159e+003	(-3.87635468439435e+001dB,-1.79999760754978e+002°)
6.02559586074360e+003	(-3.87635468439497e+001dB,-1.79999749479720e+002°)
6.30957344480195e+003	(-3.87635468439567e+001dB,-1.79999737673077e+002°)
6.60693448007598e+003	(-3.87635468439644e+001dB,-1.79999725310006e+002°)
6.91830970918939e+003	(-3.87635468439730e+001dB,-1.79999712364284e+002°)
7.24435960074992e+003	(-3.87635468439819e+001dB,-1.79999698808452e+002°)
7.58577575029186e+003	(-3.87635468439924e+001dB,-1.79999684613756e+002°)
7.94328234724284e+003	(-3.87635468440035e+001dB,-1.79999669750089e+002°)
8.31763771102674e+003	(-3.87635468440156e+001dB,-1.79999654185923e+002°)
8.70963589956084e+003	(-3.87635468440294e+001dB,-1.79999637888245e+002°)
9.12010839355913e+003	(-3.87635468440441e+001dB,-1.79999620822487e+002°)
9.54992586021439e+003	(-3.87635468440606e+001dB,-1.79999602952450e+002°)
1.00000000000000e+004	(-3.87635468440787e+001dB,-1.79999584240232e+002°)
1.04712854805090e+004	(-3.87635468440985e+001dB,-1.79999564646143e+002°)
1.09647819614319e+004	(-3.87635468441204e+001dB,-1.79999544128622e+002°)
1.14815362149689e+004	(-3.87635468441445e+001dB,-1.79999522644151e+002°)
1.20226443461742e+004	(-3.87635468441713e+001dB,-1.79999500147161e+002°)
1.25892541179417e+004	(-3.87635468442005e+001dB,-1.79999476589935e+002°)
1.31825673855641e+004	(-3.87635468442329e+001dB,-1.79999451922508e+002°)
1.38038426460289e+004	(-3.87635468442688e+001dB,-1.79999426092559e+002°)
1.44543977074593e+004	(-3.87635468443084e+001dB,-1.79999399045305e+002°)
1.51356124843621e+004	(-3.87635468443521e+001dB,-1.79999370723377e+002°)
1.58489319246112e+004	(-3.87635468444004e+001dB,-1.79999341066707e+002°)
1.65958690743757e+004	(-3.87635468444543e+001dB,-1.79999310012394e+002°)
1.73780082874938e+004	(-3.87635468445138e+001dB,-1.79999277494574e+002°)
1.81970085860999e+004	(-3.87635468445798e+001dB,-1.79999243444279e+002°)
1.90546071796326e+004	(-3.87635468446531e+001dB,-1.79999207789293e+002°)
1.99526231496889e+004	(-3.87635468447346e+001dB,-1.79999170453995e+002°)
2.08929613085405e+004	(-3.87635468448254e+001dB,-1.79999131359204e+002°)
2.18776162394956e+004	(-3.87635468449263e+001dB,-1.79999090422006e+002°)
2.29086765276778e+004	(-3.87635468450393e+001dB,-1.79999047555582e+002°)
2.39883291901950e+004	(-3.87635468451651e+001dB,-1.79999002669024e+002°)
2.51188643150959e+004	(-3.87635468453062e+001dB,-1.79998955667137e+002°)
2.63026799189540e+004	(-3.87635468454642e+001dB,-1.79998906450247e+002°)
2.75422870333818e+004	(-3.87635468456412e+001dB,-1.79998854913981e+002°)
2.88403150312662e+004	(-3.87635468458401e+001dB,-1.79998800949050e+002°)
3.01995172040203e+004	(-3.87635468460642e+001dB,-1.79998744441020e+002°)
3.16227766016840e+004	(-3.87635468463166e+001dB,-1.79998685270064e+002°)
3.31131121482593e+004	(-3.87635468466016e+001dB,-1.79998623310713e+002°)
3.46736850452534e+004	(-3.87635468469235e+001dB,-1.79998558431587e+002°)
3.63078054770103e+004	(-3.87635468472888e+001dB,-1.79998490495121e+002°)
3.80189396320563e+004	(-3.87635468477026e+001dB,-1.79998419357271e+002°)
3.98107170553500e+004	(-3.87635468481732e+001dB,-1.79998344867209e+002°)
4.16869383470338e+004	(-3.87635468487090e+001dB,-1.79998266867006e+002°)
4.36515832240169e+004	(-3.87635468493202e+001dB,-1.79998185191299e+002°)
4.57088189614878e+004	(-3.87635468500180e+001dB,-1.79998099666937e+002°)
4.78630092322641e+004	(-3.87635468508166e+001dB,-1.79998010112617e+002°)
5.01187233627275e+004	(-3.87635468517315e+001dB,-1.79997916338502e+002°)
5.24807460249776e+004	(-3.87635468527819e+001dB,-1.79997818145818e+002°)
5.49540873857628e+004	(-3.87635468539884e+001dB,-1.79997715326436e+002°)
5.75439937337161e+004	(-3.87635468553773e+001dB,-1.79997607662427e+002°)
6.02559586074362e+004	(-3.87635468569769e+001dB,-1.79997494925607e+002°)
6.30957344480197e+004	(-3.87635468588223e+001dB,-1.79997376877051e+002°)
6.60693448007600e+004	(-3.87635468609527e+001dB,-1.79997253266589e+002°)
6.91830970918941e+004	(-3.87635468634141e+001dB,-1.79997123832275e+002°)
7.24435960074995e+004	(-3.87635468662603e+001dB,-1.79996988299831e+002°)
7.58577575029189e+004	(-3.87635468695532e+001dB,-1.79996846382074e+002°)
7.94328234724287e+004	(-3.87635468733643e+001dB,-1.79996697778297e+002°)
8.31763771102677e+004	(-3.87635468777766e+001dB,-1.79996542173639e+002°)
8.70963589956087e+004	(-3.87635468828850e+001dB,-1.79996379238413e+002°)
9.12010839355916e+004	(-3.87635468887991e+001dB,-1.79996208627406e+002°)
9.54992586021443e+004	(-3.87635468956445e+001dB,-1.79996029979145e+002°)
1.00000000000001e+005	(-3.87635469035645e+001dB,-1.79995842915131e+002°)
1.04712854805091e+005	(-3.87635469127223e+001dB,-1.79995647039026e+002°)
1.09647819614319e+005	(-3.87635469233050e+001dB,-1.79995441935817e+002°)
1.14815362149689e+005	(-3.87635469355219e+001dB,-1.79995227170917e+002°)
1.20226443461742e+005	(-3.87635469496113e+001dB,-1.79995002289250e+002°)
1.25892541179418e+005	(-3.87635469658411e+001dB,-1.79994766814266e+002°)
1.31825673855642e+005	(-3.87635469845114e+001dB,-1.79994520246927e+002°)
1.38038426460290e+005	(-3.87635470059579e+001dB,-1.79994262064633e+002°)
1.44543977074594e+005	(-3.87635470305547e+001dB,-1.79993991720105e+002°)
1.51356124843622e+005	(-3.87635470587163e+001dB,-1.79993708640207e+002°)
1.58489319246113e+005	(-3.87635470909025e+001dB,-1.79993412224719e+002°)
1.65958690743757e+005	(-3.87635471276190e+001dB,-1.79993101845044e+002°)
1.73780082874939e+005	(-3.87635471694223e+001dB,-1.79992776842863e+002°)
1.81970085861000e+005	(-3.87635472169219e+001dB,-1.79992436528724e+002°)
1.90546071796326e+005	(-3.87635472707849e+001dB,-1.79992080180553e+002°)
1.99526231496890e+005	(-3.87635473317376e+001dB,-1.79991707042118e+002°)
2.08929613085406e+005	(-3.87635474005706e+001dB,-1.79991316321403e+002°)
2.18776162394957e+005	(-3.87635474781435e+001dB,-1.79990907188911e+002°)
2.29086765276779e+005	(-3.87635475653875e+001dB,-1.79990478775890e+002°)
2.39883291901951e+005	(-3.87635476633129e+001dB,-1.79990030172476e+002°)
2.51188643150960e+005	(-3.87635477730137e+001dB,-1.79989560425741e+002°)
2.63026799189541e+005	(-3.87635478956737e+001dB,-1.79989068537659e+002°)
2.75422870333819e+005	(-3.87635480325752e+001dB,-1.79988553462966e+002°)
2.88403150312663e+005	(-3.87635481851061e+001dB,-1.79988014106925e+002°)
3.01995172040204e+005	(-3.87635483547709e+001dB,-1.79987449322974e+002°)
3.16227766016841e+005	(-3.87635485431992e+001dB,-1.79986857910271e+002°)
3.31131121482594e+005	(-3.87635487521591e+001dB,-1.79986238611105e+002°)
3.46736850452535e+005	(-3.87635489835686e+001dB,-1.79985590108198e+002°)
3.63078054770105e+005	(-3.87635492395117e+001dB,-1.79984911021852e+002°)
3.80189396320565e+005	(-3.87635495222517e+001dB,-1.79984199906975e+002°)
3.98107170553501e+005	(-3.87635498342498e+001dB,-1.79983455249943e+002°)
4.16869383470339e+005	(-3.87635501781823e+001dB,-1.79982675465316e+002°)
4.36515832240170e+005	(-3.87635505569603e+001dB,-1.79981858892381e+002°)
4.57088189614879e+005	(-3.87635509737514e+001dB,-1.79981003791525e+002°)
4.78630092322643e+005	(-3.87635514320010e+001dB,-1.79980108340422e+002°)
5.01187233627277e+005	(-3.87635519354569e+001dB,-1.79979170630028e+002°)
5.24807460249778e+005	(-3.87635524881938e+001dB,-1.79978188660365e+002°)
5.49540873857630e+005	(-3.87635530946406e+001dB,-1.79977160336101e+002°)
5.75439937337163e+005	(-3.87635537596066e+001dB,-1.79976083461890e+002°)
6.02559586074364e+005	(-3.87635544883117e+001dB,-1.79974955737472e+002°)
6.30957344480200e+005	(-3.87635552864151e+001dB,-1.79973774752527e+002°)
6.60693448007603e+005	(-3.87635561600466e+001dB,-1.79972537981244e+002°)
6.91830970918944e+005	(-3.87635571158361e+001dB,-1.79971242776621e+002°)
7.24435960074998e+005	(-3.87635581609458e+001dB,-1.79969886364445e+002°)
7.58577575029192e+005	(-3.87635593031002e+001dB,-1.79968465836967e+002°)
7.94328234724290e+005	(-3.87635605506148e+001dB,-1.79966978146228e+002°)
8.31763771102680e+005	(-3.87635619124243e+001dB,-1.79965420097032e+002°)
8.70963589956090e+005	(-3.87635633981068e+001dB,-1.79963788339529e+002°)
9.12010839355920e+005	(-3.87635650179047e+001dB,-1.79962079361416e+002°)
9.54992586021446e+005	(-3.87635667827396e+001dB,-1.79960289479685e+002°)
1.00000000000001e+006	(-3.87635687042207e+001dB,-1.79958414831944e+002°)
1.04712854805091e+006	(-3.87635707946426e+001dB,-1.79956451367260e+002°)
1.09647819614320e+006	(-3.87635730669743e+001dB,-1.79954394836492e+002°)
1.14815362149690e+006	(-3.87635755348301e+001dB,-1.79952240782111e+002°)
1.20226443461743e+006	(-3.87635782124261e+001dB,-1.79949984527466e+002°)
1.25892541179418e+006	(-3.87635811145136e+001dB,-1.79947621165475e+002°)
1.31825673855642e+006	(-3.87635842562869e+001dB,-1.79945145546717e+002°)
1.38038426460290e+006	(-3.87635876532619e+001dB,-1.79942552266901e+002°)
1.44543977074594e+006	(-3.87635913211165e+001dB,-1.79939835653705e+002°)
1.51356124843623e+006	(-3.87635952754920e+001dB,-1.79936989752944e+002°)
1.58489319246113e+006	(-3.87635995317447e+001dB,-1.79934008314077e+002°)
1.65958690743758e+006	(-3.87636041046436e+001dB,-1.79930884775041e+002°)
1.73780082874940e+006	(-3.87636090080056e+001dB,-1.79927612246409e+002°)
1.81970085861001e+006	(-3.87636142542622e+001dB,-1.79924183494882e+002°)
1.90546071796327e+006	(-3.87636198539496e+001dB,-1.79920590926128e+002°)
1.99526231496890e+006	(-3.87636258151169e+001dB,-1.79916826567006e+002°)
2.08929613085406e+006	(-3.87636321426455e+001dB,-1.79912882047193e+002°)
2.18776162394958e+006	(-3.87636388374745e+001dB,-1.79908748580289e+002°)
2.29086765276780e+006	(-3.87636458957318e+001dB,-1.79904416944418e+002°)
2.39883291901952e+006	(-3.87636533077671e+001dB,-1.79899877462434e+002°)
2.51188643150961e+006	(-3.87636610570913e+001dB,-1.79895119981762e+002°)
2.63026799189541e+006	(-3.87636691192275e+001dB,-1.79890133853983e+002°)
2.75422870333820e+006	(-3.87636774604816e+001dB,-1.79884907914210e+002°)
2.88403150312664e+006	(-3.87636860366496e+001dB,-1.79879430460327e+002°)
3.01995172040205e+006	(-3.87636947916748e+001dB,-1.79873689232137e+002°)
3.16227766016842e+006	(-3.87637036562829e+001dB,-1.79867671390445e+002°)
3.31131121482595e+006	(-3.87637125466173e+001dB,-1.79861363496052e+002°)
3.46736850452536e+006	(-3.87637213629034e+001dB,-1.79854751488621e+002°)
3.63078054770106e+006	(-3.87637299881782e+001dB,-1.79847820665292e+002°)
3.80189396320566e+006	(-3.87637382871080e+001dB,-1.79840555658901e+002°)
3.98107170553502e+006	(-3.87637461049300e+001dB,-1.79832940415562e+002°)
4.16869383470341e+006	(-3.87637532665364e+001dB,-1.79824958171332e+002°)
4.36515832240172e+006	(-3.87637595757222e+001dB,-1.79816591427609e+002°)
4.57088189614881e+006	(-3.87637648146006e+001dB,-1.79807821924878e+002°)
4.78630092322645e+006	(-3.87637687431835e+001dB,-1.79798630614362e+002°)
5.01187233627279e+006	(-3.87637710991090e+001dB,-1.79788997627145e+002°)
5.24807460249780e+006	(-3.87637715974852e+001dB,-1.79778902240311e+002°)
5.49540873857632e+006	(-3.87637699308030e+001dB,-1.79768322839697e+002°)
5.75439937337165e+006	(-3.87637657688620e+001dB,-1.79757236878884e+002°)
6.02559586074366e+006	(-3.87637587586403e+001dB,-1.79745620834131e+002°)
6.30957344480202e+006	(-3.87637485240322e+001dB,-1.79733450155042e+002°)
6.60693448007605e+006	(-3.87637346653741e+001dB,-1.79720699210825e+002°)
6.91830970918946e+006	(-3.87637167586789e+001dB,-1.79707341232137e+002°)
7.24435960075000e+006	(-3.87636943545031e+001dB,-1.79693348248549e+002°)
7.58577575029195e+006	(-3.87636669763754e+001dB,-1.79678691021761e+002°)
7.94328234724293e+006	(-3.87636341187296e+001dB,-1.79663338974767e+002°)
8.31763771102683e+006	(-3.87635952442892e+001dB,-1.79647260117150e+002°)
8.70963589956093e+006	(-3.87635497808681e+001dB,-1.79630420966766e+002°)
9.12010839355923e+006	(-3.87634971175605e+001dB,-1.79612786467992e+002°)
9.54992586021450e+006	(-3.87634366003016e+001dB,-1.79594319906733e+002°)
1.00000000000001e+007	(-3.87633675267920e+001dB,-1.79574982822289e+002°)
1.04712854805091e+007	(-3.87632891407816e+001dB,-1.79554734916142e+002°)
1.09647819614320e+007	(-3.87632006257126e+001dB,-1.79533533957648e+002°)
1.14815362149690e+007	(-3.87631010977242e+001dB,-1.79511335686511e+002°)
1.20226443461743e+007	(-3.87629895980186e+001dB,-1.79488093711889e+002°)
1.25892541179419e+007	(-3.87628650845858e+001dB,-1.79463759407838e+002°)
1.31825673855643e+007	(-3.87627264232832e+001dB,-1.79438281804788e+002°)
1.38038426460291e+007	(-3.87625723782616e+001dB,-1.79411607476611e+002°)
1.44543977074595e+007	(-3.87624016017231e+001dB,-1.79383680422797e+002°)
1.51356124843623e+007	(-3.87622126230010e+001dB,-1.79354441945161e+002°)
1.58489319246114e+007	(-3.87620038369439e+001dB,-1.79323830518406e+002°)
1.65958690743759e+007	(-3.87617734915929e+001dB,-1.79291781653756e+002°)
1.73780082874940e+007	(-3.87615196751453e+001dB,-1.79258227754759e+002°)
1.81970085861001e+007	(-3.87612403022039e+001dB,-1.79223097964142e+002°)
1.90546071796328e+007	(-3.87609330993314e+001dB,-1.79186318000437e+002°)
1.99526231496891e+007	(-3.87605955899415e+001dB,-1.79147809982757e+002°)
2.08929613085407e+007	(-3.87602250785929e+001dB,-1.79107492241738e+002°)
2.18776162394959e+007	(-3.87598186347862e+001dB,-1.79065279114161e+002°)
2.29086765276781e+007	(-3.87593730764102e+001dB,-1.79021080718055e+002°)
2.39883291901953e+007	(-3.87588849530518e+001dB,-1.78974802704206e+002°)
2.51188643150962e+007	(-3.87583505294589e+001dB,-1.78926345978737e+002°)
2.63026799189542e+007	(-3.87577657695486e+001dB,-1.78875606389776e+002°)
2.75422870333821e+007	(-3.87571263214799e+001dB,-1.78822474368955e+002°)
2.88403150312665e+007	(-3.87564275044665e+001dB,-1.78766834515393e+002°)
3.01995172040207e+007	(-3.87556642981992e+001dB,-1.78708565105533e+002°)
3.16227766016843e+007	(-3.87548313359702e+001dB,-1.78647537506285e+002°)
3.31131121482597e+007	(-3.87539229028652e+001dB,-1.78583615460630e+002°)
3.46736850452537e+007	(-3.87529329406707e+001dB,-1.78516654203115e+002°)
3.63078054770107e+007	(-3.87518550614312e+001dB,-1.78446499346018e+002°)
3.80189396320568e+007	(-3.87506825718006e+001dB,-1.78372985452944e+002°)
3.98107170553504e+007	(-3.87494085103162e+001dB,-1.78295934181783e+002°)
4.16869383470342e+007	(-3.87480256992060e+001dB,-1.78215151827760e+002°)
4.36515832240173e+007	(-3.87465268107346e+001dB,-1.78130426021338e+002°)
4.57088189614883e+007	(-3.87449044442915e+001dB,-1.78041521221689e+002°)
4.78630092322647e+007	(-3.87431512022349e+001dB,-1.77948172473549e+002°)
5.01187233627281e+007	(-3.87412597356083e+001dB,-1.77850076630640e+002°)
5.24807460249782e+007	(-3.87392226966563e+001dB,-1.77746879841179e+002°)
5.49540873857634e+007	(-3.87370324662264e+001dB,-1.77638159461631e+002°)
5.75439937337167e+007	(-3.87346803851538e+001dB,-1.77523397600720e+002°)
6.02559586074368e+007	(-3.87321549358700e+001dB,-1.77401942057333e+002°)
6.30957344480204e+007	(-3.87294377390360e+001dB,-1.77272948418495e+002°)
6.60693448007608e+007	(-3.87264950244940e+001dB,-1.77135294836228e+002°)
6.91830970918949e+007	(-3.87232597335434e+001dB,-1.76987460416357e+002°)
7.24435960075003e+007	(-3.87195943111122e+001dB,-1.76827366716879e+002°)
7.58577575029197e+007	(-3.87152145559536e+001dB,-1.76652224857406e+002°)
7.94328234724296e+007	(-3.87095402994084e+001dB,-1.76458584451087e+002°)
8.31763771102686e+007	(-3.87014359457389e+001dB,-1.76243233276671e+002°)
8.70963589956096e+007	(-3.86889078699088e+001dB,-1.76006571160645e+002°)
9.12010839355926e+007	(-3.86693102953305e+001dB,-1.75760509280313e+002°)
9.54992586021453e+007	(-3.86414221277633e+001dB,-1.75536240029007e+002°)
1.00000000000002e+008	(-3.86090265470538e+001dB,-1.75369654019335e+002°)
1.04712854805092e+008	(-3.85796594199144e+001dB,-1.75261347992867e+002°)
1.09647819614321e+008	(-3.85573905858967e+001dB,-1.75173863833709e+002°)
1.14815362149690e+008	(-3.85408203509629e+001dB,-1.75072986159232e+002°)
1.20226443461744e+008	(-3.85268781163979e+001dB,-1.74946075344554e+002°)
1.25892541179419e+008	(-3.85132834989344e+001dB,-1.74793648640094e+002°)
1.31825673855643e+008	(-3.84987787137784e+001dB,-1.74620020188092e+002°)
1.38038426460291e+008	(-3.84827393832037e+001dB,-1.74429417988445e+002°)
1.44543977074595e+008	(-3.84648556806185e+001dB,-1.74225097277819e+002°)
1.51356124843624e+008	(-3.84449579237250e+001dB,-1.74009414486277e+002°)
1.58489319246114e+008	(-3.84229330092391e+001dB,-1.73784082841074e+002°)
1.65958690743759e+008	(-3.83986867316921e+001dB,-1.73550397496636e+002°)
1.73780082874941e+008	(-3.83721276412472e+001dB,-1.73309397295545e+002°)
1.81970085861002e+008	(-3.83431607507536e+001dB,-1.73061973828384e+002°)
1.90546071796328e+008	(-3.83116856939156e+001dB,-1.72808943520084e+002°)
1.99526231496892e+008	(-3.82775968644936e+001dB,-1.72551095014917e+002°)
2.08929613085408e+008	(-3.82407844007186e+001dB,-1.72289220107001e+002°)
2.18776162394960e+008	(-3.82011354823208e+001dB,-1.72024133462782e+002°)
2.29086765276782e+008	(-3.81585356768054e+001dB,-1.71756684406333e+002°)
