time	V(bf_source)	V(samplecap)
0.000000000000000e+000	-8.004651967527170e-002	-1.000000000000000e-001
9.999999717180685e-010	-8.004651950750261e-002	-9.999999980000000e-002
1.999999943436137e-009	-8.004651933824056e-002	-9.999999960000001e-002
3.999999886872274e-009	-8.004651899299341e-002	-9.999999920000002e-002
7.999999773744548e-009	-8.004651829394205e-002	-9.999999840000004e-002
1.599999954748910e-008	-8.004651688698040e-002	-9.999999680000009e-002
3.199999909497819e-008	-8.004651405060508e-002	-9.999999360000018e-002
6.399999818995639e-008	-8.004650833283311e-002	-9.999998720000036e-002
1.279999963799128e-007	-8.004649683730909e-002	-9.999997440000072e-002
2.559999927598256e-007	-8.004647379917664e-002	-9.999994880000145e-002
5.119999855196511e-007	-8.004642770500427e-002	-9.999989760000290e-002
1.023999971039302e-006	-8.004633551095171e-002	-9.999979520000579e-002
2.047999942078604e-006	-8.004615109414440e-002	-9.999959040001158e-002
4.095999884157209e-006	-8.004578211952078e-002	-9.999918080002317e-002
8.191999768314418e-006	-8.004504364216590e-002	-9.999836160004634e-002
1.638399953662884e-005	-8.004356505883561e-002	-9.999672320009267e-002
3.276799907325767e-005	-8.004060388545019e-002	-9.999344640018534e-002
6.553599814651534e-005	-8.003467447662943e-002	-9.998689280037069e-002
1.310719962930307e-004	-8.002280801117435e-002	-9.997378560074140e-002
2.310719962930307e-004	-8.000469810911454e-002	-9.995378560074139e-002
3.310719962930307e-004	-7.998658799586439e-002	-9.993378560074140e-002
4.310719962930307e-004	-7.996847784424981e-002	-9.991378560074139e-002
5.310719962930306e-004	-7.995036762455912e-002	-9.989378560074140e-002
6.310719962930307e-004	-7.993225741751302e-002	-9.987378560074139e-002
7.310719962930306e-004	-7.991414721025891e-002	-9.985378560074139e-002
8.310719962930307e-004	-7.989603700112759e-002	-9.983378560074140e-002
9.310719962930307e-004	-7.987792679264230e-002	-9.981378560074139e-002
1.031071996293031e-003	-7.985981658408468e-002	-9.979378560074140e-002
1.131071996293031e-003	-7.984170637594425e-002	-9.977378560074139e-002
1.231071996293031e-003	-7.982359616796959e-002	-9.975378560074140e-002
1.331071996293031e-003	-7.980548595968351e-002	-9.973378560074139e-002
1.431071996293031e-003	-7.978737575161837e-002	-9.971378560074140e-002
1.531071996293031e-003	-7.976926554392771e-002	-9.969378560074139e-002
1.631071996293031e-003	-7.975115533613066e-002	-9.967378560074139e-002
1.731071996293031e-003	-7.973304512815350e-002	-9.965378560074140e-002
1.831071996293031e-003	-7.971493492007478e-002	-9.963378560074139e-002
1.931071996293031e-003	-7.969682471223442e-002	-9.961378560074140e-002
2.031071996293031e-003	-7.967871450474384e-002	-9.959378560074139e-002
2.131071996293031e-003	-7.966060429726216e-002	-9.957378560074140e-002
2.231071996293031e-003	-7.964249408997692e-002	-9.955378560074139e-002
2.331071996293031e-003	-7.962438388276227e-002	-9.953378560074140e-002
2.431071996293031e-003	-7.960627367527745e-002	-9.951378560074140e-002
2.531071996293031e-003	-7.958816346804737e-002	-9.949378560074139e-002
2.631071996293031e-003	-7.957005326133119e-002	-9.947378560074140e-002
2.731071996293031e-003	-7.955194305481078e-002	-9.945378560074139e-002
2.831071996293031e-003	-7.953383284805707e-002	-9.943378560074140e-002
2.931071996293031e-003	-7.951572264094720e-002	-9.941378560074139e-002
3.031071996293031e-003	-7.949761243404073e-002	-9.939378560074140e-002
3.131071996293031e-003	-7.947950222748561e-002	-9.937378560074139e-002
3.231071996293031e-003	-7.946139202092627e-002	-9.935378560074139e-002
3.331071996293031e-003	-7.944328181433091e-002	-9.933378560074140e-002
3.431071996293031e-003	-7.942517160796266e-002	-9.931378560074139e-002
3.531071996293031e-003	-7.940706140174936e-002	-9.929378560074140e-002
3.631071996293031e-003	-7.938895119527568e-002	-9.927378560074139e-002
3.731071996293031e-003	-7.937084098883104e-002	-9.925378560074140e-002
3.831071996293031e-003	-7.935273078306621e-002	-9.923378560074139e-002
3.931071996293031e-003	-7.933462057771389e-002	-9.921378560074140e-002
4.031071996293031e-003	-7.931651037209762e-002	-9.919378560074139e-002
4.131071996293031e-003	-7.929840016620464e-002	-9.917378560074139e-002
4.231071996293031e-003	-7.928028996026623e-002	-9.915378560074140e-002
4.331071996293030e-003	-7.926217975447027e-002	-9.913378560074139e-002
4.431071996293031e-003	-7.924406954894925e-002	-9.911378560074140e-002
4.531071996293031e-003	-7.922595934347936e-002	-9.909378560074139e-002
4.631071996293030e-003	-7.920784913807744e-002	-9.907378560074140e-002
4.731071996293031e-003	-7.918973893290635e-002	-9.905378560074139e-002
4.831071996293031e-003	-7.917162872772560e-002	-9.903378560074140e-002
4.931071996293030e-003	-7.915351852262077e-002	-9.901378560074139e-002
5.031071996293031e-003	-7.913540831776772e-002	-9.899378560074139e-002
5.131071996293031e-003	-7.911729811294502e-002	-9.897378560074140e-002
5.231071996293031e-003	-7.909918790820626e-002	-9.895378560074139e-002
5.331071996293030e-003	-7.908107770353834e-002	-9.893378560074140e-002
5.431071996293031e-003	-7.906296749873119e-002	-9.891378560074139e-002
5.531071996293031e-003	-7.904485729402280e-002	-9.889378560074140e-002
5.631071996293030e-003	-7.902674708964735e-002	-9.887378560074139e-002
5.731071996293031e-003	-7.900863688532540e-002	-9.885378560074140e-002
5.831071996293031e-003	-7.899052668089565e-002	-9.883378560074140e-002
5.931071996293030e-003	-7.897241647663103e-002	-9.881378560074139e-002
6.031071996293031e-003	-7.895430627266037e-002	-9.879378560074140e-002
6.131071996293031e-003	-7.893619606865915e-002	-9.877378560074139e-002
6.231071996293031e-003	-7.891808586455039e-002	-9.875378560074140e-002
6.331071996293031e-003	-7.889997566052703e-002	-9.873378560074139e-002
6.431071996293031e-003	-7.888186545659795e-002	-9.871378560074140e-002
6.531071996293031e-003	-7.886375525304221e-002	-9.869378560074139e-002
6.631071996293030e-003	-7.884564504973243e-002	-9.867378560074139e-002
6.731071996293031e-003	-7.882753484626470e-002	-9.865378560074140e-002
6.831071996293031e-003	-7.880942464279721e-002	-9.863378560074139e-002
6.931071996293030e-003	-7.879131443935843e-002	-9.861378560074140e-002
7.031071996293031e-003	-7.877320423592905e-002	-9.859378560074139e-002
7.131071996293031e-003	-7.875509403261985e-002	-9.857378560074140e-002
7.231071996293031e-003	-7.873698382949752e-002	-9.855378560074139e-002
7.331071996293031e-003	-7.871887362671591e-002	-9.853378560074140e-002
7.431071996293031e-003	-7.870076342400272e-002	-9.851378560074139e-002
7.531071996293031e-003	-7.868265322105539e-002	-9.849378560074139e-002
7.631071996293030e-003	-7.866454301812008e-002	-9.847378560074140e-002
7.731071996293031e-003	-7.864643281540870e-002	-9.845378560074139e-002
7.831071996293031e-003	-7.862832261291733e-002	-9.843378560074140e-002
7.931071996293030e-003	-7.861021241056132e-002	-9.841378560074139e-002
8.031071996293032e-003	-7.859210220813470e-002	-9.839378560074140e-002
8.131071996293031e-003	-7.857399200566799e-002	-9.837378560074139e-002
8.231071996293030e-003	-7.855588180355470e-002	-9.835378560074140e-002
8.331071996293031e-003	-7.853777160153647e-002	-9.833378560074139e-002
8.431071996293031e-003	-7.851966139916962e-002	-9.831378560074139e-002
8.531071996293030e-003	-7.850155119697196e-002	-9.829378560074140e-002
8.631071996293031e-003	-7.848344099524870e-002	-9.827378560074139e-002
8.731071996293031e-003	-7.846533079360049e-002	-9.825378560074140e-002
8.831071996293030e-003	-7.844722059190039e-002	-9.823378560074139e-002
8.931071996293031e-003	-7.842911039017178e-002	-9.821378560074140e-002
9.031071996293031e-003	-7.841100018845307e-002	-9.819378560074139e-002
9.131071996293030e-003	-7.839288998701940e-002	-9.817378560074140e-002
9.231071996293031e-003	-7.837477978579230e-002	-9.815378560074139e-002
9.331071996293031e-003	-7.835666958447707e-002	-9.813378560074139e-002
9.431071996293030e-003	-7.833855938325064e-002	-9.811378560074140e-002
9.531071996293031e-003	-7.832044918216286e-002	-9.809378560074139e-002
9.631071996293030e-003	-7.830233898106542e-002	-9.807378560074140e-002
9.731071996293030e-003	-7.828422878008669e-002	-9.805378560074139e-002
9.831071996293031e-003	-7.826611857932732e-002	-9.803378560074140e-002
9.931071996293030e-003	-7.824800837863047e-002	-9.801378560074139e-002
1.003107199629303e-002	-7.822989817770523e-002	-9.799378560074139e-002
1.013107199629303e-002	-7.821178797689045e-002	-9.797378560074140e-002
1.023107199629303e-002	-7.819367777653663e-002	-9.795378560074139e-002
1.033107199629303e-002	-7.817556757618067e-002	-9.793378560074140e-002
1.043107199629303e-002	-7.815745737558112e-002	-9.791378560074139e-002
1.053107199629303e-002	-7.813934717504964e-002	-9.789378560074140e-002
1.063107199629303e-002	-7.812123697495486e-002	-9.787378560074139e-002
1.073107199629303e-002	-7.810312677527913e-002	-9.785378560074140e-002
1.083107199629303e-002	-7.808501657556423e-002	-9.783378560074139e-002
1.093107199629303e-002	-7.806690637550136e-002	-9.781378560074139e-002
1.103107199629303e-002	-7.804879617533406e-002	-9.779378560074140e-002
1.113107199629303e-002	-7.803068597534467e-002	-9.777378560074139e-002
1.123107199629303e-002	-7.801257577570499e-002	-9.775378560074140e-002
1.133107199629303e-002	-7.799446557634057e-002	-9.773378560074139e-002
1.143107199629303e-002	-7.797635537674316e-002	-9.771378560074140e-002
1.153107199629303e-002	-7.795824517709460e-002	-9.769378560074139e-002
1.163107199629303e-002	-7.794013497777713e-002	-9.767378560074140e-002
1.173107199629303e-002	-7.792202477859886e-002	-9.765378560074139e-002
1.183107199629303e-002	-7.790391457961682e-002	-9.763378560074139e-002
1.193107199629303e-002	-7.788580438075619e-002	-9.761378560074140e-002
1.203107199629303e-002	-7.786769418162554e-002	-9.759378560074139e-002
1.213107199629303e-002	-7.784958398250014e-002	-9.757378560074140e-002
1.223107199629303e-002	-7.783147378385809e-002	-9.755378560074139e-002
1.233107199629303e-002	-7.781336358534946e-002	-9.753378560074140e-002
1.243107199629303e-002	-7.779525338670146e-002	-9.751378560074139e-002
1.253107199629303e-002	-7.777714318813558e-002	-9.749378560074140e-002
1.263107199629303e-002	-7.775903298954277e-002	-9.747378560074139e-002
1.273107199629303e-002	-7.774092279097705e-002	-9.745378560074139e-002
1.283107199629303e-002	-7.772281259264481e-002	-9.743378560074140e-002
1.293107199629303e-002	-7.770470239430988e-002	-9.741378560074139e-002
1.303107199629303e-002	-7.768659219600246e-002	-9.739378560074140e-002
1.313107199629303e-002	-7.766848199797104e-002	-9.737378560074139e-002
1.323107199629303e-002	-7.765037180009535e-002	-9.735378560074140e-002
1.333107199629303e-002	-7.763226160222775e-002	-9.733378560074139e-002
1.343107199629303e-002	-7.761415140451325e-002	-9.731378560074139e-002
1.353107199629303e-002	-7.759604120706332e-002	-9.729378560074140e-002
1.363107199629303e-002	-7.757793100949088e-002	-9.727378560074139e-002
1.373107199629303e-002	-7.755982081167626e-002	-9.725378560074140e-002
1.383107199629303e-002	-7.754171061419107e-002	-9.723378560074139e-002
1.393107199629303e-002	-7.752360041712303e-002	-9.721378560074140e-002
1.403107199629303e-002	-7.750549021997394e-002	-9.719378560074139e-002
1.413107199629303e-002	-7.748738002267047e-002	-9.717378560074140e-002
1.423107199629303e-002	-7.746926982538266e-002	-9.715378560074139e-002
1.433107199629303e-002	-7.745115962823232e-002	-9.713378560074139e-002
1.443107199629303e-002	-7.743304943136205e-002	-9.711378560074140e-002
1.453107199629303e-002	-7.741493923440997e-002	-9.709378560074139e-002
1.463107199629303e-002	-7.739682903749039e-002	-9.707378560074140e-002
1.473107199629303e-002	-7.737871884101630e-002	-9.705378560074139e-002
1.483107199629303e-002	-7.736060864451821e-002	-9.703378560074140e-002
1.493107199629303e-002	-7.734249844781728e-002	-9.701378560074139e-002
1.503107199629303e-002	-7.732438825121270e-002	-9.699378560074140e-002
1.513107199629303e-002	-7.730627805484869e-002	-9.697378560074139e-002
1.523107199629303e-002	-7.728816785866265e-002	-9.695378560074139e-002
1.533107199629303e-002	-7.727005766255284e-002	-9.693378560074140e-002
1.543107199629303e-002	-7.725194746660366e-002	-9.691378560074139e-002
1.553107199629303e-002	-7.723383727071864e-002	-9.689378560074140e-002
1.563107199629303e-002	-7.721572707473673e-002	-9.687378560074139e-002
1.573107199629303e-002	-7.719761687882175e-002	-9.685378560074140e-002
1.583107199629303e-002	-7.717950668318455e-002	-9.683378560074139e-002
1.593107199629303e-002	-7.716139648767600e-002	-9.681378560074140e-002
1.603107199629303e-002	-7.714328629206368e-002	-9.679378560074139e-002
1.613107199629303e-002	-7.712517609652903e-002	-9.677378560074139e-002
1.623107199629303e-002	-7.710706590115860e-002	-9.675378560074140e-002
1.633107199629303e-002	-7.708895570579467e-002	-9.673378560074139e-002
1.643107199629303e-002	-7.707084551053538e-002	-9.671378560074140e-002
1.653107199629303e-002	-7.705273531548204e-002	-9.669378560074139e-002
1.663107199629303e-002	-7.703462512044250e-002	-9.667378560074140e-002
1.673107199629303e-002	-7.701651492535561e-002	-9.665378560074139e-002
1.683107199629303e-002	-7.699840473052318e-002	-9.663378560074139e-002
1.693107199629303e-002	-7.698029453583484e-002	-9.661378560074140e-002
1.703107199629303e-002	-7.696218434096552e-002	-9.659378560074139e-002
1.713107199629303e-002	-7.694407414610668e-002	-9.657378560074140e-002
1.723107199629303e-002	-7.692596395145719e-002	-9.655378560074139e-002
1.733107199629303e-002	-7.690785375693285e-002	-9.653378560074140e-002
1.743107199629303e-002	-7.688974356255776e-002	-9.651378560074139e-002
1.753107199629303e-002	-7.687163336865688e-002	-9.649378560074140e-002
1.763107199629303e-002	-7.685352317476774e-002	-9.647378560074139e-002
1.773107199629303e-002	-7.683541298035482e-002	-9.645378560074139e-002
1.783107199629303e-002	-7.681730278609290e-002	-9.643378560074140e-002
1.793107199629303e-002	-7.679919259215556e-002	-9.641378560074139e-002
1.803107199629303e-002	-7.678108239823528e-002	-9.639378560074140e-002
1.813107199629303e-002	-7.676297220452376e-002	-9.637378560074139e-002
1.823107199629303e-002	-7.674486201089083e-002	-9.635378560074140e-002
1.833107199629303e-002	-7.672675181716766e-002	-9.633378560074139e-002
1.843107199629303e-002	-7.670864162358645e-002	-9.631378560074140e-002
1.853107199629303e-002	-7.669053143011773e-002	-9.629378560074139e-002
1.863107199629303e-002	-7.667242123683150e-002	-9.627378560074139e-002
1.873107199629303e-002	-7.665431104374032e-002	-9.625378560074140e-002
1.883107199629303e-002	-7.663620085051302e-002	-9.623378560074139e-002
1.893107199629303e-002	-7.661809065722561e-002	-9.621378560074140e-002
1.903107199629303e-002	-7.659998046417987e-002	-9.619378560074139e-002
1.913107199629303e-002	-7.658187027133137e-002	-9.617378560074140e-002
1.923107199629303e-002	-7.656376007842689e-002	-9.615378560074139e-002
1.933107199629303e-002	-7.654564988561233e-002	-9.613378560074140e-002
1.943107199629303e-002	-7.652753969303575e-002	-9.611378560074139e-002
1.953107199629303e-002	-7.650942950038144e-002	-9.609378560074139e-002
1.963107199629303e-002	-7.649131930766566e-002	-9.607378560074140e-002
1.973107199629303e-002	-7.647320911516942e-002	-9.605378560074139e-002
1.983107199629303e-002	-7.645509892286762e-002	-9.603378560074140e-002
1.993107199629303e-002	-7.643698873083160e-002	-9.601378560074139e-002
2.003107199629303e-002	-7.641887853889856e-002	-9.599378560074140e-002
2.013107199629303e-002	-7.640076834680511e-002	-9.597378560074139e-002
2.023107199629303e-002	-7.638265815469263e-002	-9.595378560074139e-002
2.033107199629303e-002	-7.636454796253293e-002	-9.593378560074140e-002
2.043107199629303e-002	-7.634643777063845e-002	-9.591378560074139e-002
2.053107199629303e-002	-7.632832757911624e-002	-9.589378560074140e-002
2.063107199629303e-002	-7.631021738734657e-002	-9.587378560074139e-002
2.073107199629303e-002	-7.629210719566522e-002	-9.585378560074140e-002
2.083107199629303e-002	-7.627399700443630e-002	-9.583378560074139e-002
2.093107199629303e-002	-7.625588681300724e-002	-9.581378560074140e-002
2.103107199629303e-002	-7.623777662154319e-002	-9.579378560074139e-002
2.113107199629303e-002	-7.621966643058456e-002	-9.577378560074139e-002
2.123107199629303e-002	-7.620155623968633e-002	-9.575378560074140e-002
2.133107199629303e-002	-7.618344604844808e-002	-9.573378560074139e-002
2.143107199629303e-002	-7.616533585728005e-002	-9.571378560074140e-002
2.153107199629303e-002	-7.614722566653698e-002	-9.569378560074139e-002
2.163107199629303e-002	-7.612911547581487e-002	-9.567378560074140e-002
2.173107199629303e-002	-7.611100528492691e-002	-9.565378560074139e-002
2.183107199629303e-002	-7.609289509433015e-002	-9.563378560074140e-002
2.193107199629303e-002	-7.607478490400275e-002	-9.561378560074139e-002
2.203107199629303e-002	-7.605667471349410e-002	-9.559378560074139e-002
2.213107199629303e-002	-7.603856452281256e-002	-9.557378560074140e-002
2.223107199629303e-002	-7.602045433239472e-002	-9.555378560074139e-002
2.233107199629303e-002	-7.600234414236380e-002	-9.553378560074140e-002
2.243107199629303e-002	-7.598423395238090e-002	-9.551378560074139e-002
2.253107199629303e-002	-7.596612376226863e-002	-9.549378560074140e-002
2.263107199629303e-002	-7.594801357220794e-002	-9.547378560074139e-002
2.273107199629303e-002	-7.592990338245184e-002	-9.545378560074140e-002
2.283107199629303e-002	-7.591179319266846e-002	-9.543378560074139e-002
2.293107199629303e-002	-7.589368300274368e-002	-9.541378560074139e-002
2.303107199629303e-002	-7.587557281336041e-002	-9.539378560074140e-002
2.313107199629303e-002	-7.585746262415681e-002	-9.537378560074139e-002
2.323107199629303e-002	-7.583935243447176e-002	-9.535378560074140e-002
2.333107199629303e-002	-7.582124224496176e-002	-9.533378560074139e-002
2.343107199629303e-002	-7.580313205587216e-002	-9.531378560074140e-002
2.353107199629303e-002	-7.578502186675865e-002	-9.529378560074139e-002
2.363107199629303e-002	-7.576691167761010e-002	-9.527378560074140e-002
2.373107199629303e-002	-7.574880148846194e-002	-9.525378560074140e-002
2.383107199629303e-002	-7.573069129937897e-002	-9.523378560074139e-002
2.393107199629303e-002	-7.571258111049285e-002	-9.521378560074140e-002
2.403107199629303e-002	-7.569447092195911e-002	-9.519378560074139e-002
2.413107199629303e-002	-7.567636073356301e-002	-9.517378560074140e-002
2.423107199629303e-002	-7.565825054480999e-002	-9.515378560074139e-002
2.433107199629303e-002	-7.564014035599724e-002	-9.513378560074140e-002
2.443107199629303e-002	-7.562203016763620e-002	-9.511378560074139e-002
2.453107199629303e-002	-7.560391997963907e-002	-9.509378560074139e-002
2.463107199629303e-002	-7.558580979154139e-002	-9.507378560074140e-002
2.473107199629303e-002	-7.556769960319361e-002	-9.505378560074139e-002
2.483107199629303e-002	-7.554958941496885e-002	-9.503378560074140e-002
2.493107199629303e-002	-7.553147922693076e-002	-9.501378560074139e-002
2.503107199629303e-002	-7.551336903890110e-002	-9.499378560074140e-002
2.513107199629303e-002	-7.549525885099943e-002	-9.497378560074139e-002
2.523107199629303e-002	-7.547714866332272e-002	-9.495378560074140e-002
2.533107199629303e-002	-7.545903847580673e-002	-9.493378560074139e-002
2.543107199629303e-002	-7.544092828834990e-002	-9.491378560074139e-002
2.553107199629303e-002	-7.542281810091810e-002	-9.489378560074140e-002
2.563107199629303e-002	-7.540470791352624e-002	-9.487378560074139e-002
2.573107199629303e-002	-7.538659772616609e-002	-9.485378560074140e-002
2.583107199629303e-002	-7.536848753893122e-002	-9.483378560074139e-002
2.593107199629303e-002	-7.535037735190731e-002	-9.481378560074140e-002
