!Agilent Technologies,E8364A,US41440284,A.06.04.32
!Agilent E8364A: A.06.04.32
!Date: Friday, December 06, 2019 10:49:37
!Correction: S11(Full 2 Port(1,2)) S21(Full 2 Port(1,2)) S12(Full 2 Port(1,2)) S22(Full 2 Port(1,2)) 
!S2P File: Measurements: S11, S21, S12, S22:
# Hz S  MA   R 50
45000000 1.007681e-002 -9.713168e+001 9.965346e-001 -9.928877e+000 9.960476e-001 -9.908450e+000 1.157844e-002 -9.966692e+001
67443750 1.567307e-002 -9.927684e+001 9.946455e-001 -1.478964e+001 9.948884e-001 -1.478156e+001 1.660193e-002 -1.009234e+002
89887500 2.107990e-002 -1.043442e+002 9.938904e-001 -1.964697e+001 9.935960e-001 -1.963626e+001 2.209750e-002 -1.044771e+002
112331250 2.655731e-002 -1.094706e+002 9.918929e-001 -2.450491e+001 9.920071e-001 -2.449445e+001 2.746064e-002 -1.105794e+002
134775000 3.187932e-002 -1.164318e+002 9.909441e-001 -2.932287e+001 9.908894e-001 -2.931216e+001 3.229712e-002 -1.172153e+002
157218750 3.687865e-002 -1.229930e+002 9.898592e-001 -3.414935e+001 9.899678e-001 -3.414011e+001 3.677996e-002 -1.227704e+002
179662500 4.135723e-002 -1.285594e+002 9.887586e-001 -3.897015e+001 9.887779e-001 -3.896067e+001 4.165835e-002 -1.277970e+002
202106250 4.619940e-002 -1.330593e+002 9.875370e-001 -4.379672e+001 9.874073e-001 -4.378178e+001 4.622608e-002 -1.330182e+002
224550000 5.090263e-002 -1.387301e+002 9.863359e-001 -4.857968e+001 9.860801e-001 -4.856517e+001 5.100086e-002 -1.378273e+002
246993750 5.483690e-002 -1.433725e+002 9.848731e-001 -5.338434e+001 9.840432e-001 -5.335468e+001 5.509802e-002 -1.425639e+002
269437500 5.890003e-002 -1.479323e+002 9.837497e-001 -5.812100e+001 9.857177e-001 -5.810299e+001 5.899220e-002 -1.473031e+002
291881250 6.294799e-002 -1.529645e+002 9.834276e-001 -6.297661e+001 9.827836e-001 -6.301381e+001 6.234058e-002 -1.526782e+002
314325000 6.653845e-002 -1.582585e+002 9.819946e-001 -6.777622e+001 9.814256e-001 -6.776353e+001 6.556498e-002 -1.577102e+002
336768750 6.970829e-002 -1.636532e+002 9.806110e-001 -7.256133e+001 9.803637e-001 -7.254703e+001 6.892692e-002 -1.628289e+002
359212500 7.244515e-002 -1.690353e+002 9.795970e-001 -7.734449e+001 9.795513e-001 -7.732763e+001 7.191637e-002 -1.680661e+002
381656250 7.446632e-002 -1.742440e+002 9.785571e-001 -8.212267e+001 9.786628e-001 -8.210876e+001 7.462785e-002 -1.731127e+002
404100000 7.612842e-002 -1.791182e+002 9.776090e-001 -8.690051e+001 9.777520e-001 -8.689288e+001 7.671631e-002 -1.777707e+002
426543750 7.781894e-002 1.759909e+002 9.765687e-001 -9.166219e+001 9.768003e-001 -9.165009e+001 7.866599e-002 1.776899e+002
448987500 7.929853e-002 1.713743e+002 9.756555e-001 -9.643008e+001 9.753618e-001 -9.641811e+001 8.007795e-002 1.728432e+002
471431250 8.073350e-002 1.664861e+002 9.744353e-001 -1.011900e+002 9.745448e-001 -1.011949e+002 8.103161e-002 1.679855e+002
493875000 8.223806e-002 1.613433e+002 9.733011e-001 -1.059567e+002 9.736610e-001 -1.059465e+002 8.161448e-002 1.627827e+002
516318750 8.323535e-002 1.561169e+002 9.725769e-001 -1.107167e+002 9.729385e-001 -1.106820e+002 8.188858e-002 1.573895e+002
538762500 8.369619e-002 1.508711e+002 9.718487e-001 -1.154814e+002 9.718664e-001 -1.154627e+002 8.208321e-002 1.519941e+002
561206250 8.317222e-002 1.457945e+002 9.712014e-001 -1.202476e+002 9.711133e-001 -1.202255e+002 8.211904e-002 1.469310e+002
583650000 8.213593e-002 1.406870e+002 9.709325e-001 -1.249969e+002 9.710340e-001 -1.249837e+002 8.203397e-002 1.420289e+002
606093750 8.079805e-002 1.356993e+002 9.703510e-001 -1.297434e+002 9.701585e-001 -1.297261e+002 8.115447e-002 1.371554e+002
628537500 7.920366e-002 1.308760e+002 9.692712e-001 -1.345037e+002 9.691700e-001 -1.344818e+002 8.000871e-002 1.321922e+002
650981250 7.739731e-002 1.259832e+002 9.687852e-001 -1.392689e+002 9.690952e-001 -1.392441e+002 7.846273e-002 1.275235e+002
673425000 7.573704e-002 1.208090e+002 9.681646e-001 -1.440211e+002 9.680741e-001 -1.440114e+002 7.624146e-002 1.225017e+002
695868750 7.392517e-002 1.155457e+002 9.674208e-001 -1.487828e+002 9.674827e-001 -1.487680e+002 7.382824e-002 1.172756e+002
718312500 7.183984e-002 1.105394e+002 9.668937e-001 -1.535433e+002 9.666746e-001 -1.535249e+002 7.093068e-002 1.121503e+002
740756250 6.916969e-002 1.054967e+002 9.664068e-001 -1.583050e+002 9.663559e-001 -1.582873e+002 6.832735e-002 1.067401e+002
763200000 6.585342e-002 1.004136e+002 9.660494e-001 -1.630672e+002 9.662264e-001 -1.630432e+002 6.511220e-002 1.013576e+002
785643750 6.207720e-002 9.568895e+001 9.657438e-001 -1.678285e+002 9.654980e-001 -1.678183e+002 6.184141e-002 9.597390e+001
808087500 5.819716e-002 9.110819e+001 9.653926e-001 -1.725995e+002 9.650271e-001 -1.725789e+002 5.828961e-002 9.088274e+001
830531250 5.409877e-002 8.636164e+001 9.646213e-001 -1.773617e+002 9.646689e-001 -1.773527e+002 5.470806e-002 8.567202e+001
852975000 5.011084e-002 8.106317e+001 9.640204e-001 1.778775e+002 9.638571e-001 1.778850e+002 5.055541e-002 7.991589e+001
875418750 4.592495e-002 7.575925e+001 9.634511e-001 1.731093e+002 9.634705e-001 1.731198e+002 4.599480e-002 7.429541e+001
897862500 4.217175e-002 7.023171e+001 9.629105e-001 1.683348e+002 9.632025e-001 1.683472e+002 4.143842e-002 6.873338e+001
920306250 3.783498e-002 6.480302e+001 9.626070e-001 1.635748e+002 9.625117e-001 1.635773e+002 3.700441e-002 6.219766e+001
942750000 3.324082e-002 5.900211e+001 9.618694e-001 1.587840e+002 9.624512e-001 1.588091e+002 3.233792e-002 5.515331e+001
965193750 2.833510e-002 5.381271e+001 9.616252e-001 1.540191e+002 9.618947e-001 1.540387e+002 2.775121e-002 4.732142e+001
987637500 2.336543e-002 4.892444e+001 9.611208e-001 1.492484e+002 9.614679e-001 1.492640e+002 2.311498e-002 3.931176e+001
1010081250 1.811533e-002 4.397118e+001 9.605160e-001 1.444689e+002 9.606842e-001 1.445007e+002 1.879807e-002 2.957157e+001
1032525000 1.293608e-002 3.765693e+001 9.603355e-001 1.396948e+002 9.597870e-001 1.397167e+002 1.457279e-002 1.592757e+001
1054968750 7.898416e-003 2.982275e+001 9.593822e-001 1.349251e+002 9.594859e-001 1.349448e+002 1.081269e-002 -4.151079e+000
1077412500 3.281221e-003 4.210381e+000 9.585209e-001 1.301587e+002 9.583697e-001 1.301662e+002 8.338860e-003 -3.484945e+001
1099856250 2.842853e-003 -1.095939e+002 9.579681e-001 1.253796e+002 9.577119e-001 1.254070e+002 8.736914e-003 -7.270588e+001
1122300000 7.751316e-003 -1.417407e+002 9.568940e-001 1.206113e+002 9.572450e-001 1.206289e+002 1.168642e-002 -1.036284e+002
1144743750 1.257755e-002 -1.535498e+002 9.562332e-001 1.158353e+002 9.561164e-001 1.158485e+002 1.544681e-002 -1.226898e+002
1167187500 1.728009e-002 -1.620123e+002 9.552518e-001 1.110695e+002 9.555757e-001 1.110902e+002 1.941705e-002 -1.358132e+002
1189631250 2.191904e-002 -1.687498e+002 9.543569e-001 1.063002e+002 9.547418e-001 1.063244e+002 2.353342e-002 -1.444741e+002
1212075000 2.659048e-002 -1.748896e+002 9.540269e-001 1.015371e+002 9.540048e-001 1.015557e+002 2.815456e-002 -1.525069e+002
1234518750 3.101118e-002 1.795869e+002 9.532484e-001 9.678141e+001 9.531900e-001 9.678944e+001 3.258670e-002 -1.596797e+002
1256962500 3.512593e-002 1.747845e+002 9.522736e-001 9.201568e+001 9.526946e-001 9.203223e+001 3.658728e-002 -1.660983e+002
1279406250 3.909975e-002 1.700402e+002 9.513859e-001 8.725016e+001 9.515513e-001 8.727521e+001 4.025118e-002 -1.719428e+002
1301850000 4.313649e-002 1.651391e+002 9.505153e-001 8.248692e+001 9.510096e-001 8.251468e+001 4.433423e-002 -1.778434e+002
1324293750 4.725233e-002 1.600779e+002 9.496250e-001 7.772523e+001 9.497815e-001 7.775630e+001 4.773854e-002 1.761516e+002
1346737500 5.092243e-002 1.548415e+002 9.489192e-001 7.297742e+001 9.491254e-001 7.300039e+001 5.085730e-002 1.702095e+002
1369181250 5.448799e-002 1.497967e+002 9.477554e-001 6.823097e+001 9.478521e-001 6.824146e+001 5.378410e-002 1.647711e+002
1391625000 5.726218e-002 1.445358e+002 9.470366e-001 6.347603e+001 9.471396e-001 6.349602e+001 5.691824e-002 1.593117e+002
1414068750 6.019696e-002 1.395282e+002 9.463325e-001 5.872629e+001 9.461289e-001 5.874291e+001 5.983267e-002 1.537802e+002
1436512500 6.194023e-002 1.345908e+002 9.454361e-001 5.398097e+001 9.453728e-001 5.399984e+001 6.198857e-002 1.487960e+002
1458956250 6.374204e-002 1.297517e+002 9.443996e-001 4.923742e+001 9.446914e-001 4.925922e+001 6.396400e-002 1.439523e+002
1481400000 6.570061e-002 1.245980e+002 9.438892e-001 4.450512e+001 9.440311e-001 4.451689e+001 6.578514e-002 1.388288e+002
1503843750 6.752776e-002 1.196810e+002 9.429166e-001 3.976115e+001 9.430836e-001 3.977187e+001 6.742942e-002 1.335759e+002
1526287500 6.922375e-002 1.146670e+002 9.423133e-001 3.501606e+001 9.420562e-001 3.502988e+001 6.857421e-002 1.283438e+002
1548731250 7.048917e-002 1.094960e+002 9.414688e-001 3.028053e+001 9.417793e-001 3.029430e+001 6.902283e-002 1.231282e+002
1571175000 7.146054e-002 1.044280e+002 9.412103e-001 2.554294e+001 9.410278e-001 2.556097e+001 6.953216e-002 1.177664e+002
1593618750 7.174555e-002 9.962673e+001 9.405084e-001 2.079015e+001 9.402221e-001 2.081398e+001 6.978735e-002 1.126901e+002
1616062500 7.154393e-002 9.494905e+001 9.396308e-001 1.605317e+001 9.398286e-001 1.607456e+001 6.990525e-002 1.078236e+002
1638506250 7.108326e-002 8.993100e+001 9.390185e-001 1.131596e+001 9.393054e-001 1.133067e+001 6.981805e-002 1.026726e+002
1660950000 7.056943e-002 8.484604e+001 9.385503e-001 6.577262e+000 9.385998e-001 6.597842e+000 6.932392e-002 9.752729e+001
1683393750 6.974214e-002 7.992400e+001 9.379208e-001 1.832392e+000 9.382203e-001 1.852992e+000 6.853119e-002 9.262277e+001
1705837500 6.912886e-002 7.470746e+001 9.373327e-001 -2.908351e+000 9.374752e-001 -2.887845e+000 6.749205e-002 8.746492e+001
1728281250 6.826535e-002 6.921487e+001 9.368919e-001 -7.639356e+000 9.368154e-001 -7.626061e+000 6.615674e-002 8.190722e+001
1750725000 6.691553e-002 6.398029e+001 9.363886e-001 -1.238249e+001 9.364884e-001 -1.236655e+001 6.417503e-002 7.629735e+001
1773168750 6.510806e-002 5.917744e+001 9.358587e-001 -1.712880e+001 9.361933e-001 -1.711049e+001 6.197793e-002 7.122411e+001
1795612500 6.297183e-002 5.439334e+001 9.354528e-001 -2.187924e+001 9.357144e-001 -2.185872e+001 5.984243e-002 6.619182e+001
1818056250 6.052073e-002 4.949522e+001 9.350550e-001 -2.661719e+001 9.350399e-001 -2.659734e+001 5.779783e-002 6.113154e+001
1840500000 5.772226e-002 4.467558e+001 9.347745e-001 -3.137095e+001 9.349207e-001 -3.134839e+001 5.549067e-002 5.548720e+001
1862943750 5.488301e-002 3.946649e+001 9.342161e-001 -3.612244e+001 9.342551e-001 -3.609925e+001 5.278180e-002 4.984410e+001
1885387500 5.185647e-002 3.427680e+001 9.338511e-001 -4.086349e+001 9.339362e-001 -4.084618e+001 4.973794e-002 4.415010e+001
1907831250 4.878132e-002 2.896916e+001 9.333248e-001 -4.561749e+001 9.332331e-001 -4.558792e+001 4.661812e-002 3.799683e+001
1930275000 4.580386e-002 2.359754e+001 9.327537e-001 -5.036947e+001 9.329339e-001 -5.034579e+001 4.335173e-002 3.229881e+001
1952718750 4.263024e-002 1.839062e+001 9.326442e-001 -5.513327e+001 9.326651e-001 -5.510363e+001 3.983549e-002 2.612770e+001
1975162500 3.914402e-002 1.310551e+001 9.320697e-001 -5.987854e+001 9.321020e-001 -5.986469e+001 3.643158e-002 1.979608e+001
1997606250 3.527603e-002 8.240605e+000 9.315422e-001 -6.462923e+001 9.316931e-001 -6.461477e+001 3.300426e-002 1.364419e+001
2020050000 3.116213e-002 2.962414e+000 9.309827e-001 -6.938909e+001 9.314543e-001 -6.936700e+001 2.973848e-002 6.902753e+000
2042493750 2.689842e-002 -2.434758e+000 9.303999e-001 -7.415850e+001 9.307035e-001 -7.413136e+001 2.616861e-002 -7.728173e-001
2064937500 2.268784e-002 -8.369072e+000 9.299569e-001 -7.890968e+001 9.302075e-001 -7.890164e+001 2.220329e-002 -9.618739e+000
2087381250 1.840489e-002 -1.437115e+001 9.294482e-001 -8.368011e+001 9.294339e-001 -8.365343e+001 1.839886e-002 -2.014588e+001
2109825000 1.441748e-002 -1.986508e+001 9.286093e-001 -8.843225e+001 9.288149e-001 -8.840712e+001 1.505858e-002 -3.220895e+001
2132268750 1.049638e-002 -2.766471e+001 9.278994e-001 -9.318431e+001 9.283381e-001 -9.317838e+001 1.206780e-002 -5.044329e+001
2154712500 6.604837e-003 -3.865731e+001 9.272525e-001 -9.794995e+001 9.278401e-001 -9.792815e+001 1.002687e-002 -7.421380e+001
2177156250 2.797380e-003 -5.973714e+001 9.265383e-001 -1.027084e+002 9.272048e-001 -1.026886e+002 9.209789e-003 -1.005115e+002
2199600000 2.158610e-003 -1.749463e+002 9.260110e-001 -1.074642e+002 9.266561e-001 -1.074499e+002 9.653854e-003 -1.265247e+002
2222043750 6.412514e-003 1.534201e+002 9.256482e-001 -1.122210e+002 9.256068e-001 -1.122020e+002 1.171553e-002 -1.493589e+002
2244487500 1.067776e-002 1.451942e+002 9.248148e-001 -1.169850e+002 9.249919e-001 -1.169558e+002 1.444621e-002 -1.666245e+002
2266931250 1.466395e-002 1.358404e+002 9.241148e-001 -1.217348e+002 9.243516e-001 -1.217143e+002 1.757808e-002 -1.798382e+002
2289375000 1.850686e-002 1.299028e+002 9.232069e-001 -1.264759e+002 9.235356e-001 -1.264684e+002 2.068153e-002 1.697994e+002
2311818750 2.183055e-002 1.249261e+002 9.223053e-001 -1.312310e+002 9.228764e-001 -1.312101e+002 2.399111e-002 1.617109e+002
2334262500 2.504015e-002 1.198310e+002 9.216945e-001 -1.359904e+002 9.219546e-001 -1.359674e+002 2.706021e-002 1.545409e+002
2356706250 2.853800e-002 1.144177e+002 9.211313e-001 -1.407439e+002 9.211275e-001 -1.407242e+002 2.983267e-002 1.474286e+002
2379150000 3.169588e-002 1.088234e+002 9.204602e-001 -1.454795e+002 9.206946e-001 -1.454723e+002 3.253279e-002 1.406112e+002
2401593750 3.490537e-002 1.039874e+002 9.197480e-001 -1.502415e+002 9.197582e-001 -1.502185e+002 3.478536e-002 1.342098e+002
2424037500 3.817843e-002 9.892329e+001 9.189595e-001 -1.549853e+002 9.190508e-001 -1.549778e+002 3.722064e-002 1.277617e+002
2446481250 4.070584e-002 9.360931e+001 9.181594e-001 -1.597335e+002 9.184459e-001 -1.597104e+002 3.941640e-002 1.219088e+002
2468925000 4.327707e-002 8.862920e+001 9.173596e-001 -1.644763e+002 9.175345e-001 -1.644622e+002 4.193716e-002 1.159250e+002
2491368750 4.565762e-002 8.352905e+001 9.163916e-001 -1.692068e+002 9.165654e-001 -1.691965e+002 4.420063e-002 1.101429e+002
2513812500 4.729870e-002 7.835248e+001 9.159046e-001 -1.739754e+002 9.160243e-001 -1.739393e+002 4.603898e-002 1.045326e+002
2536256250 4.906947e-002 7.307845e+001 9.149346e-001 -1.787055e+002 9.151493e-001 -1.786763e+002 4.729884e-002 9.908287e+001
2558700000 5.039003e-002 6.838383e+001 9.144902e-001 1.765519e+002 9.146823e-001 1.765785e+002 4.834566e-002 9.404071e+001
2581143750 5.187634e-002 6.354537e+001 9.139652e-001 1.718165e+002 9.139047e-001 1.718417e+002 4.930941e-002 8.854082e+001
2603587500 5.307262e-002 5.838884e+001 9.130498e-001 1.670805e+002 9.132316e-001 1.671030e+002 4.994756e-002 8.286275e+001
2626031250 5.411433e-002 5.316497e+001 9.129337e-001 1.623449e+002 9.126887e-001 1.623733e+002 5.051075e-002 7.729789e+001
2648475000 5.482598e-002 4.831614e+001 9.119120e-001 1.576108e+002 9.120508e-001 1.576392e+002 5.114062e-002 7.168584e+001
2670918750 5.535403e-002 4.308054e+001 9.113621e-001 1.528675e+002 9.116583e-001 1.529083e+002 5.147041e-002 6.629111e+001
2693362500 5.526261e-002 3.780730e+001 9.106755e-001 1.481209e+002 9.107932e-001 1.481647e+002 5.150584e-002 6.072628e+001
2715806250 5.503854e-002 3.295155e+001 9.100346e-001 1.433995e+002 9.104049e-001 1.434285e+002 5.140289e-002 5.548124e+001
2738250000 5.503256e-002 2.825204e+001 9.096804e-001 1.386546e+002 9.096741e-001 1.386800e+002 5.090678e-002 5.006659e+001
2760693750 5.450178e-002 2.333231e+001 9.094346e-001 1.339110e+002 9.094099e-001 1.339382e+002 5.001425e-002 4.442593e+001
2783137500 5.374360e-002 1.817264e+001 9.089533e-001 1.291772e+002 9.087281e-001 1.291971e+002 4.892244e-002 3.870583e+001
2805581250 5.261190e-002 1.343598e+001 9.079105e-001 1.244373e+002 9.084296e-001 1.244703e+002 4.775277e-002 3.283489e+001
2828025000 5.180687e-002 8.464784e+000 9.078315e-001 1.196971e+002 9.078609e-001 1.197270e+002 4.667957e-002 2.741944e+001
2850468750 5.047746e-002 3.079337e+000 9.072852e-001 1.149459e+002 9.074517e-001 1.149878e+002 4.560222e-002 2.115398e+001
2872912500 4.881169e-002 -2.946410e+000 9.067295e-001 1.102067e+002 9.069278e-001 1.102459e+002 4.405273e-002 1.491667e+001
2895356250 4.697481e-002 -7.899602e+000 9.061373e-001 1.054620e+002 9.067183e-001 1.054997e+002 4.244095e-002 8.706781e+000
2917800000 4.523152e-002 -1.232539e+001 9.055150e-001 1.007088e+002 9.061073e-001 1.007557e+002 4.072843e-002 3.354915e+000
2940243750 4.339635e-002 -1.694455e+001 9.053671e-001 9.596931e+001 9.056286e-001 9.600290e+001 3.883241e-002 -2.666326e+000
2962687500 4.119993e-002 -2.192823e+001 9.049135e-001 9.121348e+001 9.048961e-001 9.126550e+001 3.666674e-002 -9.487868e+000
2985131250 3.863889e-002 -2.651739e+001 9.046276e-001 8.647266e+001 9.045610e-001 8.650866e+001 3.422072e-002 -1.605621e+001
3007575000 3.610801e-002 -3.147697e+001 9.040365e-001 8.171639e+001 9.040462e-001 8.177050e+001 3.191674e-002 -2.322000e+001
3030018750 3.338795e-002 -3.669012e+001 9.033276e-001 7.696704e+001 9.033836e-001 7.701223e+001 2.966012e-002 -3.093045e+001
3052462500 3.056628e-002 -4.254795e+001 9.026847e-001 7.221989e+001 9.032723e-001 7.225924e+001 2.759601e-002 -3.873855e+001
3074906250 2.780933e-002 -4.784711e+001 9.026376e-001 6.747002e+001 9.025425e-001 6.751212e+001 2.578392e-002 -4.665343e+001
3097350000 2.503285e-002 -5.293232e+001 9.017312e-001 6.272041e+001 9.020944e-001 6.276278e+001 2.383816e-002 -5.505710e+001
3119793750 2.179171e-002 -5.827452e+001 9.012008e-001 5.796664e+001 9.016278e-001 5.800837e+001 2.158277e-002 -6.458022e+001
3142237500 1.854184e-002 -6.286441e+001 9.007430e-001 5.320380e+001 9.012200e-001 5.325304e+001 1.903943e-002 -7.478961e+001
3164681250 1.552891e-002 -6.611068e+001 9.002203e-001 4.846085e+001 9.005828e-001 4.850351e+001 1.696708e-002 -8.606032e+001
3187125000 1.250392e-002 -7.085443e+001 8.996178e-001 4.369424e+001 9.002321e-001 4.374977e+001 1.533534e-002 -1.001476e+002
3209568750 9.187188e-003 -7.686745e+001 8.990884e-001 3.895271e+001 8.992968e-001 3.899580e+001 1.424662e-002 -1.164491e+002
3232012500 5.951236e-003 -8.247605e+001 8.981359e-001 3.420094e+001 8.990319e-001 3.424302e+001 1.382095e-002 -1.323817e+002
3254456250 2.867884e-003 -9.063782e+001 8.978566e-001 2.943993e+001 8.982211e-001 2.949136e+001 1.405788e-002 -1.471640e+002
3276900000 7.324170e-004 1.271178e+002 8.972132e-001 2.469201e+001 8.978668e-001 2.474791e+001 1.459352e-002 -1.625869e+002
3299343750 4.051459e-003 8.473479e+001 8.966219e-001 1.994500e+001 8.968749e-001 1.998255e+001 1.473966e-002 -1.783296e+002
3321787500 7.542357e-003 7.507718e+001 8.959902e-001 1.519920e+001 8.960962e-001 1.523469e+001 1.537171e-002 1.665871e+002
3344231250 1.037564e-002 6.956084e+001 8.950275e-001 1.044564e+001 8.955576e-001 1.049555e+001 1.669738e-002 1.536366e+002
3366675000 1.298879e-002 6.674471e+001 8.943501e-001 5.692738e+000 8.947268e-001 5.738472e+000 1.855588e-002 1.424306e+002
3389118750 1.589910e-002 6.273491e+001 8.938316e-001 9.435031e-001 8.941486e-001 9.866663e-001 2.048485e-002 1.323537e+002
3411562500 1.873453e-002 5.735791e+001 8.930565e-001 -3.810177e+000 8.939096e-001 -3.755787e+000 2.227531e-002 1.232066e+002
3434006250 2.102521e-002 5.268758e+001 8.924239e-001 -8.553452e+000 8.927462e-001 -8.504622e+000 2.379777e-002 1.156562e+002
3456450000 2.342569e-002 4.833516e+001 8.920174e-001 -1.329357e+001 8.919817e-001 -1.325100e+001 2.525069e-002 1.091544e+002
3478893750 2.623142e-002 4.283922e+001 8.911290e-001 -1.804457e+001 8.915225e-001 -1.799944e+001 2.656050e-002 1.016179e+002
3501337500 2.889598e-002 3.659959e+001 8.903710e-001 -2.277892e+001 8.909139e-001 -2.274701e+001 2.776987e-002 9.290125e+001
3523781250 3.150529e-002 3.117770e+001 8.895810e-001 -2.752189e+001 8.901750e-001 -2.748353e+001 2.902920e-002 8.456158e+001
3546225000 3.365374e-002 2.650655e+001 8.890339e-001 -3.226009e+001 8.893992e-001 -3.222686e+001 3.029284e-002 7.767052e+001
