!Agilent Technologies,E8364A,US41440284,A.06.04.32
!Agilent E8364A: A.06.04.32
!Date: Friday, December 06, 2019 10:44:08
!Correction: S11(Full 2 Port(1,2)) S21(Full 2 Port(1,2)) S12(Full 2 Port(1,2)) S22(Full 2 Port(1,2)) 
!S2P File: Measurements: S11, S21, S12, S22:
# Hz S  MA   R 50
45000000 3.719015e-003 -9.093664e+001 9.984459e-001 -5.743889e+000 9.979582e-001 -5.718567e+000 5.011600e-003 -9.869701e+001
67443750 6.070832e-003 -8.420537e+001 9.971631e-001 -8.541813e+000 9.974177e-001 -8.534960e+000 6.805048e-003 -8.959571e+001
89887500 8.487505e-003 -8.602836e+001 9.970069e-001 -1.134927e+001 9.968733e-001 -1.134620e+001 9.315556e-003 -8.742862e+001
112331250 1.095282e-002 -8.885968e+001 9.959935e-001 -1.415543e+001 9.957837e-001 -1.415372e+001 1.184010e-002 -9.211174e+001
134775000 1.349021e-002 -9.659211e+001 9.955543e-001 -1.694173e+001 9.949709e-001 -1.693994e+001 1.385554e-002 -9.848244e+001
157218750 1.587804e-002 -1.036515e+002 9.946342e-001 -1.972987e+001 9.947153e-001 -1.972604e+001 1.566522e-002 -1.028397e+002
179662500 1.788610e-002 -1.085585e+002 9.941183e-001 -2.251593e+001 9.941080e-001 -2.251243e+001 1.786789e-002 -1.063440e+002
202106250 2.032869e-002 -1.105493e+002 9.935172e-001 -2.531446e+001 9.930773e-001 -2.530837e+001 2.013987e-002 -1.097841e+002
224550000 2.313610e-002 -1.150317e+002 9.930897e-001 -2.807075e+001 9.925911e-001 -2.806353e+001 2.293038e-002 -1.127132e+002
246993750 2.513561e-002 -1.170786e+002 9.920987e-001 -3.085227e+001 9.913769e-001 -3.082898e+001 2.517109e-002 -1.149992e+002
269437500 2.732875e-002 -1.185916e+002 9.914059e-001 -3.356339e+001 9.935765e-001 -3.354844e+001 2.743548e-002 -1.172362e+002
291881250 2.975783e-002 -1.209326e+002 9.915354e-001 -3.640434e+001 9.910015e-001 -3.643323e+001 2.935749e-002 -1.203862e+002
314325000 3.205010e-002 -1.243017e+002 9.906189e-001 -3.918608e+001 9.901977e-001 -3.918328e+001 3.134070e-002 -1.233415e+002
336768750 3.426503e-002 -1.283277e+002 9.900292e-001 -4.196202e+001 9.897955e-001 -4.194627e+001 3.360594e-002 -1.263927e+002
359212500 3.646360e-002 -1.326242e+002 9.894379e-001 -4.473141e+001 9.892848e-001 -4.471961e+001 3.585798e-002 -1.300236e+002
381656250 3.831829e-002 -1.369227e+002 9.891083e-001 -4.749841e+001 9.886999e-001 -4.749052e+001 3.817102e-002 -1.334590e+002
404100000 4.002818e-002 -1.404625e+002 9.883446e-001 -5.027187e+001 9.882265e-001 -5.026087e+001 4.011255e-002 -1.362352e+002
426543750 4.203333e-002 -1.434412e+002 9.877526e-001 -5.302617e+001 9.876186e-001 -5.301268e+001 4.239435e-002 -1.383369e+002
448987500 4.374592e-002 -1.457409e+002 9.873663e-001 -5.578760e+001 9.868952e-001 -5.578145e+001 4.450918e-002 -1.409378e+002
471431250 4.560285e-002 -1.482556e+002 9.863600e-001 -5.854792e+001 9.865069e-001 -5.855265e+001 4.636595e-002 -1.433198e+002
493875000 4.782241e-002 -1.507616e+002 9.857408e-001 -6.131054e+001 9.859548e-001 -6.130966e+001 4.807000e-002 -1.461198e+002
516318750 4.998741e-002 -1.537649e+002 9.852304e-001 -6.407639e+001 9.854626e-001 -6.404274e+001 4.983487e-002 -1.493820e+002
538762500 5.201854e-002 -1.571780e+002 9.844672e-001 -6.683417e+001 9.843560e-001 -6.683250e+001 5.161229e-002 -1.527545e+002
561206250 5.357910e-002 -1.609679e+002 9.839498e-001 -6.959573e+001 9.842860e-001 -6.957942e+001 5.332366e-002 -1.559343e+002
583650000 5.527039e-002 -1.647411e+002 9.837397e-001 -7.235434e+001 9.837683e-001 -7.233904e+001 5.520847e-002 -1.588600e+002
606093750 5.680543e-002 -1.680172e+002 9.833553e-001 -7.510481e+001 9.832573e-001 -7.508522e+001 5.686341e-002 -1.620091e+002
628537500 5.814781e-002 -1.709579e+002 9.825485e-001 -7.784790e+001 9.823661e-001 -7.784306e+001 5.873240e-002 -1.648168e+002
650981250 5.945935e-002 -1.738272e+002 9.819136e-001 -8.061853e+001 9.822354e-001 -8.058611e+001 6.034140e-002 -1.672682e+002
673425000 6.113001e-002 -1.766205e+002 9.814680e-001 -8.335797e+001 9.812857e-001 -8.334807e+001 6.181490e-002 -1.699947e+002
695868750 6.285428e-002 -1.796213e+002 9.807416e-001 -8.611856e+001 9.808494e-001 -8.610137e+001 6.327809e-002 -1.727863e+002
718312500 6.424593e-002 1.774512e+002 9.802399e-001 -8.886730e+001 9.802557e-001 -8.885623e+001 6.432644e-002 -1.757319e+002
740756250 6.561423e-002 1.741380e+002 9.799608e-001 -9.162826e+001 9.797470e-001 -9.159672e+001 6.575324e-002 -1.785689e+002
763200000 6.700147e-002 1.706753e+002 9.794390e-001 -9.436691e+001 9.797052e-001 -9.434484e+001 6.692717e-002 1.782295e+002
785643750 6.786940e-002 1.674492e+002 9.792383e-001 -9.711021e+001 9.787145e-001 -9.710081e+001 6.821933e-002 1.752683e+002
808087500 6.853446e-002 1.644714e+002 9.785258e-001 -9.986383e+001 9.783369e-001 -9.984193e+001 6.910626e-002 1.724702e+002
830531250 6.918658e-002 1.614875e+002 9.780585e-001 -1.026056e+002 9.781097e-001 -1.025883e+002 7.015554e-002 1.699195e+002
852975000 7.032710e-002 1.586641e+002 9.776426e-001 -1.053544e+002 9.774868e-001 -1.053287e+002 7.137728e-002 1.672204e+002
875418750 7.116426e-002 1.557126e+002 9.768400e-001 -1.081006e+002 9.771071e-001 -1.080872e+002 7.205608e-002 1.644997e+002
897862500 7.215686e-002 1.529927e+002 9.765573e-001 -1.108526e+002 9.765816e-001 -1.108299e+002 7.240223e-002 1.618080e+002
920306250 7.302368e-002 1.498082e+002 9.760891e-001 -1.136006e+002 9.761586e-001 -1.135702e+002 7.299243e-002 1.590322e+002
942750000 7.421122e-002 1.466463e+002 9.757288e-001 -1.163438e+002 9.758643e-001 -1.163248e+002 7.352383e-002 1.560371e+002
965193750 7.483102e-002 1.434775e+002 9.753093e-001 -1.190857e+002 9.753812e-001 -1.190638e+002 7.414383e-002 1.530575e+002
987637500 7.527228e-002 1.404850e+002 9.753715e-001 -1.218334e+002 9.750672e-001 -1.217997e+002 7.445299e-002 1.501167e+002
1010081250 7.536700e-002 1.374294e+002 9.747526e-001 -1.245685e+002 9.745328e-001 -1.245401e+002 7.490500e-002 1.474384e+002
1032525000 7.560209e-002 1.345679e+002 9.746182e-001 -1.273190e+002 9.740705e-001 -1.273008e+002 7.555978e-002 1.447402e+002
1054968750 7.564262e-002 1.316819e+002 9.740967e-001 -1.300630e+002 9.741465e-001 -1.300331e+002 7.586636e-002 1.420832e+002
1077412500 7.618638e-002 1.287027e+002 9.734221e-001 -1.327936e+002 9.732508e-001 -1.327871e+002 7.579261e-002 1.394207e+002
1099856250 7.664867e-002 1.256160e+002 9.734627e-001 -1.355449e+002 9.732782e-001 -1.355254e+002 7.605924e-002 1.367808e+002
1122300000 7.711142e-002 1.221919e+002 9.725754e-001 -1.382852e+002 9.727721e-001 -1.382672e+002 7.616146e-002 1.337228e+002
1144743750 7.725491e-002 1.189676e+002 9.721821e-001 -1.410276e+002 9.724872e-001 -1.410138e+002 7.584359e-002 1.306465e+002
1167187500 7.709582e-002 1.159317e+002 9.718587e-001 -1.437711e+002 9.720460e-001 -1.437471e+002 7.543068e-002 1.277881e+002
1189631250 7.683495e-002 1.130122e+002 9.715356e-001 -1.465212e+002 9.719165e-001 -1.464926e+002 7.556240e-002 1.253223e+002
1212075000 7.627390e-002 1.101544e+002 9.714847e-001 -1.492570e+002 9.717654e-001 -1.492391e+002 7.561755e-002 1.225106e+002
1234518750 7.559802e-002 1.071778e+002 9.713991e-001 -1.519923e+002 9.714991e-001 -1.519759e+002 7.528385e-002 1.197417e+002
1256962500 7.521178e-002 1.043618e+002 9.709419e-001 -1.547331e+002 9.711701e-001 -1.547176e+002 7.476118e-002 1.170289e+002
1279406250 7.495881e-002 1.014195e+002 9.707038e-001 -1.574756e+002 9.708867e-001 -1.574628e+002 7.422422e-002 1.145283e+002
1301850000 7.472308e-002 9.820673e+001 9.702536e-001 -1.602303e+002 9.703441e-001 -1.602095e+002 7.381392e-002 1.114282e+002
1324293750 7.471904e-002 9.482688e+001 9.700022e-001 -1.629695e+002 9.699400e-001 -1.629488e+002 7.293488e-002 1.083902e+002
1346737500 7.442810e-002 9.164630e+001 9.693445e-001 -1.657141e+002 9.694256e-001 -1.656950e+002 7.214785e-002 1.053902e+002
1369181250 7.407900e-002 8.852829e+001 9.693357e-001 -1.684472e+002 9.690174e-001 -1.684330e+002 7.156704e-002 1.027183e+002
1391625000 7.304371e-002 8.561530e+001 9.692181e-001 -1.711969e+002 9.688737e-001 -1.711783e+002 7.109682e-002 9.973750e+001
1414068750 7.224081e-002 8.249295e+001 9.688498e-001 -1.739321e+002 9.688316e-001 -1.739142e+002 7.028920e-002 9.676166e+001
1436512500 7.080474e-002 7.992244e+001 9.684651e-001 -1.766760e+002 9.684955e-001 -1.766646e+002 6.939039e-002 9.434362e+001
1458956250 6.976322e-002 7.706061e+001 9.683074e-001 -1.794167e+002 9.683090e-001 -1.794051e+002 6.853605e-002 9.185807e+001
1481400000 6.888059e-002 7.375464e+001 9.681095e-001 1.778451e+002 9.682007e-001 1.778495e+002 6.748964e-002 8.896427e+001
1503843750 6.831417e-002 7.048515e+001 9.675709e-001 1.751024e+002 9.678573e-001 1.751101e+002 6.635301e-002 8.569187e+001
1526287500 6.774919e-002 6.714075e+001 9.676463e-001 1.723578e+002 9.672875e-001 1.723729e+002 6.523742e-002 8.249770e+001
1548731250 6.679966e-002 6.379803e+001 9.670647e-001 1.696247e+002 9.672179e-001 1.696226e+002 6.386882e-002 7.966036e+001
1571175000 6.585643e-002 6.052209e+001 9.670507e-001 1.668773e+002 9.667365e-001 1.668843e+002 6.262673e-002 7.655731e+001
1593618750 6.453442e-002 5.759725e+001 9.668233e-001 1.641306e+002 9.668232e-001 1.641365e+002 6.154808e-002 7.373756e+001
1616062500 6.307320e-002 5.488349e+001 9.666185e-001 1.613796e+002 9.666214e-001 1.613994e+002 6.052680e-002 7.107546e+001
1638506250 6.146941e-002 5.184703e+001 9.664925e-001 1.586331e+002 9.664044e-001 1.586461e+002 5.932807e-002 6.818050e+001
1660950000 6.010474e-002 4.860177e+001 9.661089e-001 1.559021e+002 9.660831e-001 1.559103e+002 5.791011e-002 6.525309e+001
1683393750 5.877323e-002 4.554141e+001 9.655263e-001 1.531535e+002 9.658645e-001 1.531576e+002 5.659524e-002 6.242427e+001
1705837500 5.784639e-002 4.207158e+001 9.653295e-001 1.504071e+002 9.657233e-001 1.504215e+002 5.515342e-002 5.929783e+001
1728281250 5.677343e-002 3.825632e+001 9.654984e-001 1.476709e+002 9.651900e-001 1.476709e+002 5.361560e-002 5.564982e+001
1750725000 5.550228e-002 3.476151e+001 9.648653e-001 1.449256e+002 9.649620e-001 1.449315e+002 5.165767e-002 5.219957e+001
1773168750 5.404601e-002 3.184254e+001 9.648938e-001 1.421747e+002 9.651134e-001 1.421868e+002 4.989052e-002 4.939572e+001
1795612500 5.251563e-002 2.892174e+001 9.648061e-001 1.394204e+002 9.645018e-001 1.394395e+002 4.853007e-002 4.675399e+001
1818056250 5.082297e-002 2.592215e+001 9.643081e-001 1.366831e+002 9.640372e-001 1.366956e+002 4.725176e-002 4.393264e+001
1840500000 4.906662e-002 2.293172e+001 9.641419e-001 1.339369e+002 9.641199e-001 1.339541e+002 4.579122e-002 4.037415e+001
1862943750 4.734133e-002 1.948986e+001 9.637534e-001 1.311896e+002 9.640868e-001 1.312102e+002 4.406301e-002 3.705051e+001
1885387500 4.566284e-002 1.609799e+001 9.635681e-001 1.284490e+002 9.637879e-001 1.284627e+002 4.221812e-002 3.360967e+001
1907831250 4.411293e-002 1.255241e+001 9.634154e-001 1.257022e+002 9.632219e-001 1.257282e+002 4.048790e-002 2.969618e+001
1930275000 4.281764e-002 8.832107e+000 9.629571e-001 1.229474e+002 9.629216e-001 1.229792e+002 3.879950e-002 2.647724e+001
1952718750 4.145426e-002 5.443899e+000 9.628688e-001 1.202015e+002 9.629534e-001 1.202189e+002 3.697154e-002 2.292609e+001
1975162500 3.993304e-002 2.023817e+000 9.624743e-001 1.174614e+002 9.625723e-001 1.174760e+002 3.533502e-002 1.943739e+001
1997606250 3.812035e-002 -1.011463e+000 9.626924e-001 1.147152e+002 9.623443e-001 1.147219e+002 3.373838e-002 1.626526e+001
2020050000 3.612845e-002 -4.484481e+000 9.623779e-001 1.119630e+002 9.622242e-001 1.119746e+002 3.228878e-002 1.286366e+001
2042493750 3.401049e-002 -7.965862e+000 9.616983e-001 1.092114e+002 9.618827e-001 1.092319e+002 3.061405e-002 9.031692e+000
2064937500 3.210719e-002 -1.179309e+001 9.614660e-001 1.064666e+002 9.615971e-001 1.064828e+002 2.854381e-002 4.838451e+000
2087381250 3.017700e-002 -1.570028e+001 9.612632e-001 1.037153e+002 9.613011e-001 1.037339e+002 2.660373e-002 4.540877e-001
2109825000 2.850870e-002 -1.910078e+001 9.609472e-001 1.009628e+002 9.613264e-001 1.009853e+002 2.497399e-002 -3.397510e+000
2132268750 2.704335e-002 -2.310116e+001 9.606199e-001 9.823427e+001 9.608123e-001 9.823756e+001 2.314516e-002 -8.585931e+000
2154712500 2.556544e-002 -2.712210e+001 9.602249e-001 9.547569e+001 9.603834e-001 9.549683e+001 2.136839e-002 -1.370831e+001
2177156250 2.388212e-002 -3.034137e+001 9.598637e-001 9.271969e+001 9.601228e-001 9.274783e+001 1.983141e-002 -1.793102e+001
2199600000 2.210733e-002 -3.410117e+001 9.596468e-001 8.998142e+001 9.599645e-001 9.000153e+001 1.838602e-002 -2.208643e+001
2222043750 1.981437e-002 -3.903860e+001 9.594028e-001 8.722956e+001 9.595463e-001 8.724171e+001 1.683309e-002 -2.853137e+001
2244487500 1.792336e-002 -4.509142e+001 9.591210e-001 8.447945e+001 9.591468e-001 8.450134e+001 1.522448e-002 -3.538913e+001
2266931250 1.561099e-002 -4.967388e+001 9.587171e-001 8.174062e+001 9.589897e-001 8.175896e+001 1.363959e-002 -4.308569e+001
2289375000 1.382413e-002 -5.620750e+001 9.582179e-001 7.899696e+001 9.586433e-001 7.900519e+001 1.220193e-002 -5.083520e+001
2311818750 1.266011e-002 -6.239353e+001 9.579354e-001 7.624451e+001 9.582656e-001 7.626285e+001 1.122722e-002 -6.070054e+001
2334262500 1.148175e-002 -6.866076e+001 9.576572e-001 7.350793e+001 9.576796e-001 7.351625e+001 1.044202e-002 -7.133771e+001
2356706250 1.003674e-002 -7.727818e+001 9.575279e-001 7.075317e+001 9.576455e-001 7.076591e+001 9.582949e-003 -8.271782e+001
2379150000 8.447235e-003 -8.617176e+001 9.574546e-001 6.801586e+001 9.570704e-001 6.802487e+001 9.042390e-003 -9.571176e+001
2401593750 7.261408e-003 -9.984366e+001 9.572317e-001 6.526470e+001 9.566610e-001 6.527486e+001 8.710929e-003 -1.075597e+002
2424037500 6.435697e-003 -1.202264e+002 9.566377e-001 6.251178e+001 9.564172e-001 6.251747e+001 8.762114e-003 -1.220530e+002
2446481250 5.836219e-003 -1.411384e+002 9.562068e-001 5.976652e+001 9.560412e-001 5.979322e+001 9.098818e-003 -1.333923e+002
2468925000 6.313791e-003 -1.608478e+002 9.557719e-001 5.701677e+001 9.555486e-001 5.702665e+001 1.002328e-002 -1.464866e+002
2491368750 7.225488e-003 -1.776584e+002 9.552714e-001 5.427764e+001 9.553596e-001 5.428390e+001 1.119519e-002 -1.571096e+002
2513812500 7.747963e-003 1.692914e+002 9.549220e-001 5.151348e+001 9.549561e-001 5.154607e+001 1.225348e-002 -1.664739e+002
2536256250 8.710817e-003 1.580398e+002 9.545220e-001 4.877420e+001 9.544459e-001 4.881308e+001 1.325486e-002 -1.737503e+002
2558700000 9.474876e-003 1.501063e+002 9.541794e-001 4.604530e+001 9.543626e-001 4.606147e+001 1.412236e-002 -1.793921e+002
2581143750 1.083007e-002 1.419408e+002 9.540445e-001 4.330092e+001 9.538215e-001 4.331292e+001 1.527722e-002 1.742705e+002
2603587500 1.243128e-002 1.336477e+002 9.536881e-001 4.054963e+001 9.534386e-001 4.057547e+001 1.635388e-002 1.680320e+002
2626031250 1.423702e-002 1.270144e+002 9.531627e-001 3.780852e+001 9.531981e-001 3.783051e+001 1.747667e-002 1.627553e+002
2648475000 1.582528e-002 1.224772e+002 9.526398e-001 3.506985e+001 9.529931e-001 3.510043e+001 1.889655e-002 1.579533e+002
2670918750 1.738107e-002 1.178960e+002 9.522032e-001 3.232230e+001 9.524791e-001 3.236065e+001 2.000661e-002 1.538135e+002
2693362500 1.862803e-002 1.126320e+002 9.519433e-001 2.958925e+001 9.519828e-001 2.962005e+001 2.122285e-002 1.494095e+002
2715806250 1.952256e-002 1.084931e+002 9.516024e-001 2.683956e+001 9.518464e-001 2.687364e+001 2.241657e-002 1.456342e+002
2738250000 2.058231e-002 1.051833e+002 9.512748e-001 2.410517e+001 9.511268e-001 2.413639e+001 2.339794e-002 1.416987e+002
2760693750 2.171144e-002 1.004950e+002 9.510608e-001 2.135482e+001 9.508959e-001 2.138661e+001 2.435886e-002 1.373238e+002
2783137500 2.326412e-002 9.599442e+001 9.509668e-001 1.861875e+001 9.505857e-001 1.864102e+001 2.542677e-002 1.330967e+002
2805581250 2.443124e-002 9.200217e+001 9.499381e-001 1.587652e+001 9.501387e-001 1.590887e+001 2.649934e-002 1.290070e+002
2828025000 2.578822e-002 8.927234e+001 9.502476e-001 1.313497e+001 9.498121e-001 1.315569e+001 2.733176e-002 1.262559e+002
2850468750 2.732454e-002 8.557915e+001 9.495942e-001 1.039025e+001 9.494975e-001 1.042206e+001 2.865115e-002 1.228357e+002
2872912500 2.906757e-002 8.126485e+001 9.492295e-001 7.648725e+000 9.493828e-001 7.682129e+000 2.966788e-002 1.187203e+002
2895356250 2.981073e-002 7.731680e+001 9.486786e-001 4.911867e+000 9.488923e-001 4.943848e+000 3.049657e-002 1.150841e+002
2917800000 3.037545e-002 7.386290e+001 9.482327e-001 2.166177e+000 9.486583e-001 2.196789e+000 3.092968e-002 1.121691e+002
2940243750 3.128693e-002 7.044668e+001 9.481341e-001 -5.795682e-001 9.480509e-001 -5.410203e-001 3.173356e-002 1.087218e+002
2962687500 3.262088e-002 6.689943e+001 9.475890e-001 -3.316005e+000 9.477506e-001 -3.274032e+000 3.279060e-002 1.048969e+002
2985131250 3.357564e-002 6.327646e+001 9.471393e-001 -6.056607e+000 9.474241e-001 -6.011220e+000 3.343115e-002 1.013306e+002
3007575000 3.458684e-002 6.016411e+001 9.468800e-001 -8.800825e+000 9.470596e-001 -8.753895e+000 3.416073e-002 9.813239e+001
3030018750 3.556583e-002 5.694589e+001 9.465578e-001 -1.153680e+001 9.465640e-001 -1.149374e+001 3.481358e-002 9.486157e+001
3052462500 3.674839e-002 5.352494e+001 9.460693e-001 -1.427312e+001 9.466061e-001 -1.422684e+001 3.526903e-002 9.190235e+001
3074906250 3.744938e-002 5.023070e+001 9.458038e-001 -1.700888e+001 9.458281e-001 -1.696617e+001 3.573498e-002 8.886631e+001
3097350000 3.817172e-002 4.660020e+001 9.453101e-001 -1.974944e+001 9.453154e-001 -1.970045e+001 3.619432e-002 8.564394e+001
3119793750 3.923711e-002 4.279130e+001 9.450535e-001 -2.248878e+001 9.451947e-001 -2.244582e+001 3.682036e-002 8.170310e+001
3142237500 4.010679e-002 3.917529e+001 9.447041e-001 -2.522458e+001 9.449146e-001 -2.517691e+001 3.706729e-002 7.775732e+001
3164681250 4.043777e-002 3.605095e+001 9.445076e-001 -2.796325e+001 9.448280e-001 -2.792022e+001 3.743061e-002 7.465357e+001
3187125000 4.113112e-002 3.338514e+001 9.439879e-001 -3.070922e+001 9.446194e-001 -3.066336e+001 3.800694e-002 7.163820e+001
3209568750 4.186791e-002 3.027954e+001 9.439300e-001 -3.344229e+001 9.441791e-001 -3.339972e+001 3.847247e-002 6.840226e+001
3232012500 4.234343e-002 2.704095e+001 9.432828e-001 -3.618327e+001 9.439762e-001 -3.613527e+001 3.863271e-002 6.546394e+001
3254456250 4.268074e-002 2.383037e+001 9.432505e-001 -3.892443e+001 9.433181e-001 -3.887475e+001 3.885952e-002 6.270528e+001
3276900000 4.362468e-002 2.014766e+001 9.425973e-001 -4.165738e+001 9.433487e-001 -4.161039e+001 3.913869e-002 5.924215e+001
3299343750 4.414151e-002 1.614595e+001 9.428415e-001 -4.438285e+001 9.427960e-001 -4.435081e+001 3.888732e-002 5.501022e+001
3321787500 4.453526e-002 1.223249e+001 9.423344e-001 -4.712179e+001 9.423735e-001 -4.707706e+001 3.875716e-002 5.128579e+001
3344231250 4.476565e-002 9.449821e+000 9.418162e-001 -4.986422e+001 9.423876e-001 -4.981855e+001 3.903565e-002 4.806911e+001
3366675000 4.519002e-002 7.168213e+000 9.416334e-001 -5.259818e+001 9.415898e-001 -5.256504e+001 3.949805e-002 4.506851e+001
3389118750 4.560706e-002 4.356501e+000 9.412796e-001 -5.534997e+001 9.415974e-001 -5.530580e+001 3.961369e-002 4.201393e+001
3411562500 4.550656e-002 8.427054e-001 9.407591e-001 -5.808862e+001 9.418040e-001 -5.804438e+001 3.929975e-002 3.856989e+001
3434006250 4.533398e-002 -2.188673e+000 9.403048e-001 -6.082119e+001 9.411380e-001 -6.078464e+001 3.897481e-002 3.559391e+001
3456450000 4.560110e-002 -5.125828e+000 9.404513e-001 -6.355501e+001 9.406519e-001 -6.351715e+001 3.889182e-002 3.285416e+001
3478893750 4.597533e-002 -9.029702e+000 9.399298e-001 -6.629405e+001 9.406289e-001 -6.625492e+001 3.870500e-002 2.926648e+001
3501337500 4.608606e-002 -1.309997e+001 9.395365e-001 -6.902265e+001 9.402965e-001 -6.898722e+001 3.835540e-002 2.475448e+001
3523781250 4.645886e-002 -1.684488e+001 9.392996e-001 -7.175788e+001 9.400283e-001 -7.172804e+001 3.803193e-002 2.065746e+001
