!Agilent Technologies,E8364A,US41440284,A.06.04.32
!Agilent E8364A: A.06.04.32
!Date: Friday, December 06, 2019 10:08:00
!Correction: S11(Full 2 Port(1,2)) S21(Full 2 Port(1,2)) S12(Full 2 Port(1,2)) S22(Full 2 Port(1,2)) 
!S2P File: Measurements: S11, S21, S12, S22:
# Hz S  MA   R 50
45000000 1.560520e-002 -9.938616e+001 9.976318e-001 -9.186467e+000 9.967629e-001 -9.167691e+000 1.636559e-002 -1.024369e+002
67443750 2.312242e-002 -1.024193e+002 9.957318e-001 -1.370052e+001 9.954898e-001 -1.369367e+001 2.303635e-002 -1.044503e+002
89887500 3.034389e-002 -1.066936e+002 9.947672e-001 -1.820928e+001 9.943076e-001 -1.819354e+001 3.074920e-002 -1.070360e+002
112331250 3.752945e-002 -1.109216e+002 9.930238e-001 -2.270731e+001 9.922959e-001 -2.269199e+001 3.850784e-002 -1.119657e+002
134775000 4.465295e-002 -1.163504e+002 9.919332e-001 -2.718174e+001 9.910393e-001 -2.717060e+001 4.540311e-002 -1.173240e+002
157218750 5.158836e-002 -1.217005e+002 9.904678e-001 -3.164858e+001 9.898589e-001 -3.164430e+001 5.186728e-002 -1.218467e+002
179662500 5.799543e-002 -1.265236e+002 9.890928e-001 -3.610525e+001 9.885005e-001 -3.610076e+001 5.838817e-002 -1.262460e+002
202106250 6.443698e-002 -1.306706e+002 9.876828e-001 -4.056267e+001 9.870236e-001 -4.056160e+001 6.437876e-002 -1.308523e+002
224550000 7.058467e-002 -1.354134e+002 9.862546e-001 -4.498781e+001 9.856502e-001 -4.498272e+001 7.037334e-002 -1.352284e+002
246993750 7.585279e-002 -1.395389e+002 9.848320e-001 -4.943022e+001 9.838825e-001 -4.940956e+001 7.581186e-002 -1.395282e+002
269437500 8.087433e-002 -1.437013e+002 9.835411e-001 -5.384006e+001 9.837189e-001 -5.381681e+001 8.105414e-002 -1.439589e+002
291881250 8.552683e-002 -1.482094e+002 9.826438e-001 -5.827806e+001 9.818307e-001 -5.828717e+001 8.553391e-002 -1.486632e+002
314325000 8.966499e-002 -1.528671e+002 9.810293e-001 -6.270170e+001 9.804978e-001 -6.269226e+001 8.969364e-002 -1.532049e+002
336768750 9.340327e-002 -1.576292e+002 9.798852e-001 -6.711684e+001 9.791937e-001 -6.710722e+001 9.367932e-002 -1.577914e+002
359212500 9.657890e-002 -1.623981e+002 9.786131e-001 -7.152539e+001 9.783587e-001 -7.151409e+001 9.691881e-002 -1.624771e+002
381656250 9.895412e-002 -1.670499e+002 9.778102e-001 -7.593040e+001 9.772238e-001 -7.592271e+001 9.959868e-002 -1.670050e+002
404100000 1.006673e-001 -1.714338e+002 9.767364e-001 -8.032707e+001 9.762549e-001 -8.032146e+001 1.016256e-001 -1.712827e+002
426543750 1.020784e-001 -1.758976e+002 9.757767e-001 -8.471348e+001 9.753415e-001 -8.470396e+001 1.033599e-001 -1.754783e+002
448987500 1.027318e-001 1.798722e+002 9.752200e-001 -8.910177e+001 9.744902e-001 -8.909811e+001 1.044662e-001 -1.798926e+002
471431250 1.029060e-001 1.754324e+002 9.742776e-001 -9.349905e+001 9.736372e-001 -9.350135e+001 1.048981e-001 1.756697e+002
493875000 1.031125e-001 1.709659e+002 9.733933e-001 -9.790279e+001 9.729333e-001 -9.788782e+001 1.046881e-001 1.711079e+002
516318750 1.027825e-001 1.664021e+002 9.728186e-001 -1.022840e+002 9.723665e-001 -1.022555e+002 1.038666e-001 1.663411e+002
538762500 1.019670e-001 1.618322e+002 9.720003e-001 -1.066805e+002 9.714636e-001 -1.066490e+002 1.025466e-001 1.615134e+002
561206250 1.000210e-001 1.573374e+002 9.714177e-001 -1.110822e+002 9.710456e-001 -1.110389e+002 1.007188e-001 1.569169e+002
583650000 9.753170e-002 1.528564e+002 9.715019e-001 -1.154590e+002 9.709111e-001 -1.154404e+002 9.853397e-002 1.524172e+002
606093750 9.450486e-002 1.485568e+002 9.714041e-001 -1.198516e+002 9.704812e-001 -1.198537e+002 9.553347e-002 1.479234e+002
628537500 9.078740e-002 1.442389e+002 9.704434e-001 -1.242483e+002 9.697944e-001 -1.242289e+002 9.223855e-002 1.433821e+002
650981250 8.659238e-002 1.399169e+002 9.702750e-001 -1.286598e+002 9.697968e-001 -1.286410e+002 8.854486e-002 1.390509e+002
673425000 8.234551e-002 1.352318e+002 9.697266e-001 -1.330503e+002 9.690961e-001 -1.330404e+002 8.406746e-002 1.344162e+002
695868750 7.783007e-002 1.304623e+002 9.693145e-001 -1.374524e+002 9.689415e-001 -1.374482e+002 7.922152e-002 1.297233e+002
718312500 7.297983e-002 1.259200e+002 9.691210e-001 -1.418600e+002 9.685198e-001 -1.418454e+002 7.355744e-002 1.249351e+002
740756250 6.751923e-002 1.214833e+002 9.691419e-001 -1.462787e+002 9.682104e-001 -1.462719e+002 6.795157e-002 1.200079e+002
763200000 6.150350e-002 1.170487e+002 9.683153e-001 -1.506809e+002 9.681209e-001 -1.506606e+002 6.158031e-002 1.150652e+002
785643750 5.483080e-002 1.129976e+002 9.686397e-001 -1.550977e+002 9.680232e-001 -1.550879e+002 5.504303e-002 1.099934e+002
808087500 4.775157e-002 1.092542e+002 9.682737e-001 -1.595188e+002 9.674696e-001 -1.595091e+002 4.814162e-002 1.051535e+002
830531250 4.026534e-002 1.054250e+002 9.675531e-001 -1.639357e+002 9.670815e-001 -1.639336e+002 4.132797e-002 1.002225e+002
852975000 3.288891e-002 1.007123e+002 9.671500e-001 -1.683676e+002 9.669413e-001 -1.683484e+002 3.416236e-002 9.416967e+001
875418750 2.519710e-002 9.570618e+001 9.666253e-001 -1.727860e+002 9.664116e-001 -1.727817e+002 2.648164e-002 8.768586e+001
897862500 1.804557e-002 9.079283e+001 9.662772e-001 -1.772172e+002 9.658812e-001 -1.772127e+002 1.860879e-002 8.016792e+001
920306250 1.064208e-002 8.569772e+001 9.657772e-001 1.783502e+002 9.647982e-001 1.783568e+002 1.111302e-002 6.615700e+001
942750000 3.198497e-003 7.289764e+001 9.651650e-001 1.739152e+002 9.648942e-001 1.739341e+002 4.889956e-003 1.856088e+001
965193750 4.838170e-003 -1.000026e+002 9.644200e-001 1.694942e+002 9.642798e-001 1.695065e+002 7.660468e-003 -6.392091e+001
987637500 1.286810e-002 -1.085464e+002 9.637378e-001 1.650647e+002 9.634410e-001 1.650838e+002 1.497759e-002 -8.809935e+001
1010081250 2.113657e-002 -1.137169e+002 9.631428e-001 1.606405e+002 9.623404e-001 1.606604e+002 2.246639e-002 -9.859239e+001
1032525000 2.926706e-002 -1.174113e+002 9.623155e-001 1.562115e+002 9.615561e-001 1.562212e+002 3.013790e-002 -1.054941e+002
1054968750 3.732888e-002 -1.214823e+002 9.612974e-001 1.517878e+002 9.607906e-001 1.518073e+002 3.779373e-002 -1.115976e+002
1077412500 4.472994e-002 -1.249954e+002 9.604499e-001 1.473782e+002 9.597026e-001 1.473748e+002 4.530899e-002 -1.172999e+002
1099856250 5.182242e-002 -1.289391e+002 9.593801e-001 1.429542e+002 9.585647e-001 1.429620e+002 5.259857e-002 -1.222788e+002
1122300000 5.897376e-002 -1.330331e+002 9.578328e-001 1.385439e+002 9.575258e-001 1.385532e+002 6.035652e-002 -1.270970e+002
1144743750 6.560803e-002 -1.376434e+002 9.568571e-001 1.341270e+002 9.563927e-001 1.341320e+002 6.761975e-002 -1.321472e+002
1167187500 7.194223e-002 -1.424081e+002 9.558525e-001 1.297148e+002 9.551206e-001 1.297280e+002 7.426006e-002 -1.371599e+002
1189631250 7.810476e-002 -1.470487e+002 9.547217e-001 1.253238e+002 9.541988e-001 1.253305e+002 8.022346e-002 -1.417490e+002
1212075000 8.412756e-002 -1.515927e+002 9.535240e-001 1.209253e+002 9.531130e-001 1.209435e+002 8.622488e-002 -1.462339e+002
1234518750 8.981969e-002 -1.560224e+002 9.525327e-001 1.165450e+002 9.519439e-001 1.165508e+002 9.180933e-002 -1.508216e+002
1256962500 9.470309e-002 -1.602161e+002 9.513940e-001 1.121565e+002 9.509138e-001 1.121604e+002 9.662618e-002 -1.553215e+002
1279406250 9.890685e-002 -1.643969e+002 9.501079e-001 1.077756e+002 9.499921e-001 1.077765e+002 1.008655e-001 -1.597179e+002
1301850000 1.027696e-001 -1.686526e+002 9.492520e-001 1.033810e+002 9.489996e-001 1.033948e+002 1.052440e-001 -1.640452e+002
1324293750 1.063606e-001 -1.729612e+002 9.479204e-001 9.900248e+001 9.475458e-001 9.900741e+001 1.089034e-001 -1.685934e+002
1346737500 1.091963e-001 -1.774628e+002 9.471525e-001 9.462940e+001 9.465814e-001 9.463831e+001 1.119561e-001 -1.731755e+002
1369181250 1.117469e-001 1.781410e+002 9.460824e-001 9.026600e+001 9.458312e-001 9.026620e+001 1.141907e-001 -1.775860e+002
1391625000 1.134676e-001 1.736194e+002 9.454135e-001 8.588914e+001 9.450158e-001 8.590251e+001 1.163067e-001 1.780356e+002
1414068750 1.151196e-001 1.693345e+002 9.443435e-001 8.153053e+001 9.440506e-001 8.153101e+001 1.177591e-001 1.736234e+002
1436512500 1.152972e-001 1.650048e+002 9.441009e-001 7.716401e+001 9.432679e-001 7.717598e+001 1.180316e-001 1.693431e+002
1458956250 1.150174e-001 1.607883e+002 9.433500e-001 7.280596e+001 9.429538e-001 7.282098e+001 1.179068e-001 1.651522e+002
1481400000 1.145354e-001 1.564555e+002 9.428108e-001 6.844410e+001 9.421529e-001 6.844771e+001 1.174823e-001 1.608508e+002
1503843750 1.134751e-001 1.521627e+002 9.420855e-001 6.407646e+001 9.415588e-001 6.408075e+001 1.167383e-001 1.564966e+002
1526287500 1.119315e-001 1.477494e+002 9.418271e-001 5.971400e+001 9.408338e-001 5.971808e+001 1.151779e-001 1.521108e+002
1548731250 1.097851e-001 1.432654e+002 9.412150e-001 5.535291e+001 9.408090e-001 5.535084e+001 1.124840e-001 1.476915e+002
1571175000 1.073197e-001 1.388464e+002 9.408168e-001 5.098296e+001 9.403526e-001 5.099025e+001 1.095852e-001 1.432495e+002
1593618750 1.038472e-001 1.345498e+002 9.407724e-001 4.660820e+001 9.399527e-001 4.660865e+001 1.060126e-001 1.389890e+002
1616062500 9.957667e-002 1.304213e+002 9.407561e-001 4.222422e+001 9.405884e-001 4.223856e+001 1.018513e-001 1.348893e+002
1638506250 9.469508e-002 1.261481e+002 9.406697e-001 3.784161e+001 9.401958e-001 3.784992e+001 9.722644e-002 1.307341e+002
1660950000 8.943927e-002 1.218750e+002 9.403473e-001 3.346587e+001 9.399294e-001 3.346838e+001 9.212863e-002 1.265282e+002
1683393750 8.347761e-002 1.176050e+002 9.402348e-001 2.907838e+001 9.396725e-001 2.908152e+001 8.643094e-002 1.224849e+002
1705837500 7.755523e-002 1.130506e+002 9.400402e-001 2.468052e+001 9.397672e-001 2.468285e+001 8.030686e-002 1.182813e+002
1728281250 7.133361e-002 1.082085e+002 9.402695e-001 2.028992e+001 9.396222e-001 2.029703e+001 7.378134e-002 1.138549e+002
1750725000 6.461149e-002 1.035548e+002 9.399044e-001 1.588486e+001 9.395289e-001 1.588417e+001 6.647110e-002 1.093366e+002
1773168750 5.724309e-002 9.936525e+001 9.396486e-001 1.146275e+001 9.393089e-001 1.147647e+001 5.843542e-002 1.053615e+002
1795612500 4.940155e-002 9.530955e+001 9.397489e-001 7.057538e+000 9.391337e-001 7.062263e+000 5.020976e-002 1.017939e+002
1818056250 4.117193e-002 9.130918e+001 9.394902e-001 2.637324e+000 9.388518e-001 2.647747e+000 4.203796e-002 9.866454e+001
1840500000 3.230212e-002 8.760894e+001 9.393191e-001 -1.785770e+000 9.387593e-001 -1.769915e+000 3.358075e-002 9.535171e+001
1862943750 2.325299e-002 8.341061e+001 9.388573e-001 -6.204662e+000 9.385448e-001 -6.200788e+000 2.485613e-002 9.306696e+001
1885387500 1.398087e-002 7.939565e+001 9.383504e-001 -1.063001e+001 9.380826e-001 -1.061882e+001 1.583307e-002 9.265800e+001
1907831250 4.810659e-003 7.384883e+001 9.379669e-001 -1.506310e+001 9.374521e-001 -1.504027e+001 6.858199e-003 1.009072e+002
1930275000 4.158040e-003 -1.080474e+002 9.373593e-001 -1.949959e+001 9.365539e-001 -1.947544e+001 4.486666e-003 -1.480558e+002
1952718750 1.320793e-002 -1.146094e+002 9.365510e-001 -2.392950e+001 9.361057e-001 -2.391602e+001 1.356875e-002 -1.244560e+002
1975162500 2.223025e-002 -1.198813e+002 9.357243e-001 -2.835616e+001 9.355087e-001 -2.835512e+001 2.308883e-002 -1.237536e+002
1997606250 3.164675e-002 -1.249677e+002 9.351264e-001 -3.278699e+001 9.345897e-001 -3.277237e+001 3.276316e-002 -1.263317e+002
2020050000 4.117646e-002 -1.293685e+002 9.342200e-001 -3.721146e+001 9.336514e-001 -3.720798e+001 4.209474e-002 -1.297314e+002
2042493750 5.089033e-002 -1.337192e+002 9.331017e-001 -4.163904e+001 9.328135e-001 -4.163676e+001 5.143220e-002 -1.331991e+002
2064937500 6.022053e-002 -1.379429e+002 9.318394e-001 -4.606081e+001 9.316731e-001 -4.605696e+001 6.085229e-002 -1.368611e+002
2087381250 6.929161e-002 -1.421671e+002 9.308109e-001 -5.048854e+001 9.302225e-001 -5.047902e+001 6.999208e-002 -1.407518e+002
2109825000 7.785372e-002 -1.465129e+002 9.292039e-001 -5.490908e+001 9.290016e-001 -5.489076e+001 7.882635e-002 -1.448545e+002
2132268750 8.594687e-002 -1.508047e+002 9.278184e-001 -5.930882e+001 9.279708e-001 -5.930329e+001 8.766930e-002 -1.488299e+002
2154712500 9.355058e-002 -1.551882e+002 9.268127e-001 -6.371731e+001 9.265543e-001 -6.370922e+001 9.613610e-002 -1.529656e+002
2177156250 1.009148e-001 -1.597658e+002 9.251438e-001 -6.812852e+001 9.250317e-001 -6.810616e+001 1.039329e-001 -1.572622e+002
2199600000 1.080334e-001 -1.641923e+002 9.238918e-001 -7.250901e+001 9.235872e-001 -7.250096e+001 1.112928e-001 -1.615680e+002
2222043750 1.154541e-001 -1.685524e+002 9.225756e-001 -7.689497e+001 9.220610e-001 -7.688348e+001 1.183095e-001 -1.656973e+002
2244487500 1.219642e-001 -1.727682e+002 9.210926e-001 -8.127573e+001 9.209275e-001 -8.126961e+001 1.248382e-001 -1.698640e+002
2266931250 1.281343e-001 -1.772390e+002 9.198251e-001 -8.564841e+001 9.197264e-001 -8.562608e+001 1.308498e-001 -1.739697e+002
2289375000 1.334787e-001 1.785333e+002 9.183781e-001 -9.000544e+001 9.179900e-001 -9.000181e+001 1.363813e-001 -1.781650e+002
2311818750 1.377718e-001 1.742678e+002 9.170569e-001 -9.436571e+001 9.168947e-001 -9.436663e+001 1.412275e-001 1.777475e+002
2334262500 1.412408e-001 1.699641e+002 9.159459e-001 -9.872937e+001 9.157071e-001 -9.871986e+001 1.454801e-001 1.736484e+002
2356706250 1.446925e-001 1.656656e+002 9.149216e-001 -1.030806e+002 9.143351e-001 -1.030714e+002 1.491347e-001 1.694942e+002
2379150000 1.475223e-001 1.612155e+002 9.137903e-001 -1.074189e+002 9.133602e-001 -1.074144e+002 1.522591e-001 1.653132e+002
2401593750 1.498512e-001 1.569469e+002 9.130731e-001 -1.117647e+002 9.125831e-001 -1.117515e+002 1.543122e-001 1.610931e+002
2424037500 1.518486e-001 1.527298e+002 9.120240e-001 -1.161067e+002 9.115931e-001 -1.161110e+002 1.559525e-001 1.569365e+002
2446481250 1.528903e-001 1.484078e+002 9.111157e-001 -1.204484e+002 9.109173e-001 -1.204346e+002 1.567239e-001 1.527989e+002
2468925000 1.531624e-001 1.442020e+002 9.103489e-001 -1.247780e+002 9.098226e-001 -1.247780e+002 1.572239e-001 1.487773e+002
2491368750 1.526424e-001 1.400084e+002 9.097801e-001 -1.291220e+002 9.094574e-001 -1.291121e+002 1.569603e-001 1.447672e+002
2513812500 1.509215e-001 1.357108e+002 9.094393e-001 -1.334758e+002 9.088794e-001 -1.334510e+002 1.560495e-001 1.407505e+002
2536256250 1.488281e-001 1.314238e+002 9.089573e-001 -1.378144e+002 9.088296e-001 -1.377941e+002 1.541256e-001 1.367180e+002
2558700000 1.457531e-001 1.271779e+002 9.088802e-001 -1.421490e+002 9.084036e-001 -1.421379e+002 1.511668e-001 1.327353e+002
2581143750 1.425095e-001 1.229289e+002 9.087744e-001 -1.464848e+002 9.085480e-001 -1.464798e+002 1.478764e-001 1.287253e+002
2603587500 1.387838e-001 1.186027e+002 9.088081e-001 -1.508356e+002 9.085585e-001 -1.508286e+002 1.437885e-001 1.246762e+002
2626031250 1.344268e-001 1.143316e+002 9.086874e-001 -1.551937e+002 9.086446e-001 -1.551810e+002 1.389940e-001 1.206915e+002
2648475000 1.291553e-001 1.102318e+002 9.089177e-001 -1.595581e+002 9.083225e-001 -1.595434e+002 1.336823e-001 1.168810e+002
2670918750 1.231679e-001 1.061105e+002 9.088484e-001 -1.639316e+002 9.089132e-001 -1.639158e+002 1.276802e-001 1.131497e+002
2693362500 1.162057e-001 1.018317e+002 9.091598e-001 -1.683061e+002 9.086516e-001 -1.682950e+002 1.211832e-001 1.094557e+002
2715806250 1.085032e-001 9.770702e+001 9.093925e-001 -1.726916e+002 9.091684e-001 -1.726639e+002 1.139896e-001 1.059201e+002
2738250000 1.006859e-001 9.367168e+001 9.096512e-001 -1.770731e+002 9.092071e-001 -1.770666e+002 1.060741e-001 1.024117e+002
2760693750 9.219369e-002 8.945216e+001 9.099130e-001 1.785320e+002 9.097301e-001 1.785381e+002 9.749877e-002 9.888418e+001
2783137500 8.351724e-002 8.519442e+001 9.105250e-001 1.741203e+002 9.098291e-001 1.741293e+002 8.841288e-002 9.554110e+001
2805581250 7.410417e-002 8.129229e+001 9.102319e-001 1.697173e+002 9.101871e-001 1.697246e+002 7.891179e-002 9.243116e+001
2828025000 6.456731e-002 7.767863e+001 9.106090e-001 1.652988e+002 9.101848e-001 1.653033e+002 6.899349e-002 9.025772e+001
2850468750 5.435983e-002 7.389521e+001 9.108102e-001 1.608657e+002 9.104282e-001 1.608926e+002 5.914897e-002 8.842456e+001
2872912500 4.365992e-002 6.991009e+001 9.104566e-001 1.564305e+002 9.105394e-001 1.564477e+002 4.879146e-002 8.775038e+001
2895356250 3.243785e-002 6.726061e+001 9.101243e-001 1.519905e+002 9.103729e-001 1.520113e+002 3.855419e-002 8.924454e+001
2917800000 2.118856e-002 6.677110e+001 9.101544e-001 1.475440e+002 9.099329e-001 1.475609e+002 2.874872e-002 9.611395e+001
2940243750 1.023121e-002 7.387868e+001 9.100542e-001 1.430946e+002 9.095752e-001 1.431083e+002 2.061015e-002 1.121156e+002
2962687500 4.080295e-003 1.650263e+002 9.092845e-001 1.386439e+002 9.091642e-001 1.386586e+002 1.710820e-002 1.433708e+002
2985131250 1.407796e-002 -1.522277e+002 9.087086e-001 1.341833e+002 9.086513e-001 1.342059e+002 2.158042e-002 1.738300e+002
3007575000 2.553925e-002 -1.497498e+002 9.079695e-001 1.297407e+002 9.076930e-001 1.297572e+002 3.057218e-002 -1.719806e+002
3030018750 3.729742e-002 -1.514705e+002 9.071267e-001 1.252848e+002 9.069996e-001 1.253008e+002 4.117166e-002 -1.666395e+002
3052462500 4.898930e-002 -1.541421e+002 9.058871e-001 1.208410e+002 9.061103e-001 1.208554e+002 5.232189e-002 -1.656098e+002
3074906250 6.054136e-002 -1.575933e+002 9.050825e-001 1.163986e+002 9.042425e-001 1.164108e+002 6.346396e-002 -1.665302e+002
3097350000 7.189246e-002 -1.612357e+002 9.036211e-001 1.119442e+002 9.032338e-001 1.119744e+002 7.469772e-002 -1.684074e+002
3119793750 8.308009e-002 -1.649802e+002 9.022130e-001 1.075119e+002 9.021747e-001 1.075234e+002 8.586956e-002 -1.707654e+002
3142237500 9.374837e-002 -1.690309e+002 9.008127e-001 1.030739e+002 9.004562e-001 1.030947e+002 9.712895e-002 -1.735881e+002
3164681250 1.041770e-001 -1.734146e+002 8.992968e-001 9.865414e+001 8.988241e-001 9.867114e+001 1.079983e-001 -1.768008e+002
3187125000 1.139550e-001 -1.777155e+002 8.976434e-001 9.423556e+001 8.974937e-001 9.425629e+001 1.183956e-001 1.798080e+002
3209568750 1.236241e-001 1.780778e+002 8.957804e-001 8.983379e+001 8.956650e-001 8.984692e+001 1.283411e-001 1.763692e+002
3232012500 1.328931e-001 1.738816e+002 8.938715e-001 8.543470e+001 8.940654e-001 8.545177e+001 1.376579e-001 1.727264e+002
3254456250 1.415863e-001 1.696916e+002 8.925298e-001 8.103841e+001 8.921260e-001 8.105783e+001 1.461683e-001 1.690166e+002
3276900000 1.498070e-001 1.656721e+002 8.903802e-001 7.665944e+001 8.905809e-001 7.668595e+001 1.541545e-001 1.653109e+002
3299343750 1.574435e-001 1.614839e+002 8.890037e-001 7.229460e+001 8.885384e-001 7.231486e+001 1.621257e-001 1.615242e+002
3321787500 1.643150e-001 1.572919e+002 8.869613e-001 6.793137e+001 8.868441e-001 6.794431e+001 1.693314e-001 1.576925e+002
3344231250 1.700991e-001 1.529568e+002 8.851145e-001 6.357342e+001 8.852026e-001 6.359440e+001 1.758326e-001 1.538321e+002
3366675000 1.749557e-001 1.487274e+002 8.838680e-001 5.923993e+001 8.834456e-001 5.925673e+001 1.813437e-001 1.499832e+002
3389118750 1.795368e-001 1.445371e+002 8.824473e-001 5.489420e+001 8.822305e-001 5.491183e+001 1.863645e-001 1.461601e+002
3411562500 1.838596e-001 1.402786e+002 8.809031e-001 5.056298e+001 8.808678e-001 5.058082e+001 1.907556e-001 1.423209e+002
3434006250 1.869602e-001 1.360933e+002 8.797752e-001 4.624310e+001 8.799046e-001 4.625336e+001 1.940449e-001 1.384578e+002
3456450000 1.892231e-001 1.320454e+002 8.789459e-001 4.191537e+001 8.786166e-001 4.194287e+001 1.960549e-001 1.346469e+002
3478893750 1.911334e-001 1.279443e+002 8.775651e-001 3.760312e+001 8.778049e-001 3.762588e+001 1.977721e-001 1.308166e+002
3501337500 1.922182e-001 1.237322e+002 8.766184e-001 3.330936e+001 8.767306e-001 3.332144e+001 1.991272e-001 1.269229e+002
3523781250 1.923284e-001 1.195709e+002 8.755859e-001 2.897852e+001 8.757875e-001 2.900315e+001 1.996482e-001 1.230234e+002
3546225000 1.913247e-001 1.154608e+002 8.753736e-001 2.467423e+001 8.751082e-001 2.469275e+001 1.989878e-001 1.191805e+002
