!Agilent Technologies,E8364A,US41440284,A.06.04.32
!Agilent E8364A: A.06.04.32
!Date: Friday, December 06, 2019 10:14:08
!Correction: S11(Full 2 Port(1,2)) S21(Full 2 Port(1,2)) S12(Full 2 Port(1,2)) S22(Full 2 Port(1,2)) 
!S2P File: Measurements: S11, S21, S12, S22:
# Hz S  MA   R 50
45000000 1.659623e-002 -1.013369e+002 9.968468e-001 -1.111801e+001 9.957765e-001 -1.110545e+001 1.753208e-002 -1.037072e+002
67443750 2.443506e-002 -1.059508e+002 9.949923e-001 -1.656759e+001 9.943523e-001 -1.657170e+001 2.471177e-002 -1.070714e+002
89887500 3.186350e-002 -1.112896e+002 9.938355e-001 -2.203459e+001 9.927732e-001 -2.201997e+001 3.275859e-002 -1.112217e+002
112331250 3.924301e-002 -1.166898e+002 9.918520e-001 -2.746998e+001 9.909700e-001 -2.746697e+001 4.065712e-002 -1.171314e+002
134775000 4.640196e-002 -1.231570e+002 9.904367e-001 -3.289429e+001 9.894627e-001 -3.288189e+001 4.744924e-002 -1.233588e+002
157218750 5.319034e-002 -1.294220e+002 9.889268e-001 -3.829238e+001 9.882823e-001 -3.829582e+001 5.352677e-002 -1.287138e+002
179662500 5.929335e-002 -1.352494e+002 9.873150e-001 -4.369371e+001 9.866654e-001 -4.369660e+001 5.960568e-002 -1.339918e+002
202106250 6.538448e-002 -1.404943e+002 9.856890e-001 -4.909716e+001 9.847597e-001 -4.909684e+001 6.492591e-002 -1.394717e+002
224550000 7.080027e-002 -1.463931e+002 9.844404e-001 -5.445937e+001 9.832854e-001 -5.445423e+001 7.013424e-002 -1.446695e+002
246993750 7.516801e-002 -1.516519e+002 9.827240e-001 -5.983252e+001 9.814460e-001 -5.982418e+001 7.466769e-002 -1.498208e+002
269437500 7.921653e-002 -1.568914e+002 9.812648e-001 -6.517149e+001 9.812440e-001 -6.515860e+001 7.867959e-002 -1.550772e+002
291881250 8.261705e-002 -1.625242e+002 9.802882e-001 -7.055758e+001 9.790894e-001 -7.057712e+001 8.166844e-002 -1.605934e+002
314325000 8.545368e-002 -1.681789e+002 9.787062e-001 -7.592329e+001 9.775919e-001 -7.591540e+001 8.412668e-002 -1.659350e+002
336768750 8.764244e-002 -1.739230e+002 9.773610e-001 -8.127290e+001 9.765190e-001 -8.126140e+001 8.612943e-002 -1.713323e+002
359212500 8.904108e-002 -1.796536e+002 9.760627e-001 -8.661362e+001 9.754067e-001 -8.660450e+001 8.709435e-002 -1.768446e+002
381656250 8.935187e-002 1.746948e+002 9.751297e-001 -9.195657e+001 9.743811e-001 -9.194704e+001 8.746116e-002 1.777975e+002
404100000 8.879917e-002 1.691922e+002 9.743168e-001 -9.729054e+001 9.735197e-001 -9.728847e+001 8.716769e-002 1.727070e+002
426543750 8.762358e-002 1.636002e+002 9.733426e-001 -1.026164e+002 9.727850e-001 -1.026109e+002 8.636019e-002 1.675215e+002
448987500 8.568677e-002 1.580729e+002 9.727072e-001 -1.079538e+002 9.718074e-001 -1.079430e+002 8.470324e-002 1.622495e+002
471431250 8.302097e-002 1.524229e+002 9.717926e-001 -1.132785e+002 9.708671e-001 -1.132954e+002 8.235886e-002 1.570283e+002
493875000 8.033877e-002 1.466490e+002 9.710650e-001 -1.186224e+002 9.703351e-001 -1.186247e+002 7.912162e-002 1.515743e+002
516318750 7.706676e-002 1.408232e+002 9.706923e-001 -1.239697e+002 9.698039e-001 -1.239426e+002 7.500772e-002 1.459335e+002
538762500 7.312136e-002 1.349913e+002 9.699873e-001 -1.293065e+002 9.688949e-001 -1.293160e+002 7.032305e-002 1.402576e+002
561206250 6.801399e-002 1.294243e+002 9.695054e-001 -1.346497e+002 9.686174e-001 -1.346621e+002 6.523158e-002 1.347186e+002
583650000 6.216354e-002 1.236777e+002 9.689804e-001 -1.400041e+002 9.683628e-001 -1.400094e+002 5.993339e-002 1.293368e+002
606093750 5.578090e-002 1.179379e+002 9.686393e-001 -1.453658e+002 9.678012e-001 -1.453478e+002 5.388012e-002 1.239850e+002
628537500 4.886140e-002 1.119775e+002 9.680459e-001 -1.507123e+002 9.668223e-001 -1.507035e+002 4.769423e-002 1.183695e+002
650981250 4.153251e-002 1.056337e+002 9.670815e-001 -1.560716e+002 9.664969e-001 -1.560601e+002 4.112254e-002 1.131858e+002
673425000 3.437290e-002 9.827734e+001 9.665259e-001 -1.614279e+002 9.658159e-001 -1.614250e+002 3.376408e-002 1.077526e+002
695868750 2.716245e-002 8.983784e+001 9.657704e-001 -1.667911e+002 9.650593e-001 -1.667839e+002 2.607022e-002 1.017158e+002
718312500 1.996640e-002 8.080541e+001 9.651774e-001 -1.721572e+002 9.642591e-001 -1.721410e+002 1.786334e-002 9.539384e+001
740756250 1.243040e-002 6.809637e+001 9.641832e-001 -1.775280e+002 9.635913e-001 -1.775065e+002 9.822062e-003 8.511271e+001
763200000 5.319519e-003 3.338948e+001 9.634244e-001 1.771185e+002 9.628592e-001 1.771355e+002 2.000337e-003 3.740747e+001
785643750 6.138328e-003 -6.716776e+001 9.626938e-001 1.717615e+002 9.615948e-001 1.717673e+002 7.141918e-003 -8.281403e+001
808087500 1.370891e-002 -9.517858e+001 9.617378e-001 1.664019e+002 9.606364e-001 1.664096e+002 1.483603e-002 -9.609483e+001
830531250 2.186180e-002 -1.058672e+002 9.604797e-001 1.610425e+002 9.600935e-001 1.610488e+002 2.229034e-002 -1.032234e+002
852975000 2.989476e-002 -1.123933e+002 9.591877e-001 1.556841e+002 9.587333e-001 1.556891e+002 3.012297e-002 -1.088490e+002
875418750 3.753967e-002 -1.188911e+002 9.581436e-001 1.503232e+002 9.577153e-001 1.503376e+002 3.790482e-002 -1.148788e+002
897862500 4.420428e-002 -1.249311e+002 9.570456e-001 1.449714e+002 9.563395e-001 1.449778e+002 4.522461e-002 -1.208009e+002
920306250 5.067066e-002 -1.312948e+002 9.557229e-001 1.396390e+002 9.547020e-001 1.396323e+002 5.227397e-002 -1.258941e+002
942750000 5.710821e-002 -1.371876e+002 9.544411e-001 1.342810e+002 9.540739e-001 1.342941e+002 5.905793e-002 -1.311286e+002
965193750 6.329954e-002 -1.433665e+002 9.532201e-001 1.289493e+002 9.525610e-001 1.289579e+002 6.510936e-002 -1.362610e+002
987637500 6.900036e-002 -1.494294e+002 9.524022e-001 1.236179e+002 9.515174e-001 1.236309e+002 7.037131e-002 -1.416485e+002
1010081250 7.429453e-002 -1.554020e+002 9.509930e-001 1.182933e+002 9.500760e-001 1.183160e+002 7.483428e-002 -1.468443e+002
1032525000 7.891762e-002 -1.610065e+002 9.499816e-001 1.129716e+002 9.487740e-001 1.129870e+002 7.898749e-002 -1.519176e+002
1054968750 8.269452e-002 -1.666520e+002 9.487205e-001 1.076552e+002 9.479179e-001 1.076688e+002 8.261186e-002 -1.570350e+002
1077412500 8.571483e-002 -1.721546e+002 9.475509e-001 1.023451e+002 9.464899e-001 1.023403e+002 8.555651e-002 -1.622049e+002
1099856250 8.790658e-002 -1.778365e+002 9.466276e-001 9.702908e+001 9.457678e-001 9.703801e+001 8.804154e-002 -1.672225e+002
1122300000 8.973656e-002 1.764072e+002 9.451216e-001 9.173035e+001 9.444874e-001 9.172354e+001 9.013647e-002 -1.723960e+002
1144743750 9.068830e-002 1.705343e+002 9.445210e-001 8.641418e+001 9.435940e-001 8.641937e+001 9.098860e-002 -1.776624e+002
1167187500 9.094767e-002 1.647263e+002 9.436621e-001 8.111815e+001 9.430667e-001 8.112122e+001 9.073836e-002 1.771195e+002
1189631250 9.052482e-002 1.589882e+002 9.429290e-001 7.580954e+001 9.424049e-001 7.581486e+001 8.972626e-002 1.722760e+002
1212075000 8.933739e-002 1.532923e+002 9.425049e-001 7.050659e+001 9.417524e-001 7.051034e+001 8.832972e-002 1.672243e+002
1234518750 8.719091e-002 1.474930e+002 9.420460e-001 6.519774e+001 9.406124e-001 6.520403e+001 8.611184e-002 1.621607e+002
1256962500 8.423796e-002 1.418160e+002 9.413431e-001 5.989462e+001 9.404951e-001 5.990618e+001 8.315089e-002 1.572640e+002
1279406250 8.058282e-002 1.359898e+002 9.406836e-001 5.458756e+001 9.399106e-001 5.458405e+001 7.953018e-002 1.526179e+002
1301850000 7.634277e-002 1.298898e+002 9.402179e-001 4.925417e+001 9.395195e-001 4.926516e+001 7.565708e-002 1.477102e+002
1324293750 7.186789e-002 1.235829e+002 9.397197e-001 4.393339e+001 9.390445e-001 4.394820e+001 7.046414e-002 1.428457e+002
1346737500 6.661377e-002 1.172769e+002 9.393741e-001 3.862292e+001 9.386603e-001 3.862165e+001 6.452152e-002 1.381436e+002
1369181250 6.096743e-002 1.109817e+002 9.388980e-001 3.328603e+001 9.378505e-001 3.329187e+001 5.803287e-002 1.339411e+002
1391625000 5.422914e-002 1.045209e+002 9.387332e-001 2.794277e+001 9.377589e-001 2.795860e+001 5.122410e-002 1.295197e+002
1414068750 4.731608e-002 9.756639e+001 9.381269e-001 2.261394e+001 9.374774e-001 2.261832e+001 4.383014e-002 1.253937e+002
1436512500 3.912829e-002 9.037569e+001 9.378917e-001 1.727107e+001 9.368811e-001 1.727204e+001 3.616753e-002 1.228650e+002
1458956250 3.096509e-002 8.171337e+001 9.372298e-001 1.193347e+001 9.363896e-001 1.193104e+001 2.852378e-002 1.216504e+002
1481400000 2.299386e-002 6.930618e+001 9.368441e-001 6.589083e+000 9.359723e-001 6.583658e+000 2.061142e-002 1.227755e+002
1503843750 1.562912e-002 5.045216e+001 9.361863e-001 1.230940e+000 9.353502e-001 1.221531e+000 1.274105e-002 1.307283e+002
1526287500 1.024645e-002 1.399857e+001 9.354990e-001 -4.123971e+000 9.345924e-001 -4.125741e+000 7.337940e-003 1.701209e+002
1548731250 1.066820e-002 -4.194696e+001 9.345053e-001 -9.470700e+000 9.338585e-001 -9.482636e+000 1.104583e-002 -1.365794e+002
1571175000 1.673142e-002 -7.563149e+001 9.338783e-001 -1.484247e+001 9.328750e-001 -1.483303e+001 1.910180e-002 -1.219463e+002
1593618750 2.472587e-002 -9.420928e+001 9.327837e-001 -2.019397e+001 9.317085e-001 -2.019088e+001 2.784990e-002 -1.198451e+002
1616062500 3.332965e-002 -1.064962e+002 9.315052e-001 -2.554906e+001 9.308473e-001 -2.553390e+001 3.656528e-002 -1.215722e+002
1638506250 4.237239e-002 -1.154460e+002 9.306129e-001 -3.090026e+001 9.297958e-001 -3.089478e+001 4.516326e-002 -1.242874e+002
1660950000 5.120159e-002 -1.227546e+002 9.292701e-001 -3.623881e+001 9.281931e-001 -3.623911e+001 5.367966e-002 -1.278032e+002
1683393750 5.948341e-002 -1.297110e+002 9.278558e-001 -4.158312e+001 9.270751e-001 -4.158303e+001 6.179976e-002 -1.318997e+002
1705837500 6.733660e-002 -1.359953e+002 9.264389e-001 -4.692971e+001 9.257253e-001 -4.692177e+001 6.979633e-002 -1.360748e+002
1728281250 7.493644e-002 -1.420746e+002 9.252213e-001 -5.225258e+001 9.241987e-001 -5.224726e+001 7.771996e-002 -1.402667e+002
1750725000 8.200994e-002 -1.482744e+002 9.237300e-001 -5.757895e+001 9.229771e-001 -5.757498e+001 8.543395e-002 -1.447302e+002
1773168750 8.832242e-002 -1.545505e+002 9.222025e-001 -6.289611e+001 9.216962e-001 -6.289691e+001 9.201585e-002 -1.495647e+002
1795612500 9.438881e-002 -1.606256e+002 9.209695e-001 -6.821318e+001 9.198694e-001 -6.820889e+001 9.765793e-002 -1.542795e+002
1818056250 9.998175e-002 -1.665509e+002 9.195179e-001 -7.350555e+001 9.190869e-001 -7.349854e+001 1.024045e-001 -1.589330e+002
1840500000 1.048289e-001 -1.724646e+002 9.182919e-001 -7.880414e+001 9.175349e-001 -7.878954e+001 1.069469e-001 -1.634833e+002
1862943750 1.091125e-001 -1.781604e+002 9.170947e-001 -8.409474e+001 9.165568e-001 -8.409644e+001 1.109059e-001 -1.681022e+002
1885387500 1.124739e-001 1.760787e+002 9.159348e-001 -8.938617e+001 9.154463e-001 -8.938256e+001 1.143141e-001 -1.728393e+002
1907831250 1.150114e-001 1.703286e+002 9.149597e-001 -9.467815e+001 9.139211e-001 -9.465958e+001 1.171272e-001 -1.775174e+002
1930275000 1.166693e-001 1.646824e+002 9.136597e-001 -9.996587e+001 9.128627e-001 -9.995487e+001 1.187276e-001 1.777525e+002
1952718750 1.176414e-001 1.589814e+002 9.127541e-001 -1.052500e+002 9.119574e-001 -1.052407e+002 1.196124e-001 1.729930e+002
1975162500 1.178833e-001 1.533164e+002 9.119645e-001 -1.105270e+002 9.114042e-001 -1.105283e+002 1.195185e-001 1.683099e+002
1997606250 1.172014e-001 1.475967e+002 9.116412e-001 -1.158023e+002 9.107462e-001 -1.157948e+002 1.183033e-001 1.636228e+002
2020050000 1.159515e-001 1.419232e+002 9.109399e-001 -1.210847e+002 9.102080e-001 -1.210778e+002 1.163539e-001 1.590701e+002
2042493750 1.137408e-001 1.361661e+002 9.101614e-001 -1.263682e+002 9.102488e-001 -1.263645e+002 1.138824e-001 1.544814e+002
2064937500 1.106133e-001 1.303890e+002 9.098915e-001 -1.316523e+002 9.095548e-001 -1.316563e+002 1.107609e-001 1.498150e+002
2087381250 1.065560e-001 1.245675e+002 9.096862e-001 -1.369529e+002 9.091465e-001 -1.369424e+002 1.069787e-001 1.453237e+002
2109825000 1.015838e-001 1.186472e+002 9.093170e-001 -1.422545e+002 9.089820e-001 -1.422400e+002 1.021632e-001 1.410385e+002
2132268750 9.615103e-002 1.127404e+002 9.091740e-001 -1.475510e+002 9.085478e-001 -1.475419e+002 9.676655e-002 1.366702e+002
2154712500 8.992171e-002 1.068561e+002 9.089501e-001 -1.528562e+002 9.082426e-001 -1.528527e+002 9.027292e-002 1.326205e+002
2177156250 8.286200e-002 1.009418e+002 9.085554e-001 -1.581909e+002 9.084855e-001 -1.581743e+002 8.280268e-002 1.288817e+002
2199600000 7.539310e-002 9.490376e+001 9.087810e-001 -1.635061e+002 9.082416e-001 -1.634960e+002 7.466476e-002 1.253789e+002
2222043750 6.726059e-002 8.841965e+001 9.086165e-001 -1.688299e+002 9.080533e-001 -1.688243e+002 6.648011e-002 1.221371e+002
2244487500 5.856530e-002 8.189261e+001 9.084914e-001 -1.741710e+002 9.078954e-001 -1.741606e+002 5.779399e-002 1.195347e+002
2266931250 4.878595e-002 7.442845e+001 9.082063e-001 -1.795053e+002 9.077081e-001 -1.795015e+002 4.894408e-002 1.176793e+002
2289375000 3.907517e-002 6.596120e+001 9.078242e-001 1.751501e+002 9.074854e-001 1.751481e+002 3.987278e-002 1.180691e+002
2311818750 2.914103e-002 5.601848e+001 9.071960e-001 1.697919e+002 9.071617e-001 1.697953e+002 3.118381e-002 1.217117e+002
2334262500 1.928036e-002 4.186259e+001 9.070614e-001 1.644319e+002 9.063170e-001 1.644323e+002 2.342722e-002 1.325550e+002
2356706250 1.077828e-002 1.133488e+001 9.067018e-001 1.590677e+002 9.061164e-001 1.590720e+002 1.860319e-002 1.558981e+002
2379150000 9.181404e-003 -6.074955e+001 9.059855e-001 1.537077e+002 9.052429e-001 1.537015e+002 1.989530e-002 -1.749087e+002
2401593750 1.710528e-002 -1.014585e+002 9.052026e-001 1.483347e+002 9.043527e-001 1.483460e+002 2.678009e-002 -1.568362e+002
2424037500 2.746767e-002 -1.177382e+002 9.041720e-001 1.429766e+002 9.032400e-001 1.429640e+002 3.577396e-002 -1.490846e+002
2446481250 3.855820e-002 -1.282685e+002 9.029291e-001 1.376057e+002 9.023794e-001 1.376045e+002 4.545880e-002 -1.471049e+002
2468925000 4.932098e-002 -1.362435e+002 9.018198e-001 1.322433e+002 9.009001e-001 1.322417e+002 5.527705e-002 -1.473939e+002
2491368750 5.983981e-002 -1.432023e+002 9.002026e-001 1.269007e+002 8.994120e-001 1.268976e+002 6.523885e-002 -1.491721e+002
2513812500 6.996958e-002 -1.500681e+002 8.988320e-001 1.215418e+002 8.979970e-001 1.215536e+002 7.525579e-002 -1.519478e+002
2536256250 7.953463e-002 -1.563965e+002 8.971984e-001 1.161944e+002 8.966183e-001 1.162129e+002 8.498966e-002 -1.552701e+002
2558700000 8.841269e-002 -1.628760e+002 8.958643e-001 1.108717e+002 8.950505e-001 1.108900e+002 9.422805e-002 -1.590874e+002
2581143750 9.708407e-002 -1.689478e+002 8.942795e-001 1.055596e+002 8.934435e-001 1.055591e+002 1.030162e-001 -1.629024e+002
2603587500 1.055827e-001 -1.749114e+002 8.925944e-001 1.002499e+002 8.919501e-001 1.002550e+002 1.113436e-001 -1.669164e+002
2626031250 1.135405e-001 1.793479e+002 8.909972e-001 9.494090e+001 8.905652e-001 9.495174e+001 1.188235e-001 -1.711202e+002
2648475000 1.205338e-001 1.737147e+002 8.896486e-001 8.962863e+001 8.886654e-001 8.964759e+001 1.253236e-001 -1.753116e+002
2670918750 1.267111e-001 1.682280e+002 8.881401e-001 8.434125e+001 8.876327e-001 8.435046e+001 1.310618e-001 -1.796082e+002
2693362500 1.320434e-001 1.625829e+002 8.868226e-001 7.905618e+001 8.861488e-001 7.906777e+001 1.362248e-001 1.760648e+002
2715806250 1.359918e-001 1.569392e+002 8.853588e-001 7.377535e+001 8.846934e-001 7.378658e+001 1.405237e-001 1.717273e+002
2738250000 1.390105e-001 1.513721e+002 8.843679e-001 6.850814e+001 8.835263e-001 6.851491e+001 1.439174e-001 1.673115e+002
2760693750 1.416438e-001 1.456489e+002 8.831834e-001 6.324339e+001 8.821523e-001 6.324808e+001 1.465887e-001 1.628562e+002
2783137500 1.436596e-001 1.400032e+002 8.823525e-001 5.798440e+001 8.812295e-001 5.799542e+001 1.483471e-001 1.584073e+002
2805581250 1.444784e-001 1.343809e+002 8.810934e-001 5.273275e+001 8.806170e-001 5.274186e+001 1.491098e-001 1.539791e+002
2828025000 1.444741e-001 1.289924e+002 8.808741e-001 4.746911e+001 8.796889e-001 4.746656e+001 1.484447e-001 1.496531e+002
2850468750 1.436177e-001 1.235356e+002 8.799182e-001 4.221000e+001 8.789645e-001 4.222132e+001 1.473223e-001 1.453866e+002
2872912500 1.418782e-001 1.180372e+002 8.795264e-001 3.693903e+001 8.787484e-001 3.695130e+001 1.452954e-001 1.410552e+002
2895356250 1.385155e-001 1.124892e+002 8.791270e-001 3.167045e+001 8.785954e-001 3.167934e+001 1.421751e-001 1.368100e+002
2917800000 1.339388e-001 1.068716e+002 8.785910e-001 2.639584e+001 8.781869e-001 2.641258e+001 1.378871e-001 1.326781e+002
2940243750 1.288807e-001 1.011730e+002 8.788908e-001 2.111857e+001 8.781548e-001 2.113809e+001 1.329466e-001 1.285322e+002
2962687500 1.232441e-001 9.548717e+001 8.789054e-001 1.584133e+001 8.781486e-001 1.584974e+001 1.273214e-001 1.245087e+002
2985131250 1.166584e-001 8.978892e+001 8.789620e-001 1.053868e+001 8.784265e-001 1.055839e+001 1.205550e-001 1.206110e+002
3007575000 1.093562e-001 8.413446e+001 8.793047e-001 5.236803e+000 8.783769e-001 5.262537e+000 1.130962e-001 1.169653e+002
3030018750 1.010193e-001 7.847479e+001 8.793044e-001 -7.265382e-002 8.786626e-001 -6.120886e-002 1.048339e-001 1.135422e+002
3052462500 9.204391e-002 7.270151e+001 8.791971e-001 -5.403767e+000 8.787245e-001 -5.385134e+000 9.587871e-002 1.105961e+002
3074906250 8.211060e-002 6.679701e+001 8.797035e-001 -1.073581e+001 8.786975e-001 -1.071636e+001 8.657331e-002 1.081977e+002
3097350000 7.139107e-002 6.049896e+001 8.794648e-001 -1.607329e+001 8.789349e-001 -1.605117e+001 7.679802e-002 1.064411e+002
3119793750 6.046296e-002 5.376076e+001 8.795352e-001 -2.142072e+001 8.792031e-001 -2.140353e+001 6.674729e-002 1.055396e+002
3142237500 4.906658e-002 4.656087e+001 8.794499e-001 -2.678552e+001 8.789154e-001 -2.677474e+001 5.646734e-002 1.063206e+002
3164681250 3.700249e-002 3.873603e+001 8.791552e-001 -3.214328e+001 8.789222e-001 -3.212867e+001 4.685702e-002 1.102605e+002
3187125000 2.498632e-002 2.898423e+001 8.792255e-001 -3.752959e+001 8.785505e-001 -3.751372e+001 3.874119e-002 1.183955e+002
3209568750 1.302391e-002 1.001041e+001 8.787925e-001 -4.289846e+001 8.778552e-001 -4.289082e+001 3.325721e-002 1.322792e+002
3232012500 6.094505e-003 -7.198982e+001 8.779832e-001 -4.827643e+001 8.773931e-001 -4.826569e+001 3.263488e-002 1.503841e+002
3254456250 1.573129e-002 -1.315932e+002 8.771393e-001 -5.366916e+001 8.765845e-001 -5.365068e+001 3.692107e-002 1.659438e+002
3276900000 2.824302e-002 -1.458381e+002 8.761889e-001 -5.904531e+001 8.756671e-001 -5.902113e+001 4.445667e-002 1.759282e+002
3299343750 4.126715e-002 -1.549294e+002 8.753325e-001 -6.441827e+001 8.744281e-001 -6.440427e+001 5.431793e-002 -1.784693e+002
3321787500 5.400410e-002 -1.622917e+002 8.738656e-001 -6.979449e+001 8.731822e-001 -6.977756e+001 6.522003e-002 -1.764466e+002
3344231250 6.624491e-002 -1.694271e+002 8.723569e-001 -7.518592e+001 8.718559e-001 -7.516209e+001 7.645126e-002 -1.766617e+002
3366675000 7.777792e-002 -1.761161e+002 8.709974e-001 -8.053163e+001 8.700247e-001 -8.052817e+001 8.757099e-002 -1.782599e+002
3389118750 8.922754e-002 1.776684e+002 8.691137e-001 -8.589237e+001 8.686537e-001 -8.588331e+001 9.858875e-002 1.794369e+002
3411562500 1.007013e-001 1.717863e+002 8.674808e-001 -9.124704e+001 8.672264e-001 -9.122176e+001 1.095016e-001 1.766859e+002
3434006250 1.113266e-001 1.659343e+002 8.657047e-001 -9.657072e+001 8.652645e-001 -9.656669e+001 1.195430e-001 1.733990e+002
3456450000 1.209335e-001 1.603542e+002 8.642273e-001 -1.018932e+002 8.636137e-001 -1.018777e+002 1.285848e-001 1.698446e+002
3478893750 1.301564e-001 1.549621e+002 8.620287e-001 -1.072071e+002 8.616638e-001 -1.071908e+002 1.371744e-001 1.661670e+002
3501337500 1.386973e-001 1.494906e+002 8.601183e-001 -1.125023e+002 8.597343e-001 -1.124894e+002 1.454455e-001 1.623471e+002
3523781250 1.460436e-001 1.440680e+002 8.582236e-001 -1.177976e+002 8.579334e-001 -1.177893e+002 1.529446e-001 1.583196e+002
