!Agilent Technologies,E8364A,US41440284,A.06.04.32
!Agilent E8364A: A.06.04.32
!Date: Friday, December 06, 2019 10:00:41
!Correction: S11(Full 2 Port(1,2)) S21(Full 2 Port(1,2)) S12(Full 2 Port(1,2)) S22(Full 2 Port(1,2)) 
!S2P File: Measurements: S11, S21, S12, S22:
# Hz S  MA   R 50
45000000 9.981258e-001 -4.584492e+000 4.944974e-005 -1.465551e+002 1.189803e-004 -1.229254e+002 9.994958e-001 -4.450075e+000
67443750 9.977041e-001 -6.818974e+000 3.203337e-005 -4.294007e+001 4.345072e-005 4.153182e+001 9.998953e-001 -6.662348e+000
89887500 9.975133e-001 -9.061643e+000 1.408305e-005 1.522722e+002 6.821755e-005 1.262496e+002 1.000585e+000 -8.834955e+000
112331250 9.969313e-001 -1.131699e+001 1.072949e-005 -1.725079e+002 6.544378e-005 5.906068e+001 1.000264e+000 -1.102394e+001
134775000 9.962152e-001 -1.354833e+001 2.867438e-005 1.124273e+001 2.150212e-005 5.674886e+001 9.996877e-001 -1.320075e+001
157218750 9.956903e-001 -1.578819e+001 6.747164e-006 4.550607e+001 3.105458e-005 8.238612e+001 9.987845e-001 -1.539057e+001
179662500 9.951344e-001 -1.801661e+001 1.393094e-005 4.797998e+001 3.258762e-005 7.361120e+001 9.978417e-001 -1.755515e+001
202106250 9.948253e-001 -2.023786e+001 2.711925e-005 4.281099e+001 2.521402e-005 4.895369e+001 9.971598e-001 -1.973747e+001
224550000 9.945616e-001 -2.246657e+001 4.304111e-005 4.633950e+001 4.259191e-005 2.010698e+001 9.966823e-001 -2.190357e+001
246993750 9.944986e-001 -2.467680e+001 2.711819e-005 8.377910e+001 5.387016e-005 4.074085e+001 9.966017e-001 -2.407368e+001
269437500 9.946315e-001 -2.689169e+001 3.565265e-005 4.945186e+001 1.184590e-005 7.784769e+001 9.974878e-001 -2.620737e+001
291881250 9.938385e-001 -2.909156e+001 4.571713e-005 7.715933e+001 2.805006e-005 3.815965e+001 9.975665e-001 -2.841890e+001
314325000 9.932015e-001 -3.130497e+001 2.361576e-005 6.113187e+001 4.120188e-005 1.003941e+002 9.972504e-001 -3.056593e+001
336768750 9.925830e-001 -3.351966e+001 2.692332e-005 1.003874e+001 3.184449e-005 2.391495e+001 9.969400e-001 -3.272712e+001
359212500 9.918922e-001 -3.573074e+001 2.809126e-005 5.397749e+001 2.982959e-005 5.018127e+001 9.958532e-001 -3.488265e+001
381656250 9.915069e-001 -3.794563e+001 3.625433e-005 5.523195e+001 4.091171e-005 4.821225e+001 9.946644e-001 -3.703591e+001
404100000 9.912475e-001 -4.014509e+001 3.904462e-005 5.419471e+001 2.822577e-005 6.360597e+001 9.937211e-001 -3.918131e+001
426543750 9.913202e-001 -4.233109e+001 5.120901e-005 3.204069e+001 2.480627e-005 1.251823e+001 9.933097e-001 -4.133071e+001
448987500 9.911346e-001 -4.451338e+001 4.971290e-005 3.718631e+001 2.972872e-005 5.248457e+001 9.929010e-001 -4.346403e+001
471431250 9.909694e-001 -4.669174e+001 3.459824e-005 2.771248e+001 4.231959e-005 3.951285e+001 9.931046e-001 -4.560216e+001
493875000 9.903141e-001 -4.886595e+001 6.010615e-005 5.282479e+001 5.812562e-005 4.266159e+001 9.934788e-001 -4.774995e+001
516318750 9.895728e-001 -5.104120e+001 5.997644e-005 4.534964e+001 4.487728e-005 3.425273e+001 9.934494e-001 -4.986453e+001
538762500 9.888514e-001 -5.321420e+001 5.107698e-005 3.601976e+001 5.027982e-005 3.990112e+001 9.929602e-001 -5.199408e+001
561206250 9.879107e-001 -5.541369e+001 4.692910e-005 4.058998e+001 5.111165e-005 4.300459e+001 9.922417e-001 -5.408195e+001
583650000 9.879653e-001 -5.758720e+001 6.140673e-005 2.170103e+001 3.745562e-005 1.806521e+001 9.914662e-001 -5.620884e+001
606093750 9.876792e-001 -5.973690e+001 3.947344e-005 2.972264e+001 5.608197e-005 2.045061e+001 9.906443e-001 -5.831073e+001
628537500 9.875526e-001 -6.189688e+001 6.089865e-005 2.434188e+001 5.326374e-005 2.148912e+001 9.900637e-001 -6.040491e+001
650981250 9.876360e-001 -6.404282e+001 5.237135e-005 2.823644e+001 5.723545e-005 2.705757e+001 9.899356e-001 -6.252459e+001
673425000 9.870326e-001 -6.617628e+001 6.837908e-005 2.927464e+001 6.020366e-005 2.398845e+001 9.897045e-001 -6.463435e+001
695868750 9.864783e-001 -6.831310e+001 6.116373e-005 2.828700e+001 6.743262e-005 2.706136e+001 9.898434e-001 -6.676059e+001
718312500 9.858072e-001 -7.044473e+001 6.686430e-005 1.697733e+001 7.226278e-005 1.958413e+001 9.897901e-001 -6.885530e+001
740756250 9.851617e-001 -7.259758e+001 5.872489e-005 2.040341e+001 6.400035e-005 2.152881e+001 9.889940e-001 -7.093230e+001
763200000 9.843546e-001 -7.472591e+001 7.633588e-005 9.130607e+000 7.682389e-005 1.102463e+001 9.884070e-001 -7.299419e+001
785643750 9.839326e-001 -7.686597e+001 7.181313e-005 1.930285e+001 7.314614e-005 1.958097e+001 9.877672e-001 -7.507664e+001
808087500 9.835725e-001 -7.898180e+001 7.161173e-005 1.119400e+001 7.193649e-005 8.292754e+000 9.871491e-001 -7.713444e+001
830531250 9.837137e-001 -8.108414e+001 6.669714e-005 -1.110648e+001 8.552690e-005 7.430412e+000 9.863960e-001 -7.918814e+001
852975000 9.836075e-001 -8.319933e+001 8.177129e-005 9.907823e+000 6.665201e-005 9.249481e+000 9.859499e-001 -8.125619e+001
875418750 9.836968e-001 -8.528742e+001 8.588649e-005 3.923257e+000 8.514847e-005 3.672434e+000 9.858471e-001 -8.333513e+001
897862500 9.833228e-001 -8.737295e+001 7.276511e-005 -9.812948e+000 8.352118e-005 3.694263e+000 9.864877e-001 -8.539731e+001
920306250 9.825993e-001 -8.945432e+001 9.829853e-005 -5.406840e+000 7.779752e-005 3.910770e+000 9.858775e-001 -8.742856e+001
942750000 9.815164e-001 -9.155306e+001 8.449904e-005 -7.631678e-001 9.105398e-005 1.045834e+000 9.858272e-001 -8.948895e+001
965193750 9.813308e-001 -9.364078e+001 9.016723e-005 8.848814e-001 9.695929e-005 -2.376060e+000 9.854944e-001 -9.151846e+001
987637500 9.810759e-001 -9.572259e+001 9.786837e-005 -2.114737e+000 9.337968e-005 2.125942e+000 9.852391e-001 -9.355301e+001
1010081250 9.805573e-001 -9.779207e+001 9.409420e-005 -1.482524e+001 9.166895e-005 -4.490579e+000 9.840320e-001 -9.555807e+001
1032525000 9.808027e-001 -9.987011e+001 1.040566e-004 -1.500312e+001 1.039439e-004 -9.396720e+000 9.838333e-001 -9.757116e+001
1054968750 9.812661e-001 -1.019294e+002 1.014651e-004 -1.409975e+001 9.765454e-005 -1.343505e+001 9.836334e-001 -9.958066e+001
1077412500 9.811466e-001 -1.039607e+002 1.121933e-004 -1.780200e+001 9.979663e-005 -1.486778e+001 9.834484e-001 -1.016066e+002
1099856250 9.805298e-001 -1.060047e+002 1.001683e-004 -2.475484e+001 1.016516e-004 -2.161991e+001 9.830700e-001 -1.036233e+002
1122300000 9.797443e-001 -1.080441e+002 1.106908e-004 -1.917332e+001 1.186549e-004 -2.272042e+001 9.828970e-001 -1.056358e+002
1144743750 9.789163e-001 -1.100824e+002 1.227459e-004 -1.918416e+001 1.101031e-004 -1.902136e+001 9.826855e-001 -1.076375e+002
1167187500 9.783069e-001 -1.121204e+002 1.168798e-004 -2.071049e+001 1.256105e-004 -2.504211e+001 9.821799e-001 -1.096321e+002
1189631250 9.780906e-001 -1.141504e+002 1.295245e-004 -2.689005e+001 1.105685e-004 -2.153671e+001 9.817375e-001 -1.115969e+002
1212075000 9.779996e-001 -1.161856e+002 1.356532e-004 -2.466770e+001 1.286597e-004 -2.921145e+001 9.811413e-001 -1.135579e+002
1234518750 9.780421e-001 -1.181906e+002 1.242721e-004 -2.865612e+001 1.221407e-004 -3.378914e+001 9.805937e-001 -1.155214e+002
1256962500 9.782361e-001 -1.202123e+002 1.366764e-004 -3.557993e+001 1.212550e-004 -3.299187e+001 9.808344e-001 -1.174796e+002
1279406250 9.782367e-001 -1.221818e+002 1.388186e-004 -3.241044e+001 1.288396e-004 -3.444315e+001 9.810452e-001 -1.194474e+002
1301850000 9.773275e-001 -1.241862e+002 1.450262e-004 -3.992368e+001 1.394741e-004 -4.025443e+001 9.806475e-001 -1.214037e+002
1324293750 9.767169e-001 -1.261726e+002 1.351899e-004 -4.335312e+001 1.332630e-004 -3.661547e+001 9.800729e-001 -1.233840e+002
1346737500 9.760188e-001 -1.281618e+002 1.316423e-004 -4.576635e+001 1.326269e-004 -4.528141e+001 9.802081e-001 -1.253457e+002
1369181250 9.757313e-001 -1.301419e+002 1.430354e-004 -4.571330e+001 1.389970e-004 -4.659704e+001 9.797727e-001 -1.272823e+002
1391625000 9.749658e-001 -1.321274e+002 1.487228e-004 -4.843303e+001 1.464229e-004 -4.984178e+001 9.792097e-001 -1.292051e+002
1414068750 9.750715e-001 -1.341161e+002 1.572981e-004 -4.942509e+001 1.334516e-004 -5.023909e+001 9.786658e-001 -1.311508e+002
1436512500 9.754946e-001 -1.360804e+002 1.481578e-004 -5.410250e+001 1.557718e-004 -5.004300e+001 9.789637e-001 -1.330508e+002
1458956250 9.756110e-001 -1.380072e+002 1.544642e-004 -5.057168e+001 1.526294e-004 -5.476991e+001 9.787730e-001 -1.349261e+002
1481400000 9.749643e-001 -1.399429e+002 1.742014e-004 -5.831340e+001 1.533213e-004 -5.812030e+001 9.785426e-001 -1.368512e+002
1503843750 9.745530e-001 -1.419084e+002 1.615977e-004 -5.778174e+001 1.550951e-004 -6.087181e+001 9.783128e-001 -1.387843e+002
1526287500 9.741102e-001 -1.438573e+002 1.717651e-004 -6.096362e+001 1.697160e-004 -5.800288e+001 9.778813e-001 -1.407090e+002
1548731250 9.735140e-001 -1.457805e+002 1.605672e-004 -6.752652e+001 1.678969e-004 -5.884261e+001 9.773737e-001 -1.426082e+002
1571175000 9.728423e-001 -1.477244e+002 1.783322e-004 -6.658801e+001 1.852118e-004 -6.341756e+001 9.769420e-001 -1.445240e+002
1593618750 9.726863e-001 -1.496658e+002 1.781103e-004 -6.249772e+001 1.817439e-004 -6.906447e+001 9.765797e-001 -1.464245e+002
1616062500 9.730904e-001 -1.515697e+002 1.760819e-004 -6.907795e+001 1.730718e-004 -7.020672e+001 9.764663e-001 -1.482697e+002
1638506250 9.731815e-001 -1.534904e+002 1.869675e-004 -7.032844e+001 1.972651e-004 -6.854695e+001 9.760838e-001 -1.501362e+002
1660950000 9.727944e-001 -1.553909e+002 1.905365e-004 -7.006852e+001 1.638527e-004 -7.484400e+001 9.760216e-001 -1.520101e+002
1683393750 9.725395e-001 -1.572925e+002 2.062710e-004 -7.554227e+001 2.027135e-004 -7.834573e+001 9.758835e-001 -1.538771e+002
1705837500 9.720618e-001 -1.591928e+002 2.011373e-004 -7.807024e+001 1.995708e-004 -8.045969e+001 9.755042e-001 -1.557501e+002
1728281250 9.712419e-001 -1.610973e+002 2.017463e-004 -8.140023e+001 1.911941e-004 -8.258184e+001 9.752173e-001 -1.576267e+002
1750725000 9.705709e-001 -1.629981e+002 2.129966e-004 -8.096576e+001 1.957194e-004 -8.483256e+001 9.749346e-001 -1.595149e+002
1773168750 9.705822e-001 -1.648835e+002 2.205773e-004 -8.643810e+001 2.146769e-004 -8.723906e+001 9.751760e-001 -1.613678e+002
1795612500 9.706061e-001 -1.667643e+002 2.308389e-004 -9.062979e+001 2.176927e-004 -9.152821e+001 9.744002e-001 -1.632060e+002
1818056250 9.705243e-001 -1.686357e+002 2.232237e-004 -9.562083e+001 2.136112e-004 -8.975275e+001 9.739786e-001 -1.650201e+002
1840500000 9.706686e-001 -1.704987e+002 2.263534e-004 -9.575080e+001 2.138796e-004 -9.155222e+001 9.740189e-001 -1.668427e+002
1862943750 9.706441e-001 -1.723601e+002 2.283405e-004 -9.989848e+001 2.176607e-004 -9.450690e+001 9.735565e-001 -1.686857e+002
1885387500 9.701593e-001 -1.742334e+002 2.380956e-004 -1.011176e+002 2.240041e-004 -9.847087e+001 9.734334e-001 -1.704954e+002
1907831250 9.691112e-001 -1.761017e+002 2.201534e-004 -1.049094e+002 2.475472e-004 -9.825340e+001 9.734974e-001 -1.723373e+002
1930275000 9.689833e-001 -1.779630e+002 2.491431e-004 -1.031366e+002 2.420048e-004 -9.918216e+001 9.731091e-001 -1.741879e+002
1952718750 9.686813e-001 -1.798203e+002 2.441693e-004 -1.080058e+002 2.562144e-004 -1.062893e+002 9.730281e-001 -1.760179e+002
1975162500 9.681565e-001 1.783321e+002 2.496190e-004 -1.131976e+002 2.446669e-004 -1.115657e+002 9.730309e-001 -1.778295e+002
1997606250 9.680434e-001 1.765149e+002 2.423887e-004 -1.151286e+002 2.536685e-004 -1.144795e+002 9.728232e-001 -1.796128e+002
2020050000 9.683775e-001 1.746809e+002 2.637395e-004 -1.141153e+002 2.493829e-004 -1.126216e+002 9.720764e-001 1.785862e+002
2042493750 9.680858e-001 1.728434e+002 2.468039e-004 -1.202642e+002 2.453478e-004 -1.169309e+002 9.714820e-001 1.767747e+002
2064937500 9.679901e-001 1.710101e+002 2.700418e-004 -1.170023e+002 2.743272e-004 -1.182942e+002 9.713218e-001 1.749674e+002
2087381250 9.673916e-001 1.691628e+002 2.591144e-004 -1.195430e+002 2.728026e-004 -1.200242e+002 9.713641e-001 1.731716e+002
2109825000 9.671521e-001 1.673453e+002 2.637704e-004 -1.244492e+002 2.809176e-004 -1.233485e+002 9.713104e-001 1.713795e+002
2132268750 9.666740e-001 1.655169e+002 2.701049e-004 -1.233182e+002 2.737777e-004 -1.253903e+002 9.713000e-001 1.695782e+002
2154712500 9.662492e-001 1.636926e+002 2.614737e-004 -1.217317e+002 2.928078e-004 -1.268289e+002 9.710441e-001 1.677881e+002
2177156250 9.664761e-001 1.618928e+002 2.778655e-004 -1.256550e+002 2.951207e-004 -1.293818e+002 9.709742e-001 1.660059e+002
2199600000 9.665336e-001 1.600978e+002 3.050528e-004 -1.298979e+002 2.977582e-004 -1.310342e+002 9.705595e-001 1.642434e+002
2222043750 9.659858e-001 1.583009e+002 3.225249e-004 -1.315888e+002 2.992329e-004 -1.326392e+002 9.697518e-001 1.624612e+002
2244487500 9.660290e-001 1.564876e+002 3.310110e-004 -1.350909e+002 3.492860e-004 -1.328846e+002 9.695258e-001 1.606751e+002
2266931250 9.658273e-001 1.546850e+002 3.331580e-004 -1.389559e+002 3.471187e-004 -1.360328e+002 9.691424e-001 1.589007e+002
2289375000 9.657323e-001 1.528742e+002 3.540157e-004 -1.379789e+002 3.533907e-004 -1.391614e+002 9.687917e-001 1.571328e+002
2311818750 9.654468e-001 1.510822e+002 3.695075e-004 -1.407471e+002 3.874612e-004 -1.409345e+002 9.691218e-001 1.553533e+002
2334262500 9.648018e-001 1.492768e+002 3.750841e-004 -1.450684e+002 3.985986e-004 -1.455881e+002 9.689779e-001 1.535912e+002
2356706250 9.649302e-001 1.474963e+002 3.995445e-004 -1.469647e+002 4.158625e-004 -1.489012e+002 9.687829e-001 1.518237e+002
2379150000 9.645355e-001 1.457117e+002 3.850707e-004 -1.532659e+002 4.127139e-004 -1.512075e+002 9.686995e-001 1.500774e+002
2401593750 9.645654e-001 1.439284e+002 4.349719e-004 -1.532506e+002 4.362404e-004 -1.527247e+002 9.679970e-001 1.483164e+002
2424037500 9.644977e-001 1.421550e+002 4.399341e-004 -1.585396e+002 4.368058e-004 -1.591100e+002 9.672230e-001 1.465380e+002
2446481250 9.642528e-001 1.403773e+002 4.474897e-004 -1.643605e+002 4.550159e-004 -1.640290e+002 9.670927e-001 1.447876e+002
2468925000 9.640390e-001 1.385975e+002 4.351020e-004 -1.676340e+002 4.591283e-004 -1.651672e+002 9.666212e-001 1.430180e+002
2491368750 9.638494e-001 1.368235e+002 4.500402e-004 -1.716176e+002 4.706476e-004 -1.696576e+002 9.662752e-001 1.412794e+002
2513812500 9.630287e-001 1.350401e+002 4.644862e-004 -1.706520e+002 4.844670e-004 -1.747158e+002 9.667295e-001 1.395314e+002
2536256250 9.627823e-001 1.332744e+002 4.802398e-004 -1.748403e+002 5.120130e-004 -1.757861e+002 9.661540e-001 1.377771e+002
2558700000 9.626675e-001 1.315069e+002 4.753676e-004 -1.775954e+002 5.155692e-004 1.795340e+002 9.662067e-001 1.360444e+002
2581143750 9.623604e-001 1.297361e+002 4.898161e-004 1.798531e+002 5.199473e-004 1.743451e+002 9.659750e-001 1.343079e+002
2603587500 9.623432e-001 1.279718e+002 5.059518e-004 1.744284e+002 5.238152e-004 1.714147e+002 9.654574e-001 1.325590e+002
2626031250 9.623218e-001 1.262253e+002 5.245176e-004 1.716766e+002 5.105974e-004 1.664212e+002 9.654822e-001 1.308078e+002
2648475000 9.625720e-001 1.244635e+002 5.271990e-004 1.684131e+002 5.115054e-004 1.654422e+002 9.650257e-001 1.290594e+002
2670918750 9.623264e-001 1.227129e+002 5.306588e-004 1.655305e+002 5.217028e-004 1.643024e+002 9.645858e-001 1.273049e+002
2693362500 9.618257e-001 1.209447e+002 5.483955e-004 1.622230e+002 5.639611e-004 1.594932e+002 9.641843e-001 1.255495e+002
2715806250 9.610479e-001 1.191676e+002 5.638352e-004 1.591535e+002 5.723924e-004 1.571510e+002 9.641690e-001 1.238258e+002
2738250000 9.608454e-001 1.174025e+002 5.798115e-004 1.551963e+002 5.550856e-004 1.524624e+002 9.641203e-001 1.220686e+002
2760693750 9.605088e-001 1.156342e+002 5.911975e-004 1.522164e+002 5.708835e-004 1.477377e+002 9.640001e-001 1.203234e+002
2783137500 9.603222e-001 1.138765e+002 5.918440e-004 1.489967e+002 5.562052e-004 1.467419e+002 9.634616e-001 1.185685e+002
2805581250 9.601282e-001 1.121217e+002 6.041754e-004 1.456155e+002 5.644237e-004 1.437490e+002 9.633284e-001 1.168332e+002
2828025000 9.603375e-001 1.103702e+002 6.126689e-004 1.423500e+002 5.786878e-004 1.412363e+002 9.627634e-001 1.150781e+002
2850468750 9.600168e-001 1.086122e+002 6.249146e-004 1.388739e+002 5.739417e-004 1.372478e+002 9.625424e-001 1.133305e+002
2872912500 9.596597e-001 1.068684e+002 6.352522e-004 1.348549e+002 6.114896e-004 1.354334e+002 9.615670e-001 1.115851e+002
2895356250 9.587128e-001 1.051032e+002 6.443674e-004 1.322853e+002 6.190299e-004 1.324778e+002 9.614456e-001 1.098346e+002
2917800000 9.585243e-001 1.033257e+002 6.381749e-004 1.266339e+002 6.026783e-004 1.280983e+002 9.610152e-001 1.080915e+002
2940243750 9.583901e-001 1.015499e+002 6.349027e-004 1.259482e+002 5.836182e-004 1.252787e+002 9.610774e-001 1.063290e+002
2962687500 9.578986e-001 9.977805e+001 6.237132e-004 1.221996e+002 5.949426e-004 1.232614e+002 9.607634e-001 1.045655e+002
2985131250 9.579071e-001 9.801675e+001 6.292085e-004 1.196419e+002 6.027511e-004 1.208888e+002 9.605152e-001 1.028126e+002
3007575000 9.576886e-001 9.625837e+001 6.302110e-004 1.147324e+002 5.884475e-004 1.192792e+002 9.603115e-001 1.010583e+002
3030018750 9.573774e-001 9.451344e+001 6.308071e-004 1.130282e+002 5.915089e-004 1.174541e+002 9.600126e-001 9.929651e+001
3052462500 9.570665e-001 9.275151e+001 6.333829e-004 1.113835e+002 6.035695e-004 1.139920e+002 9.593238e-001 9.755071e+001
3074906250 9.566296e-001 9.096783e+001 6.314633e-004 1.094312e+002 6.151449e-004 1.149691e+002 9.584178e-001 9.577843e+001
3097350000 9.560315e-001 8.919026e+001 6.394411e-004 1.084234e+002 6.527037e-004 1.126094e+002 9.583470e-001 9.401747e+001
3119793750 9.557229e-001 8.740573e+001 6.534065e-004 1.059211e+002 6.648076e-004 1.096731e+002 9.579861e-001 9.225085e+001
3142237500 9.552125e-001 8.562946e+001 6.744743e-004 1.048648e+002 6.735278e-004 1.069672e+002 9.575132e-001 9.047030e+001
3164681250 9.551748e-001 8.386156e+001 6.814816e-004 1.017207e+002 6.876690e-004 1.050592e+002 9.572046e-001 8.869810e+001
3187125000 9.551976e-001 8.209283e+001 6.862328e-004 9.742727e+001 6.908695e-004 1.014803e+002 9.573095e-001 8.691624e+001
3209568750 9.551001e-001 8.031799e+001 6.793060e-004 9.489059e+001 7.015542e-004 1.002461e+002 9.568495e-001 8.515083e+001
3232012500 9.543682e-001 7.855217e+001 6.516876e-004 9.642270e+001 7.198405e-004 9.852015e+001 9.562524e-001 8.336686e+001
3254456250 9.538029e-001 7.675014e+001 6.646361e-004 9.502509e+001 7.280016e-004 9.466614e+001 9.559419e-001 8.157153e+001
3276900000 9.531308e-001 7.494612e+001 7.150054e-004 9.652631e+001 7.392012e-004 9.227569e+001 9.551846e-001 7.980263e+001
3299343750 9.528642e-001 7.315056e+001 7.290520e-004 9.313064e+001 7.516516e-004 8.984043e+001 9.551908e-001 7.801688e+001
3321787500 9.521915e-001 7.135952e+001 7.569849e-004 9.257627e+001 7.794951e-004 9.010925e+001 9.546027e-001 7.623122e+001
3344231250 9.514589e-001 6.957172e+001 8.066662e-004 9.151249e+001 7.904528e-004 8.906749e+001 9.544640e-001 7.444342e+001
3366675000 9.511802e-001 6.777600e+001 8.584999e-004 8.971761e+001 8.262240e-004 8.828854e+001 9.543080e-001 7.262412e+001
3389118750 9.511929e-001 6.596088e+001 9.138550e-004 8.563071e+001 8.728238e-004 8.612332e+001 9.538959e-001 7.078871e+001
3411562500 9.508161e-001 6.415702e+001 9.635197e-004 8.253688e+001 9.311248e-004 8.403925e+001 9.535712e-001 6.896894e+001
3434006250 9.500757e-001 6.236382e+001 9.933262e-004 7.758784e+001 9.525354e-004 8.029216e+001 9.531258e-001 6.715588e+001
3456450000 9.492596e-001 6.053408e+001 1.046582e-003 7.384762e+001 1.002080e-003 7.649437e+001 9.524597e-001 6.533231e+001
3478893750 9.492493e-001 5.869664e+001 1.047915e-003 6.919571e+001 1.063219e-003 7.108105e+001 9.521129e-001 6.350500e+001
3501337500 9.487613e-001 5.688018e+001 1.077431e-003 6.543581e+001 1.081960e-003 7.003281e+001 9.520315e-001 6.168665e+001
3523781250 9.482026e-001 5.506477e+001 1.110349e-003 6.289621e+001 1.168016e-003 6.534427e+001 9.511201e-001 5.988739e+001
