!Agilent Technologies,E8364A,US41440284,A.06.04.32
!Agilent E8364A: A.06.04.32
!Date: Friday, December 06, 2019 09:58:19
!Correction: S11(Full 2 Port(1,2)) S21(Full 2 Port(1,2)) S12(Full 2 Port(1,2)) S22(Full 2 Port(1,2)) 
!S2P File: Measurements: S11, S21, S12, S22:
# Hz S  MA   R 50
45000000 9.988504e-001 1.760975e+002 1.632833e-005 1.559069e+002 7.310551e-005 1.657323e+001 1.000072e+000 1.760894e+002
67443750 9.978076e-001 1.741572e+002 7.105171e-005 1.403056e+002 4.643350e-005 7.695196e+001 9.977230e-001 1.741732e+002
89887500 9.967782e-001 1.722485e+002 4.444321e-005 -1.169531e+001 3.902932e-005 -1.680850e+002 9.960329e-001 1.722850e+002
112331250 9.960400e-001 1.703466e+002 6.930986e-005 6.161722e+001 2.213588e-005 2.878797e+001 9.942734e-001 1.704075e+002
134775000 9.957770e-001 1.684597e+002 4.887954e-005 7.121939e+001 1.380377e-005 9.601672e+001 9.938961e-001 1.685459e+002
157218750 9.953637e-001 1.665724e+002 2.353880e-005 1.099758e+002 7.213885e-005 8.108613e+001 9.938893e-001 1.666852e+002
179662500 9.947275e-001 1.646885e+002 7.577077e-005 9.624210e+001 8.260211e-005 8.966124e+001 9.941194e-001 1.648150e+002
202106250 9.939804e-001 1.627881e+002 1.059008e-004 6.888262e+001 1.023945e-004 8.238215e+001 9.927714e-001 1.629444e+002
224550000 9.936020e-001 1.609251e+002 5.519844e-005 6.463102e+001 1.127205e-004 6.265312e+001 9.928638e-001 1.611507e+002
246993750 9.921620e-001 1.590352e+002 1.047453e-004 6.819672e+001 1.302003e-004 5.907362e+001 9.915267e-001 1.592891e+002
269437500 9.916715e-001 1.571449e+002 1.224292e-004 6.541660e+001 1.481321e-004 7.433821e+001 9.905938e-001 1.574549e+002
291881250 9.909683e-001 1.552432e+002 1.403263e-004 6.705429e+001 1.276749e-004 7.335244e+001 9.895201e-001 1.555628e+002
314325000 9.908174e-001 1.533559e+002 1.398768e-004 6.120050e+001 1.088844e-004 7.214677e+001 9.886997e-001 1.537037e+002
336768750 9.903686e-001 1.514752e+002 1.337909e-004 6.721162e+001 1.431789e-004 6.861119e+001 9.886207e-001 1.518490e+002
359212500 9.902822e-001 1.495910e+002 1.471743e-004 6.082738e+001 1.251191e-004 5.273723e+001 9.886959e-001 1.499908e+002
381656250 9.901162e-001 1.477090e+002 1.689210e-004 6.094686e+001 1.520714e-004 5.652411e+001 9.892151e-001 1.481313e+002
404100000 9.897701e-001 1.458183e+002 1.751644e-004 5.943218e+001 1.667253e-004 6.248051e+001 9.894636e-001 1.462555e+002
426543750 9.886886e-001 1.439358e+002 1.736511e-004 6.003962e+001 1.859384e-004 5.724405e+001 9.891445e-001 1.444276e+002
448987500 9.881310e-001 1.420382e+002 1.806019e-004 5.840332e+001 1.876803e-004 5.887185e+001 9.883648e-001 1.425528e+002
471431250 9.874814e-001 1.401332e+002 1.992293e-004 5.065161e+001 1.978938e-004 5.460386e+001 9.877995e-001 1.406801e+002
493875000 9.872580e-001 1.382303e+002 2.003728e-004 5.469590e+001 2.076945e-004 5.707180e+001 9.864405e-001 1.388121e+002
516318750 9.871277e-001 1.363399e+002 2.262309e-004 5.422339e+001 2.383808e-004 5.353898e+001 9.858920e-001 1.369421e+002
538762500 9.872117e-001 1.344239e+002 2.486551e-004 5.045118e+001 2.324385e-004 5.247729e+001 9.851868e-001 1.350677e+002
561206250 9.870449e-001 1.325214e+002 2.588008e-004 4.802369e+001 2.299292e-004 4.856248e+001 9.860529e-001 1.331877e+002
583650000 9.874426e-001 1.306302e+002 2.550041e-004 4.597481e+001 2.454341e-004 4.465570e+001 9.862090e-001 1.312875e+002
606093750 9.875621e-001 1.287215e+002 2.620484e-004 4.678363e+001 2.701857e-004 4.401330e+001 9.861682e-001 1.293976e+002
628537500 9.866146e-001 1.268287e+002 2.742942e-004 4.169431e+001 2.824846e-004 4.478346e+001 9.859160e-001 1.275145e+002
650981250 9.859785e-001 1.248960e+002 2.861313e-004 4.253630e+001 3.112746e-004 4.212360e+001 9.858878e-001 1.256157e+002
673425000 9.855251e-001 1.229619e+002 3.182747e-004 3.888272e+001 3.039333e-004 3.462547e+001 9.848175e-001 1.237163e+002
695868750 9.849797e-001 1.210404e+002 3.005722e-004 3.498839e+001 3.147165e-004 3.651318e+001 9.842030e-001 1.218371e+002
718312500 9.849666e-001 1.191103e+002 3.247561e-004 3.325745e+001 3.244416e-004 3.587682e+001 9.835959e-001 1.199288e+002
740756250 9.856399e-001 1.171796e+002 3.431348e-004 3.371659e+001 3.381185e-004 3.295787e+001 9.831545e-001 1.180175e+002
763200000 9.858680e-001 1.152639e+002 3.659907e-004 3.170085e+001 3.685125e-004 3.218891e+001 9.836830e-001 1.160907e+002
785643750 9.856658e-001 1.133431e+002 3.761604e-004 3.084711e+001 3.669445e-004 3.037393e+001 9.840688e-001 1.141823e+002
808087500 9.854347e-001 1.114053e+002 3.934305e-004 2.642603e+001 3.970090e-004 2.631672e+001 9.840833e-001 1.122437e+002
830531250 9.846660e-001 1.094538e+002 4.089227e-004 2.151778e+001 4.089798e-004 2.328782e+001 9.840066e-001 1.103039e+002
852975000 9.840886e-001 1.075064e+002 4.211998e-004 1.989705e+001 4.128297e-004 2.001081e+001 9.834716e-001 1.083770e+002
875418750 9.840547e-001 1.055466e+002 4.199675e-004 1.789421e+001 4.214862e-004 1.911336e+001 9.829048e-001 1.064427e+002
897862500 9.833786e-001 1.035691e+002 4.349433e-004 1.539603e+001 4.458241e-004 1.621960e+001 9.819158e-001 1.045082e+002
920306250 9.833658e-001 1.015824e+002 4.509754e-004 1.388777e+001 4.510928e-004 1.393372e+001 9.810128e-001 1.025521e+002
942750000 9.836776e-001 9.961945e+001 4.836053e-004 9.773507e+000 4.724960e-004 1.032802e+001 9.810780e-001 1.006049e+002
965193750 9.837939e-001 9.766047e+001 4.763118e-004 5.168933e+000 4.849026e-004 6.753305e+000 9.812704e-001 9.864556e+001
987637500 9.839448e-001 9.570023e+001 4.472733e-004 4.274397e-001 4.557758e-004 2.831002e+000 9.814341e-001 9.667739e+001
1010081250 9.838032e-001 9.372453e+001 4.487074e-004 1.019869e+000 4.490458e-004 1.208849e+000 9.816271e-001 9.470544e+001
1032525000 9.830693e-001 9.173045e+001 4.390656e-004 1.045586e+000 4.579609e-004 1.777055e+000 9.817723e-001 9.271340e+001
1054968750 9.824749e-001 8.973912e+001 4.531369e-004 -3.107209e-001 4.659827e-004 3.569676e-001 9.814445e-001 9.074272e+001
1077412500 9.817272e-001 8.773046e+001 4.626806e-004 -1.252411e+000 4.777343e-004 -9.999827e-002 9.807783e-001 8.875511e+001
1099856250 9.814259e-001 8.571947e+001 4.780833e-004 -2.396222e+000 4.961293e-004 -1.349358e+000 9.802211e-001 8.675632e+001
1122300000 9.814854e-001 8.370015e+001 5.001037e-004 -3.341975e+000 5.023568e-004 -4.095100e+000 9.798754e-001 8.478319e+001
1144743750 9.816092e-001 8.167655e+001 5.104375e-004 -4.153697e+000 5.096988e-004 -5.569798e+000 9.796306e-001 8.278036e+001
1167187500 9.818419e-001 7.966026e+001 5.135626e-004 -5.449466e+000 5.173507e-004 -6.507061e+000 9.796598e-001 8.077437e+001
1189631250 9.814528e-001 7.763719e+001 5.356636e-004 -7.967854e+000 5.225227e-004 -8.884444e+000 9.800276e-001 7.873898e+001
1212075000 9.815001e-001 7.561758e+001 5.417240e-004 -9.050455e+000 5.450490e-004 -1.015388e+001 9.804456e-001 7.669505e+001
1234518750 9.808079e-001 7.358620e+001 5.513330e-004 -1.194315e+001 5.498515e-004 -1.220734e+001 9.803534e-001 7.466381e+001
1256962500 9.800379e-001 7.155252e+001 5.540330e-004 -1.143757e+001 5.569949e-004 -1.362837e+001 9.796618e-001 7.263776e+001
1279406250 9.795473e-001 6.948269e+001 5.920798e-004 -1.228141e+001 5.765493e-004 -1.305622e+001 9.791769e-001 7.057736e+001
1301850000 9.792609e-001 6.742307e+001 6.089560e-004 -1.542474e+001 6.098098e-004 -1.684137e+001 9.791455e-001 6.851885e+001
1324293750 9.792949e-001 6.534517e+001 6.210281e-004 -1.886787e+001 6.315128e-004 -2.149186e+001 9.785499e-001 6.649025e+001
1346737500 9.793152e-001 6.329025e+001 6.375393e-004 -2.132015e+001 6.383330e-004 -2.256810e+001 9.786959e-001 6.442271e+001
1369181250 9.792848e-001 6.121445e+001 6.626509e-004 -2.485387e+001 6.416794e-004 -2.427763e+001 9.785173e-001 6.237574e+001
1391625000 9.794708e-001 5.914549e+001 6.655636e-004 -2.742998e+001 6.636110e-004 -2.651869e+001 9.785772e-001 6.027253e+001
1414068750 9.790595e-001 5.709468e+001 6.526255e-004 -2.928029e+001 6.540485e-004 -3.199036e+001 9.786215e-001 5.820762e+001
1436512500 9.780177e-001 5.499540e+001 6.564805e-004 -3.082804e+001 6.339363e-004 -3.217129e+001 9.782587e-001 5.608130e+001
1458956250 9.776596e-001 5.287806e+001 6.648464e-004 -3.227793e+001 6.521699e-004 -3.327715e+001 9.779006e-001 5.396174e+001
1481400000 9.776568e-001 5.076643e+001 6.757515e-004 -3.407360e+001 6.646471e-004 -3.430862e+001 9.781889e-001 5.186482e+001
1503843750 9.771259e-001 4.866720e+001 6.858901e-004 -3.525347e+001 6.747730e-004 -3.451294e+001 9.775209e-001 4.976276e+001
1526287500 9.771292e-001 4.657162e+001 7.035710e-004 -3.637055e+001 6.923993e-004 -3.723552e+001 9.772550e-001 4.765446e+001
1548731250 9.772527e-001 4.444334e+001 7.210823e-004 -3.908017e+001 7.055230e-004 -3.855861e+001 9.772471e-001 4.552861e+001
1571175000 9.775860e-001 4.232428e+001 7.344918e-004 -4.078076e+001 7.308276e-004 -3.928912e+001 9.772200e-001 4.341584e+001
1593618750 9.771094e-001 4.019860e+001 7.337570e-004 -4.406694e+001 7.366051e-004 -4.266317e+001 9.773716e-001 4.127033e+001
1616062500 9.766334e-001 3.806178e+001 7.475672e-004 -4.542698e+001 7.436735e-004 -4.496235e+001 9.771504e-001 3.910466e+001
1638506250 9.760513e-001 3.590988e+001 7.738984e-004 -4.625782e+001 7.492707e-004 -4.703687e+001 9.772478e-001 3.692322e+001
1660950000 9.756392e-001 3.376728e+001 7.680123e-004 -4.833465e+001 7.672011e-004 -4.992594e+001 9.770062e-001 3.477748e+001
1683393750 9.747669e-001 3.160164e+001 7.906919e-004 -4.972974e+001 7.725841e-004 -4.994259e+001 9.763794e-001 3.260053e+001
1705837500 9.749460e-001 2.942977e+001 8.032413e-004 -5.228065e+001 8.077621e-004 -5.231203e+001 9.761245e-001 3.042767e+001
1728281250 9.753389e-001 2.728681e+001 8.418452e-004 -5.340493e+001 8.226652e-004 -5.354110e+001 9.762688e-001 2.827262e+001
1750725000 9.755561e-001 2.512114e+001 8.474505e-004 -5.643454e+001 8.266130e-004 -5.685717e+001 9.761482e-001 2.611017e+001
1773168750 9.752688e-001 2.294668e+001 8.574256e-004 -5.851625e+001 8.520047e-004 -5.899405e+001 9.758651e-001 2.391194e+001
1795612500 9.746900e-001 2.075110e+001 8.754096e-004 -6.146037e+001 8.709715e-004 -6.205186e+001 9.756414e-001 2.169611e+001
1818056250 9.744029e-001 1.855536e+001 8.805344e-004 -6.468645e+001 8.741677e-004 -6.446969e+001 9.755607e-001 1.948348e+001
1840500000 9.740876e-001 1.636489e+001 8.878018e-004 -6.708456e+001 8.734487e-004 -6.589120e+001 9.757833e-001 1.724323e+001
1862943750 9.735332e-001 1.416527e+001 9.113750e-004 -6.913529e+001 8.819489e-004 -6.817128e+001 9.755109e-001 1.501589e+001
1885387500 9.735107e-001 1.196619e+001 9.038139e-004 -7.053188e+001 8.982833e-004 -6.961985e+001 9.752359e-001 1.280234e+001
1907831250 9.732853e-001 9.783070e+000 9.039940e-004 -7.219298e+001 9.065504e-004 -7.172499e+001 9.752718e-001 1.058429e+001
1930275000 9.730520e-001 7.556004e+000 9.169881e-004 -7.392700e+001 8.928195e-004 -7.372610e+001 9.747403e-001 8.371119e+000
1952718750 9.730469e-001 5.327810e+000 9.262116e-004 -7.530346e+001 9.315150e-004 -7.520015e+001 9.745736e-001 6.119072e+000
1975162500 9.730532e-001 3.114726e+000 9.643995e-004 -7.769692e+001 9.484381e-004 -7.664351e+001 9.742599e-001 3.871947e+000
1997606250 9.728234e-001 8.680924e-001 9.509861e-004 -7.948214e+001 9.623389e-004 -7.761776e+001 9.745901e-001 1.604041e+000
2020050000 9.724374e-001 -1.365466e+000 9.925558e-004 -8.067010e+001 9.632444e-004 -8.037091e+001 9.747534e-001 -6.675009e-001
2042493750 9.720899e-001 -3.601498e+000 1.015815e-003 -8.447045e+001 1.014781e-003 -8.348266e+001 9.745626e-001 -2.918570e+000
2064937500 9.717363e-001 -5.841004e+000 1.015714e-003 -8.625138e+001 1.014301e-003 -8.572439e+001 9.744306e-001 -5.186044e+000
2087381250 9.714844e-001 -8.068393e+000 1.019771e-003 -8.921284e+001 1.033167e-003 -8.754407e+001 9.740474e-001 -7.458198e+000
2109825000 9.711822e-001 -1.032552e+001 1.039445e-003 -9.029253e+001 1.048145e-003 -9.060868e+001 9.736757e-001 -9.726370e+000
2132268750 9.713691e-001 -1.255958e+001 1.033330e-003 -9.279400e+001 1.034663e-003 -9.218411e+001 9.731743e-001 -1.199882e+001
2154712500 9.711426e-001 -1.482046e+001 1.055154e-003 -9.417604e+001 1.037594e-003 -9.428492e+001 9.728569e-001 -1.427435e+001
2177156250 9.707493e-001 -1.710232e+001 1.052001e-003 -9.776440e+001 1.071095e-003 -9.615393e+001 9.725084e-001 -1.658153e+001
2199600000 9.705241e-001 -1.938264e+001 1.057852e-003 -9.934224e+001 1.066243e-003 -9.883103e+001 9.728022e-001 -1.886716e+001
2222043750 9.702684e-001 -2.164265e+001 1.095169e-003 -1.007615e+002 1.086053e-003 -1.010291e+002 9.730633e-001 -2.117145e+001
2244487500 9.699621e-001 -2.391383e+001 1.101930e-003 -1.032238e+002 1.079596e-003 -1.023066e+002 9.732664e-001 -2.346235e+001
2266931250 9.698855e-001 -2.616652e+001 1.107418e-003 -1.046750e+002 1.097528e-003 -1.046501e+002 9.724836e-001 -2.577705e+001
2289375000 9.695987e-001 -2.844905e+001 1.112693e-003 -1.072789e+002 1.110299e-003 -1.071101e+002 9.722262e-001 -2.805880e+001
2311818750 9.691554e-001 -3.071101e+001 1.123508e-003 -1.090496e+002 1.132279e-003 -1.071766e+002 9.717416e-001 -3.035953e+001
2334262500 9.686006e-001 -3.298895e+001 1.133910e-003 -1.106881e+002 1.137949e-003 -1.098970e+002 9.710482e-001 -3.267174e+001
2356706250 9.692377e-001 -3.527051e+001 1.167780e-003 -1.127554e+002 1.165699e-003 -1.122693e+002 9.710653e-001 -3.497945e+001
2379150000 9.687194e-001 -3.755143e+001 1.183800e-003 -1.154068e+002 1.173625e-003 -1.149838e+002 9.713573e-001 -3.729539e+001
2401593750 9.682607e-001 -3.984271e+001 1.190554e-003 -1.170689e+002 1.193387e-003 -1.167015e+002 9.711563e-001 -3.960405e+001
2424037500 9.680384e-001 -4.213739e+001 1.206854e-003 -1.198304e+002 1.212302e-003 -1.186470e+002 9.711561e-001 -4.190580e+001
2446481250 9.675190e-001 -4.441183e+001 1.217916e-003 -1.209321e+002 1.222685e-003 -1.210261e+002 9.709510e-001 -4.423136e+001
2468925000 9.673380e-001 -4.670985e+001 1.237607e-003 -1.237239e+002 1.240123e-003 -1.230616e+002 9.704223e-001 -4.653759e+001
2491368750 9.671925e-001 -4.899681e+001 1.256404e-003 -1.258582e+002 1.263177e-003 -1.254919e+002 9.700439e-001 -4.883140e+001
2513812500 9.670161e-001 -5.127864e+001 1.270893e-003 -1.281709e+002 1.284031e-003 -1.278031e+002 9.699689e-001 -5.115879e+001
2536256250 9.670377e-001 -5.355595e+001 1.279982e-003 -1.310607e+002 1.306897e-003 -1.304194e+002 9.696704e-001 -5.347525e+001
2558700000 9.666900e-001 -5.584144e+001 1.309045e-003 -1.325962e+002 1.309889e-003 -1.324362e+002 9.690922e-001 -5.577768e+001
2581143750 9.663364e-001 -5.812822e+001 1.313276e-003 -1.357105e+002 1.339320e-003 -1.353212e+002 9.690795e-001 -5.809064e+001
2603587500 9.660592e-001 -6.041324e+001 1.319628e-003 -1.382895e+002 1.331928e-003 -1.380503e+002 9.688504e-001 -6.040145e+001
2626031250 9.652401e-001 -6.270093e+001 1.331754e-003 -1.405311e+002 1.370480e-003 -1.413249e+002 9.692935e-001 -6.270947e+001
2648475000 9.651918e-001 -6.499796e+001 1.353619e-003 -1.432410e+002 1.363627e-003 -1.445410e+002 9.688659e-001 -6.500744e+001
2670918750 9.652605e-001 -6.727466e+001 1.343936e-003 -1.454855e+002 1.375309e-003 -1.460754e+002 9.690489e-001 -6.732543e+001
2693362500 9.652486e-001 -6.955720e+001 1.350372e-003 -1.470636e+002 1.366580e-003 -1.488529e+002 9.685437e-001 -6.963279e+001
2715806250 9.652865e-001 -7.182701e+001 1.363470e-003 -1.500156e+002 1.376956e-003 -1.502516e+002 9.683166e-001 -7.190064e+001
2738250000 9.651486e-001 -7.410553e+001 1.370479e-003 -1.521357e+002 1.384138e-003 -1.528357e+002 9.677655e-001 -7.418897e+001
2760693750 9.648474e-001 -7.637550e+001 1.375461e-003 -1.544799e+002 1.386955e-003 -1.553804e+002 9.674697e-001 -7.647503e+001
2783137500 9.645192e-001 -7.863944e+001 1.380251e-003 -1.562440e+002 1.389979e-003 -1.580394e+002 9.674498e-001 -7.877338e+001
2805581250 9.640444e-001 -8.092427e+001 1.393692e-003 -1.590198e+002 1.416947e-003 -1.603167e+002 9.670767e-001 -8.104993e+001
2828025000 9.636256e-001 -8.319799e+001 1.410051e-003 -1.606001e+002 1.412007e-003 -1.620737e+002 9.671757e-001 -8.332952e+001
2850468750 9.637397e-001 -8.546639e+001 1.419467e-003 -1.629727e+002 1.424649e-003 -1.641172e+002 9.671677e-001 -8.561718e+001
2872912500 9.637369e-001 -8.772253e+001 1.445984e-003 -1.655049e+002 1.454824e-003 -1.668534e+002 9.672269e-001 -8.789757e+001
2895356250 9.640760e-001 -8.998311e+001 1.464996e-003 -1.676958e+002 1.454806e-003 -1.694152e+002 9.671232e-001 -9.016556e+001
2917800000 9.638253e-001 -9.222439e+001 1.468375e-003 -1.707875e+002 1.475651e-003 -1.717292e+002 9.668133e-001 -9.241130e+001
2940243750 9.638778e-001 -9.445611e+001 1.468638e-003 -1.730377e+002 1.461282e-003 -1.746862e+002 9.664285e-001 -9.465957e+001
2962687500 9.631428e-001 -9.669274e+001 1.468199e-003 -1.754528e+002 1.485854e-003 -1.770760e+002 9.657664e-001 -9.689567e+001
2985131250 9.626818e-001 -9.894128e+001 1.494921e-003 -1.777975e+002 1.493388e-003 -1.789706e+002 9.656903e-001 -9.915025e+001
3007575000 9.629958e-001 -1.011851e+002 1.512904e-003 1.795929e+002 1.490522e-003 1.778404e+002 9.657980e-001 -1.013918e+002
3030018750 9.625865e-001 -1.034386e+002 1.512043e-003 1.765946e+002 1.488947e-003 1.754906e+002 9.656887e-001 -1.036233e+002
3052462500 9.625939e-001 -1.056586e+002 1.492736e-003 1.740449e+002 1.494837e-003 1.731895e+002 9.658119e-001 -1.058705e+002
3074906250 9.626307e-001 -1.078734e+002 1.507342e-003 1.721936e+002 1.490341e-003 1.711786e+002 9.662448e-001 -1.080857e+002
3097350000 9.625211e-001 -1.100679e+002 1.524405e-003 1.692086e+002 1.495329e-003 1.681161e+002 9.656186e-001 -1.102918e+002
3119793750 9.625442e-001 -1.122771e+002 1.525491e-003 1.665653e+002 1.491494e-003 1.658743e+002 9.651594e-001 -1.124964e+002
3142237500 9.623088e-001 -1.144800e+002 1.543063e-003 1.641156e+002 1.508967e-003 1.635624e+002 9.649209e-001 -1.146960e+002
3164681250 9.620131e-001 -1.166871e+002 1.531151e-003 1.615547e+002 1.487612e-003 1.604171e+002 9.646029e-001 -1.168826e+002
3187125000 9.619446e-001 -1.188884e+002 1.541519e-003 1.587584e+002 1.497252e-003 1.579561e+002 9.644912e-001 -1.190693e+002
3209568750 9.618894e-001 -1.210970e+002 1.543980e-003 1.564850e+002 1.508342e-003 1.559986e+002 9.643157e-001 -1.212535e+002
3232012500 9.619192e-001 -1.232777e+002 1.545165e-003 1.538573e+002 1.480508e-003 1.534692e+002 9.644483e-001 -1.234267e+002
3254456250 9.620252e-001 -1.254504e+002 1.547125e-003 1.515712e+002 1.486348e-003 1.511972e+002 9.646268e-001 -1.255917e+002
3276900000 9.622686e-001 -1.276051e+002 1.544190e-003 1.488932e+002 1.493455e-003 1.489403e+002 9.646049e-001 -1.277544e+002
3299343750 9.619332e-001 -1.297616e+002 1.547990e-003 1.461283e+002 1.503317e-003 1.467654e+002 9.640027e-001 -1.298939e+002
3321787500 9.614607e-001 -1.319121e+002 1.564413e-003 1.441191e+002 1.483847e-003 1.439859e+002 9.637628e-001 -1.320665e+002
3344231250 9.614115e-001 -1.340922e+002 1.543677e-003 1.411884e+002 1.494046e-003 1.413924e+002 9.640854e-001 -1.341924e+002
3366675000 9.612236e-001 -1.362405e+002 1.543970e-003 1.389088e+002 1.503547e-003 1.397803e+002 9.638091e-001 -1.362992e+002
3389118750 9.608967e-001 -1.383781e+002 1.550221e-003 1.360676e+002 1.502069e-003 1.371485e+002 9.635239e-001 -1.384061e+002
3411562500 9.608775e-001 -1.405180e+002 1.527590e-003 1.336183e+002 1.487960e-003 1.348725e+002 9.631743e-001 -1.405212e+002
3434006250 9.611315e-001 -1.426496e+002 1.521130e-003 1.308079e+002 1.513385e-003 1.325895e+002 9.631730e-001 -1.426112e+002
3456450000 9.613625e-001 -1.447489e+002 1.521149e-003 1.285804e+002 1.498516e-003 1.291470e+002 9.633797e-001 -1.446971e+002
3478893750 9.610621e-001 -1.468301e+002 1.518476e-003 1.258183e+002 1.509115e-003 1.269982e+002 9.629673e-001 -1.467838e+002
3501337500 9.606925e-001 -1.489245e+002 1.502413e-003 1.241124e+002 1.492901e-003 1.242103e+002 9.625136e-001 -1.488893e+002
3523781250 9.606978e-001 -1.510539e+002 1.482083e-003 1.210095e+002 1.470592e-003 1.223150e+002 9.624093e-001 -1.509914e+002
