!Agilent Technologies,E8364A,US41440284,A.06.04.32
!Agilent E8364A: A.06.04.32
!Date: Friday, December 06, 2019 10:06:03
!Correction: S11(Full 2 Port(1,2)) S21(Full 2 Port(1,2)) S12(Full 2 Port(1,2)) S22(Full 2 Port(1,2)) 
!S2P File: Measurements: S11, S21, S12, S22:
# Hz S  MA   R 50
45000000 7.603401e-003 -9.794528e+001 1.000230e+000 -4.949498e+000 9.991621e-001 -4.925182e+000 8.697314e-003 -1.019124e+002
67443750 1.112898e-002 -9.535532e+001 9.989480e-001 -7.372213e+000 9.987735e-001 -7.369974e+000 1.160754e-002 -9.784908e+001
89887500 1.484340e-002 -9.595177e+001 9.985882e-001 -9.800694e+000 9.979854e-001 -9.800638e+000 1.552600e-002 -9.540314e+001
112331250 1.862293e-002 -9.764600e+001 9.975328e-001 -1.223594e+001 9.968397e-001 -1.223332e+001 1.967703e-002 -9.809682e+001
134775000 2.257730e-002 -1.024801e+002 9.970787e-001 -1.464384e+001 9.961932e-001 -1.464224e+001 2.327081e-002 -1.023295e+002
157218750 2.662372e-002 -1.071154e+002 9.964166e-001 -1.705980e+001 9.958739e-001 -1.704766e+001 2.661580e-002 -1.053331e+002
179662500 3.032766e-002 -1.109931e+002 9.956967e-001 -1.946385e+001 9.951972e-001 -1.945957e+001 3.032791e-002 -1.077732e+002
202106250 3.414536e-002 -1.128093e+002 9.950315e-001 -2.187646e+001 9.942304e-001 -2.187281e+001 3.388203e-002 -1.103326e+002
224550000 3.837825e-002 -1.157858e+002 9.944642e-001 -2.425043e+001 9.937478e-001 -2.424452e+001 3.794923e-002 -1.122804e+002
246993750 4.164628e-002 -1.172548e+002 9.936258e-001 -2.665837e+001 9.928470e-001 -2.664046e+001 4.157170e-002 -1.138009e+002
269437500 4.508477e-002 -1.185921e+002 9.929667e-001 -2.903751e+001 9.932354e-001 -2.901731e+001 4.517254e-002 -1.154543e+002
291881250 4.856242e-002 -1.205202e+002 9.925593e-001 -3.144267e+001 9.918538e-001 -3.145041e+001 4.850241e-002 -1.177185e+002
314325000 5.203972e-002 -1.231897e+002 9.917879e-001 -3.383679e+001 9.910908e-001 -3.383235e+001 5.181198e-002 -1.200109e+002
336768750 5.553604e-002 -1.264387e+002 9.910050e-001 -3.622695e+001 9.904483e-001 -3.621442e+001 5.527501e-002 -1.225109e+002
359212500 5.905613e-002 -1.299916e+002 9.905999e-001 -3.860913e+001 9.898617e-001 -3.860406e+001 5.864771e-002 -1.254473e+002
381656250 6.230505e-002 -1.335115e+002 9.899132e-001 -4.099408e+001 9.890713e-001 -4.098638e+001 6.200297e-002 -1.282256e+002
404100000 6.525189e-002 -1.365118e+002 9.892847e-001 -4.338077e+001 9.886588e-001 -4.337374e+001 6.499955e-002 -1.306033e+002
426543750 6.830365e-002 -1.390061e+002 9.886509e-001 -4.575105e+001 9.879765e-001 -4.573778e+001 6.828631e-002 -1.324638e+002
448987500 7.073982e-002 -1.411430e+002 9.881307e-001 -4.812612e+001 9.871269e-001 -4.812082e+001 7.137078e-002 -1.345005e+002
471431250 7.308826e-002 -1.433580e+002 9.875116e-001 -5.050233e+001 9.867284e-001 -5.051330e+001 7.422481e-002 -1.363183e+002
493875000 7.564839e-002 -1.455003e+002 9.867812e-001 -5.289534e+001 9.859940e-001 -5.288258e+001 7.690021e-002 -1.383943e+002
516318750 7.819413e-002 -1.480244e+002 9.862092e-001 -5.526241e+001 9.855182e-001 -5.523528e+001 7.951079e-002 -1.408377e+002
538762500 8.077171e-002 -1.509012e+002 9.855437e-001 -5.764392e+001 9.845793e-001 -5.764568e+001 8.191157e-002 -1.433725e+002
561206250 8.305937e-002 -1.541430e+002 9.846864e-001 -6.001104e+001 9.841415e-001 -6.000184e+001 8.410542e-002 -1.459025e+002
583650000 8.556640e-002 -1.572190e+002 9.846163e-001 -6.237684e+001 9.842566e-001 -6.237528e+001 8.631098e-002 -1.482530e+002
606093750 8.772502e-002 -1.599313e+002 9.844122e-001 -6.473806e+001 9.835502e-001 -6.473228e+001 8.818011e-002 -1.507616e+002
628537500 8.952873e-002 -1.624360e+002 9.833989e-001 -6.709735e+001 9.825437e-001 -6.709766e+001 9.027171e-002 -1.529480e+002
650981250 9.102805e-002 -1.647762e+002 9.830359e-001 -6.948328e+001 9.824266e-001 -6.946505e+001 9.217496e-002 -1.548593e+002
673425000 9.262775e-002 -1.671178e+002 9.823533e-001 -7.184504e+001 9.815875e-001 -7.183368e+001 9.391467e-002 -1.569668e+002
695868750 9.423062e-002 -1.695792e+002 9.816684e-001 -7.421228e+001 9.810234e-001 -7.420126e+001 9.559216e-002 -1.591042e+002
718312500 9.546388e-002 -1.722139e+002 9.811645e-001 -7.657500e+001 9.804642e-001 -7.656335e+001 9.680942e-002 -1.614367e+002
740756250 9.679715e-002 -1.751499e+002 9.805846e-001 -7.894737e+001 9.797456e-001 -7.892920e+001 9.820534e-002 -1.636963e+002
763200000 9.821416e-002 -1.781377e+002 9.802537e-001 -8.129302e+001 9.796240e-001 -8.127588e+001 9.920353e-002 -1.662383e+002
785643750 9.926078e-002 1.790132e+002 9.800138e-001 -8.364702e+001 9.790602e-001 -8.364816e+001 1.002510e-001 -1.686242e+002
808087500 9.991911e-002 1.763562e+002 9.795105e-001 -8.601691e+001 9.788153e-001 -8.600958e+001 1.007984e-001 -1.708692e+002
830531250 1.002727e-001 1.738238e+002 9.790086e-001 -8.837096e+001 9.786081e-001 -8.836040e+001 1.014231e-001 -1.728247e+002
852975000 1.007700e-001 1.715038e+002 9.784941e-001 -9.072560e+001 9.781001e-001 -9.072050e+001 1.022671e-001 -1.748430e+002
875418750 1.008850e-001 1.690073e+002 9.781604e-001 -9.308923e+001 9.778309e-001 -9.308435e+001 1.025212e-001 -1.768873e+002
897862500 1.009175e-001 1.666419e+002 9.777417e-001 -9.545685e+001 9.772847e-001 -9.544457e+001 1.023300e-001 -1.789684e+002
920306250 1.009848e-001 1.638764e+002 9.775481e-001 -9.780810e+001 9.768147e-001 -9.780488e+001 1.023333e-001 1.789186e+002
942750000 1.014321e-001 1.610594e+002 9.769109e-001 -1.001766e+002 9.767879e-001 -1.001614e+002 1.021207e-001 1.765705e+002
965193750 1.014652e-001 1.581640e+002 9.767973e-001 -1.025353e+002 9.762473e-001 -1.025129e+002 1.018484e-001 1.742430e+002
987637500 1.011976e-001 1.554135e+002 9.767709e-001 -1.048853e+002 9.759618e-001 -1.048703e+002 1.011970e-001 1.719168e+002
1010081250 1.004919e-001 1.527451e+002 9.762765e-001 -1.072411e+002 9.755569e-001 -1.072166e+002 1.005792e-001 1.699077e+002
1032525000 9.967431e-002 1.502342e+002 9.763951e-001 -1.096000e+002 9.753574e-001 -1.095889e+002 1.001641e-001 1.679241e+002
1054968750 9.845234e-002 1.477114e+002 9.761043e-001 -1.119557e+002 9.753837e-001 -1.119396e+002 9.933177e-002 1.660189e+002
1077412500 9.736606e-002 1.452117e+002 9.757292e-001 -1.143083e+002 9.749200e-001 -1.143114e+002 9.805171e-002 1.641457e+002
1099856250 9.617095e-002 1.425476e+002 9.755101e-001 -1.166787e+002 9.748723e-001 -1.166647e+002 9.690136e-002 1.623065e+002
1122300000 9.525513e-002 1.395788e+002 9.749935e-001 -1.190325e+002 9.747172e-001 -1.190268e+002 9.566820e-002 1.600094e+002
1144743750 9.405894e-002 1.365939e+002 9.749016e-001 -1.214052e+002 9.744391e-001 -1.213967e+002 9.385933e-002 1.576436e+002
1167187500 9.250724e-002 1.336935e+002 9.749109e-001 -1.237541e+002 9.741256e-001 -1.237423e+002 9.177851e-002 1.554466e+002
1189631250 9.075316e-002 1.309191e+002 9.745006e-001 -1.261193e+002 9.742118e-001 -1.261041e+002 9.007493e-002 1.536139e+002
1212075000 8.867042e-002 1.281440e+002 9.747793e-001 -1.284816e+002 9.742689e-001 -1.284629e+002 8.840708e-002 1.515659e+002
1234518750 8.621593e-002 1.253313e+002 9.746549e-001 -1.308418e+002 9.739601e-001 -1.308328e+002 8.634946e-002 1.496912e+002
1256962500 8.358213e-002 1.227337e+002 9.743345e-001 -1.332017e+002 9.738654e-001 -1.331911e+002 8.399148e-002 1.480204e+002
1279406250 8.097826e-002 1.200354e+002 9.742415e-001 -1.355685e+002 9.736635e-001 -1.355623e+002 8.147356e-002 1.465722e+002
1301850000 7.859801e-002 1.170162e+002 9.741001e-001 -1.379393e+002 9.737692e-001 -1.379372e+002 7.918283e-002 1.445903e+002
1324293750 7.655883e-002 1.137636e+002 9.739087e-001 -1.403099e+002 9.730963e-001 -1.402944e+002 7.611629e-002 1.425291e+002
1346737500 7.416650e-002 1.105256e+002 9.740000e-001 -1.426733e+002 9.733283e-001 -1.426684e+002 7.297668e-002 1.404843e+002
1369181250 7.178889e-002 1.073334e+002 9.736273e-001 -1.450457e+002 9.729080e-001 -1.450330e+002 6.998467e-002 1.387098e+002
1391625000 6.864166e-002 1.041616e+002 9.740737e-001 -1.474196e+002 9.731142e-001 -1.474065e+002 6.709857e-002 1.367672e+002
1414068750 6.563368e-002 1.009316e+002 9.736656e-001 -1.497825e+002 9.731424e-001 -1.497755e+002 6.399383e-002 1.349468e+002
1436512500 6.151033e-002 9.786172e+001 9.736301e-001 -1.521635e+002 9.731609e-001 -1.521498e+002 6.069814e-002 1.339889e+002
1458956250 5.764684e-002 9.471471e+001 9.734582e-001 -1.545255e+002 9.730303e-001 -1.545160e+002 5.747870e-002 1.331967e+002
1481400000 5.418969e-002 9.087442e+001 9.735230e-001 -1.568963e+002 9.727629e-001 -1.568953e+002 5.400148e-002 1.320702e+002
1503843750 5.096616e-002 8.688027e+001 9.732903e-001 -1.592728e+002 9.723815e-001 -1.592730e+002 5.036411e-002 1.306025e+002
1526287500 4.785621e-002 8.259116e+001 9.733345e-001 -1.616517e+002 9.723423e-001 -1.616417e+002 4.650888e-002 1.292831e+002
1548731250 4.463058e-002 7.794603e+001 9.728920e-001 -1.640228e+002 9.722002e-001 -1.640267e+002 4.222536e-002 1.286619e+002
1571175000 4.155752e-002 7.309539e+001 9.726390e-001 -1.664051e+002 9.719645e-001 -1.664023e+002 3.817575e-002 1.278820e+002
1593618750 3.784863e-002 6.797588e+001 9.727786e-001 -1.688003e+002 9.719723e-001 -1.687848e+002 3.432172e-002 1.279485e+002
1616062500 3.356982e-002 6.259098e+001 9.726915e-001 -1.711735e+002 9.720989e-001 -1.711593e+002 3.067869e-002 1.294307e+002
1638506250 2.939735e-002 5.568174e+001 9.723094e-001 -1.735553e+002 9.718516e-001 -1.735451e+002 2.710578e-002 1.317030e+002
1660950000 2.576266e-002 4.721397e+001 9.720650e-001 -1.759364e+002 9.715102e-001 -1.759319e+002 2.357838e-002 1.352999e+002
1683393750 2.226678e-002 3.674288e+001 9.716465e-001 -1.783146e+002 9.711156e-001 -1.783124e+002 2.042072e-002 1.412319e+002
1705837500 1.995331e-002 2.406041e+001 9.715846e-001 1.792888e+002 9.709086e-001 1.793106e+002 1.735276e-002 1.498667e+002
1728281250 1.885555e-002 9.407806e+000 9.713560e-001 1.769166e+002 9.705443e-001 1.769165e+002 1.464348e-002 1.618554e+002
1750725000 1.840989e-002 -6.164409e+000 9.711930e-001 1.745329e+002 9.700478e-001 1.745338e+002 1.303832e-002 -1.796371e+002
1773168750 1.829127e-002 -2.290487e+001 9.706417e-001 1.721485e+002 9.699957e-001 1.721528e+002 1.417057e-002 -1.600326e+002
1795612500 1.927405e-002 -3.969316e+001 9.705094e-001 1.697489e+002 9.693944e-001 1.697641e+002 1.694708e-002 -1.471674e+002
1818056250 2.151311e-002 -5.477544e+001 9.698114e-001 1.673641e+002 9.692065e-001 1.673860e+002 2.032666e-002 -1.392277e+002
1840500000 2.470092e-002 -6.792355e+001 9.694276e-001 1.649879e+002 9.688502e-001 1.649958e+002 2.398085e-002 -1.336891e+002
1862943750 2.882898e-002 -7.778654e+001 9.688954e-001 1.625980e+002 9.684038e-001 1.626101e+002 2.829761e-002 -1.302785e+002
1885387500 3.328641e-002 -8.566566e+001 9.687948e-001 1.602174e+002 9.681455e-001 1.602208e+002 3.282109e-002 -1.279773e+002
1907831250 3.780330e-002 -9.165601e+001 9.681664e-001 1.578250e+002 9.675674e-001 1.578467e+002 3.734419e-002 -1.264388e+002
1930275000 4.205821e-002 -9.669908e+001 9.679596e-001 1.554344e+002 9.669213e-001 1.554515e+002 4.238402e-002 -1.261747e+002
1952718750 4.633789e-002 -1.015802e+002 9.674892e-001 1.530452e+002 9.666184e-001 1.530546e+002 4.751866e-002 -1.262450e+002
1975162500 5.060125e-002 -1.062154e+002 9.666875e-001 1.506629e+002 9.658971e-001 1.506655e+002 5.249184e-002 -1.267608e+002
1997606250 5.522871e-002 -1.109408e+002 9.663108e-001 1.482801e+002 9.655576e-001 1.482863e+002 5.760016e-002 -1.277480e+002
2020050000 6.015418e-002 -1.151586e+002 9.656324e-001 1.458924e+002 9.649809e-001 1.458994e+002 6.244906e-002 -1.290526e+002
2042493750 6.551068e-002 -1.191922e+002 9.648786e-001 1.435106e+002 9.645236e-001 1.435140e+002 6.738099e-002 -1.303357e+002
2064937500 7.064929e-002 -1.228852e+002 9.641865e-001 1.411315e+002 9.638787e-001 1.411268e+002 7.246085e-002 -1.316736e+002
2087381250 7.570366e-002 -1.263080e+002 9.633840e-001 1.387360e+002 9.627500e-001 1.387487e+002 7.743124e-002 -1.331936e+002
2109825000 8.055355e-002 -1.295880e+002 9.626299e-001 1.363536e+002 9.625319e-001 1.363659e+002 8.235031e-002 -1.348932e+002
2132268750 8.514924e-002 -1.326919e+002 9.620477e-001 1.339805e+002 9.617429e-001 1.339787e+002 8.755987e-002 -1.363937e+002
2154712500 8.945079e-002 -1.358951e+002 9.612514e-001 1.315956e+002 9.607100e-001 1.316017e+002 9.276023e-002 -1.380636e+002
2177156250 9.379240e-002 -1.391514e+002 9.604111e-001 1.292066e+002 9.604057e-001 1.292276e+002 9.776299e-002 -1.399892e+002
2199600000 9.838816e-002 -1.422880e+002 9.596210e-001 1.268347e+002 9.595931e-001 1.268470e+002 1.027361e-001 -1.419552e+002
2222043750 1.036194e-001 -1.453068e+002 9.587663e-001 1.244595e+002 9.585069e-001 1.244728e+002 1.075594e-001 -1.437177e+002
2244487500 1.084254e-001 -1.482301e+002 9.579890e-001 1.220863e+002 9.576277e-001 1.221007e+002 1.122543e-001 -1.455971e+002
2266931250 1.135642e-001 -1.512823e+002 9.571604e-001 1.197176e+002 9.568296e-001 1.197213e+002 1.168972e-001 -1.474888e+002
2289375000 1.182727e-001 -1.540473e+002 9.560345e-001 1.173519e+002 9.558754e-001 1.173546e+002 1.215137e-001 -1.495115e+002
2311818750 1.223565e-001 -1.568784e+002 9.551445e-001 1.149818e+002 9.552089e-001 1.149900e+002 1.258974e-001 -1.514319e+002
2334262500 1.261127e-001 -1.597008e+002 9.545395e-001 1.126135e+002 9.539518e-001 1.126250e+002 1.302290e-001 -1.533978e+002
2356706250 1.301554e-001 -1.624063e+002 9.540221e-001 1.102395e+002 9.530711e-001 1.102520e+002 1.347859e-001 -1.553755e+002
2379150000 1.342757e-001 -1.652916e+002 9.531466e-001 1.078931e+002 9.524734e-001 1.078925e+002 1.392895e-001 -1.573505e+002
2401593750 1.382771e-001 -1.680400e+002 9.520862e-001 1.055304e+002 9.513422e-001 1.055363e+002 1.434203e-001 -1.594485e+002
2424037500 1.425347e-001 -1.707040e+002 9.511682e-001 1.031652e+002 9.502698e-001 1.031586e+002 1.475858e-001 -1.614639e+002
2446481250 1.469356e-001 -1.734943e+002 9.500891e-001 1.008064e+002 9.495049e-001 1.008145e+002 1.512474e-001 -1.635821e+002
2468925000 1.508362e-001 -1.761172e+002 9.491139e-001 9.845354e+001 9.486275e-001 9.845121e+001 1.550349e-001 -1.655177e+002
2491368750 1.546050e-001 -1.787022e+002 9.482000e-001 9.610758e+001 9.476808e-001 9.610815e+001 1.587875e-001 -1.674897e+002
2513812500 1.578946e-001 1.785598e+002 9.474668e-001 9.374093e+001 9.468029e-001 9.375204e+001 1.624975e-001 -1.695258e+002
2536256250 1.610128e-001 1.759467e+002 9.462907e-001 9.138291e+001 9.459418e-001 9.140260e+001 1.659444e-001 -1.715929e+002
2558700000 1.636930e-001 1.732007e+002 9.457434e-001 8.905487e+001 9.451344e-001 8.906683e+001 1.691470e-001 -1.736885e+002
2581143750 1.666871e-001 1.705641e+002 9.446530e-001 8.671355e+001 9.442904e-001 8.672002e+001 1.725151e-001 -1.757091e+002
2603587500 1.700259e-001 1.679022e+002 9.438726e-001 8.437608e+001 9.435811e-001 8.438535e+001 1.757352e-001 -1.777986e+002
2626031250 1.733228e-001 1.653203e+002 9.431275e-001 8.203391e+001 9.426455e-001 8.204735e+001 1.787413e-001 -1.798920e+002
2648475000 1.762592e-001 1.627820e+002 9.426197e-001 7.968702e+001 9.418225e-001 7.969807e+001 1.813393e-001 1.780932e+002
2670918750 1.789666e-001 1.602996e+002 9.418915e-001 7.734908e+001 9.412846e-001 7.736512e+001 1.836981e-001 1.760779e+002
2693362500 1.813632e-001 1.576901e+002 9.410966e-001 7.500379e+001 9.406347e-001 7.502408e+001 1.861662e-001 1.740612e+002
2715806250 1.830567e-001 1.551016e+002 9.401188e-001 7.267715e+001 9.395403e-001 7.269590e+001 1.883108e-001 1.720736e+002
2738250000 1.845332e-001 1.525707e+002 9.396951e-001 7.034438e+001 9.389029e-001 7.034718e+001 1.903280e-001 1.700154e+002
2760693750 1.863163e-001 1.499226e+002 9.390486e-001 6.801431e+001 9.387024e-001 6.802416e+001 1.925126e-001 1.679331e+002
2783137500 1.882367e-001 1.473463e+002 9.384458e-001 6.567711e+001 9.377432e-001 6.568918e+001 1.945362e-001 1.658284e+002
2805581250 1.898544e-001 1.447449e+002 9.373818e-001 6.335029e+001 9.372352e-001 6.336692e+001 1.963620e-001 1.637765e+002
2828025000 1.914145e-001 1.423154e+002 9.373168e-001 6.102220e+001 9.364883e-001 6.102713e+001 1.974641e-001 1.617402e+002
2850468750 1.930192e-001 1.398392e+002 9.364814e-001 5.869316e+001 9.358472e-001 5.870199e+001 1.988660e-001 1.597773e+002
2872912500 1.946641e-001 1.373765e+002 9.358348e-001 5.635874e+001 9.354714e-001 5.638512e+001 2.000511e-001 1.577522e+002
2895356250 1.951682e-001 1.348539e+002 9.354573e-001 5.403236e+001 9.350166e-001 5.403880e+001 2.008526e-001 1.557598e+002
2917800000 1.952404e-001 1.323004e+002 9.346921e-001 5.170211e+001 9.345281e-001 5.171859e+001 2.011397e-001 1.537320e+002
2940243750 1.954786e-001 1.297137e+002 9.345940e-001 4.938314e+001 9.341134e-001 4.939569e+001 2.017365e-001 1.516530e+002
2962687500 1.957626e-001 1.271759e+002 9.341911e-001 4.705823e+001 9.337391e-001 4.707288e+001 2.024241e-001 1.496362e+002
2985131250 1.960104e-001 1.246272e+002 9.338415e-001 4.473518e+001 9.332329e-001 4.474463e+001 2.027298e-001 1.475591e+002
3007575000 1.961554e-001 1.221384e+002 9.332705e-001 4.241631e+001 9.328043e-001 4.242613e+001 2.029737e-001 1.455623e+002
3030018750 1.961039e-001 1.196611e+002 9.331892e-001 4.008807e+001 9.326010e-001 4.010826e+001 2.029508e-001 1.435884e+002
3052462500 1.959627e-001 1.172280e+002 9.327471e-001 3.776142e+001 9.323290e-001 3.777304e+001 2.023116e-001 1.416415e+002
3074906250 1.953432e-001 1.147930e+002 9.327264e-001 3.543432e+001 9.320544e-001 3.544666e+001 2.014692e-001 1.397184e+002
3097350000 1.943577e-001 1.122358e+002 9.325050e-001 3.310875e+001 9.317082e-001 3.312857e+001 2.004792e-001 1.377455e+002
3119793750 1.934897e-001 1.096638e+002 9.318875e-001 3.078803e+001 9.319266e-001 3.080483e+001 1.996306e-001 1.357163e+002
3142237500 1.923508e-001 1.070966e+002 9.318606e-001 2.845681e+001 9.315707e-001 2.847358e+001 1.986570e-001 1.335939e+002
3164681250 1.908317e-001 1.044947e+002 9.318698e-001 2.613993e+001 9.317898e-001 2.615792e+001 1.973313e-001 1.315503e+002
3187125000 1.892259e-001 1.019961e+002 9.320653e-001 2.381073e+001 9.317611e-001 2.382920e+001 1.960892e-001 1.295720e+002
3209568750 1.875975e-001 9.954011e+001 9.320588e-001 2.148387e+001 9.316342e-001 2.149603e+001 1.946729e-001 1.276547e+002
3232012500 1.857251e-001 9.706483e+001 9.320553e-001 1.914295e+001 9.318643e-001 1.916095e+001 1.926771e-001 1.257884e+002
3254456250 1.834188e-001 9.455464e+001 9.323890e-001 1.681251e+001 9.317030e-001 1.682759e+001 1.903823e-001 1.239785e+002
3276900000 1.814257e-001 9.202486e+001 9.322155e-001 1.448573e+001 9.316902e-001 1.449609e+001 1.879330e-001 1.221539e+002
3299343750 1.790260e-001 8.933415e+001 9.325929e-001 1.214959e+001 9.318188e-001 1.216105e+001 1.853574e-001 1.200968e+002
3321787500 1.764397e-001 8.662200e+001 9.325160e-001 9.825994e+000 9.316918e-001 9.832283e+000 1.826563e-001 1.180626e+002
3344231250 1.732984e-001 8.398859e+001 9.323105e-001 7.488175e+000 9.320838e-001 7.508055e+000 1.798872e-001 1.160952e+002
3366675000 1.699439e-001 8.154098e+001 9.328805e-001 5.151145e+000 9.321460e-001 5.165118e+000 1.771140e-001 1.142688e+002
3389118750 1.668042e-001 7.904823e+001 9.335474e-001 2.791839e+000 9.327376e-001 2.811187e+000 1.741937e-001 1.124279e+002
3411562500 1.633547e-001 7.640304e+001 9.333506e-001 4.410705e-001 9.332243e-001 4.676075e-001 1.709351e-001 1.105648e+002
3434006250 1.593454e-001 7.384833e+001 9.336789e-001 -1.902610e+000 9.335474e-001 -1.893992e+000 1.671871e-001 1.088362e+002
3456450000 1.553488e-001 7.136408e+001 9.344333e-001 -4.257381e+000 9.333755e-001 -4.246522e+000 1.631092e-001 1.072904e+002
3478893750 1.515231e-001 6.863939e+001 9.344347e-001 -6.608715e+000 9.339586e-001 -6.583676e+000 1.589873e-001 1.055840e+002
3501337500 1.475335e-001 6.574680e+001 9.347728e-001 -8.951917e+000 9.342471e-001 -8.936762e+000 1.548145e-001 1.036370e+002
3523781250 1.435106e-001 6.293597e+001 9.347457e-001 -1.130973e+001 9.346991e-001 -1.129214e+001 1.504648e-001 1.017252e+002
