!Agilent Technologies,E8364A,US41440284,A.06.04.32
!Agilent E8364A: A.06.04.32
!Date: Friday, December 06, 2019 10:02:57
!Correction: S11(Full 2 Port(1,2)) S21(Full 2 Port(1,2)) S12(Full 2 Port(1,2)) S22(Full 2 Port(1,2)) 
!S2P File: Measurements: S11, S21, S12, S22:
# Hz S  MA   R 50
45000000 1.147820e-002 -1.842395e+001 6.437657e-006 1.850545e+001 1.766083e-004 8.079302e+001 1.007586e-002 -2.437580e+001
67443750 1.207230e-002 -2.535032e+001 6.932063e-005 1.349839e+002 6.493028e-005 9.008335e+001 1.117722e-002 -3.243008e+001
89887500 1.269887e-002 -3.164506e+001 5.168120e-005 1.578060e+002 1.330013e-005 -4.247984e+001 1.216448e-002 -3.873777e+001
112331250 1.327004e-002 -3.676160e+001 3.302212e-005 1.140779e+002 3.013874e-005 -4.773551e+001 1.302656e-002 -4.404007e+001
134775000 1.378015e-002 -4.229789e+001 2.064362e-005 -1.609807e+002 3.183046e-005 8.703257e+001 1.386851e-002 -4.934232e+001
157218750 1.445711e-002 -4.825967e+001 3.372355e-005 1.212503e+002 2.007656e-005 3.206719e+001 1.481909e-002 -5.447385e+001
179662500 1.540603e-002 -5.401271e+001 3.328563e-005 -1.257257e+001 3.461642e-005 3.887350e+001 1.592357e-002 -5.983665e+001
202106250 1.661696e-002 -5.869993e+001 4.468343e-005 9.735169e+001 1.616308e-005 1.083482e+002 1.723028e-002 -6.428181e+001
224550000 1.798208e-002 -6.293218e+001 4.023792e-005 2.991737e+001 3.088884e-005 8.274283e+001 1.889805e-002 -6.829826e+001
246993750 1.936494e-002 -6.581850e+001 3.328087e-005 7.270820e+001 2.440758e-005 6.673631e+001 2.050526e-002 -7.136887e+001
269437500 2.055562e-002 -6.831528e+001 3.266000e-005 1.200092e+002 1.992084e-005 7.144221e+001 2.203784e-002 -7.369630e+001
291881250 2.153335e-002 -7.038231e+001 4.094395e-005 4.775700e+001 6.040245e-005 8.091399e+001 2.340441e-002 -7.584248e+001
314325000 2.243377e-002 -7.297855e+001 2.264334e-005 7.155611e+001 2.070497e-005 7.922823e+001 2.468875e-002 -7.793901e+001
336768750 2.325992e-002 -7.593633e+001 4.921838e-005 4.782634e+001 3.394746e-005 6.339948e+001 2.592884e-002 -8.026633e+001
359212500 2.433359e-002 -7.901134e+001 5.287441e-005 5.441970e+001 4.611315e-005 8.530949e+001 2.718270e-002 -8.273118e+001
381656250 2.558179e-002 -8.194849e+001 3.700513e-005 5.049866e+001 4.670188e-005 6.247772e+001 2.859481e-002 -8.529266e+001
404100000 2.701369e-002 -8.452736e+001 5.534678e-005 5.174595e+001 5.976525e-005 6.983717e+001 3.014460e-002 -8.761546e+001
426543750 2.856752e-002 -8.641882e+001 5.642885e-005 6.721559e+001 5.574620e-005 5.276315e+001 3.196287e-002 -8.962978e+001
448987500 2.998554e-002 -8.802371e+001 7.073551e-005 5.932486e+001 4.491918e-005 5.158102e+001 3.378221e-002 -9.136296e+001
471431250 3.121714e-002 -8.934263e+001 5.553902e-005 5.170813e+001 5.278364e-005 5.502398e+001 3.556741e-002 -9.272226e+001
493875000 3.226525e-002 -9.078386e+001 6.738612e-005 4.953359e+001 5.184317e-005 3.549279e+001 3.716024e-002 -9.382825e+001
516318750 3.317270e-002 -9.244992e+001 6.753659e-005 4.680919e+001 8.642456e-005 4.342886e+001 3.868608e-002 -9.491582e+001
538762500 3.413482e-002 -9.446005e+001 6.441271e-005 4.256954e+001 6.573371e-005 4.985400e+001 4.001482e-002 -9.618848e+001
561206250 3.523358e-002 -9.664934e+001 6.605207e-005 4.434908e+001 7.718576e-005 5.064454e+001 4.129451e-002 -9.757129e+001
583650000 3.657364e-002 -9.875553e+001 7.125978e-005 4.152577e+001 7.067808e-005 4.285366e+001 4.266122e-002 -9.909825e+001
606093750 3.808620e-002 -1.005905e+002 7.248006e-005 3.146525e+001 8.877603e-005 3.964399e+001 4.413549e-002 -1.006957e+002
628537500 3.964454e-002 -1.020178e+002 7.942316e-005 3.401452e+001 8.842146e-005 3.952876e+001 4.568917e-002 -1.022008e+002
650981250 4.110042e-002 -1.032060e+002 8.432390e-005 3.615670e+001 6.957706e-005 3.994939e+001 4.743607e-002 -1.036227e+002
673425000 4.236371e-002 -1.043250e+002 9.114137e-005 2.574670e+001 9.884626e-005 3.078110e+001 4.916747e-002 -1.048575e+002
695868750 4.340341e-002 -1.054903e+002 8.728332e-005 2.748630e+001 8.836883e-005 2.566415e+001 5.083711e-002 -1.059679e+002
718312500 4.436167e-002 -1.069548e+002 8.952166e-005 2.665441e+001 8.203487e-005 4.161728e+001 5.241920e-002 -1.070005e+002
740756250 4.538150e-002 -1.085895e+002 1.069709e-004 2.436070e+001 9.241053e-005 2.811705e+001 5.389327e-002 -1.080541e+002
763200000 4.655299e-002 -1.103568e+002 9.375868e-005 2.016039e+001 1.034958e-004 1.609406e+001 5.534197e-002 -1.092101e+002
785643750 4.797427e-002 -1.120891e+002 9.960753e-005 2.384495e+001 1.124047e-004 2.108432e+001 5.681507e-002 -1.104071e+002
808087500 4.954015e-002 -1.136140e+002 1.067589e-004 2.263039e+001 9.728985e-005 1.694825e+001 5.832734e-002 -1.116414e+002
830531250 5.115899e-002 -1.148465e+002 1.286988e-004 1.579924e+001 1.263986e-004 2.369417e+001 5.991220e-002 -1.128623e+002
852975000 5.270060e-002 -1.158946e+002 1.086542e-004 1.608900e+001 9.652432e-005 1.977041e+001 6.162165e-002 -1.140045e+002
875418750 5.396294e-002 -1.168520e+002 1.031148e-004 1.739321e+001 1.134574e-004 1.964912e+001 6.330258e-002 -1.150706e+002
897862500 5.506823e-002 -1.178980e+002 1.112383e-004 1.046097e+001 1.013593e-004 1.198510e+001 6.500009e-002 -1.160747e+002
920306250 5.608315e-002 -1.190984e+002 9.855588e-005 1.000442e+001 1.065829e-004 2.490372e+000 6.656300e-002 -1.170311e+002
942750000 5.712523e-002 -1.204846e+002 1.176422e-004 2.804884e+000 1.095283e-004 5.530994e+000 6.806864e-002 -1.179835e+002
965193750 5.836552e-002 -1.219860e+002 1.136769e-004 1.092695e+001 1.282400e-004 8.299973e+000 6.952570e-002 -1.190119e+002
987637500 5.978982e-002 -1.234872e+002 1.176660e-004 -1.891860e+000 1.025791e-004 2.595830e+000 7.103007e-002 -1.200378e+002
1010081250 6.134959e-002 -1.248290e+002 1.205563e-004 6.916906e+000 1.162746e-004 6.129714e+000 7.254847e-002 -1.211302e+002
1032525000 6.294889e-002 -1.259609e+002 1.194333e-004 1.076059e+001 1.172888e-004 9.837865e+000 7.414623e-002 -1.222481e+002
1054968750 6.449921e-002 -1.269503e+002 1.175120e-004 4.620548e+000 1.148353e-004 2.452035e+000 7.578912e-002 -1.232542e+002
1077412500 6.578222e-002 -1.278604e+002 1.251221e-004 -1.167978e+000 1.277913e-004 2.569622e+000 7.747007e-002 -1.242820e+002
1099856250 6.691044e-002 -1.288461e+002 1.303286e-004 -2.249268e+000 1.407024e-004 -8.693234e+000 7.907771e-002 -1.251827e+002
1122300000 6.795263e-002 -1.299514e+002 1.268160e-004 -5.196435e+000 1.235376e-004 -4.534558e+000 8.065275e-002 -1.261113e+002
1144743750 6.899345e-002 -1.312110e+002 1.385928e-004 -1.526869e+001 1.342001e-004 -3.243234e+000 8.213776e-002 -1.270586e+002
1167187500 7.019818e-002 -1.325298e+002 1.403328e-004 -5.375438e+000 1.344103e-004 -9.716153e+000 8.357034e-002 -1.280432e+002
1189631250 7.159648e-002 -1.338600e+002 1.456818e-004 -1.176552e+001 1.509219e-004 -1.181751e+001 8.509387e-002 -1.290756e+002
1212075000 7.311665e-002 -1.350930e+002 1.449792e-004 -9.321174e+000 1.541717e-004 -1.620527e+001 8.664582e-002 -1.301391e+002
1234518750 7.465819e-002 -1.361682e+002 1.444689e-004 -1.508735e+001 1.474484e-004 -1.431635e+001 8.829825e-002 -1.311913e+002
1256962500 7.613541e-002 -1.371302e+002 1.501219e-004 -1.516226e+001 1.395827e-004 -1.791121e+001 8.992619e-002 -1.321601e+002
1279406250 7.740521e-002 -1.380533e+002 1.522040e-004 -1.760084e+001 1.588082e-004 -1.964261e+001 9.164433e-002 -1.330858e+002
1301850000 7.850682e-002 -1.390314e+002 1.579452e-004 -1.162883e+001 1.547575e-004 -2.116432e+001 9.331023e-002 -1.339736e+002
1324293750 7.954248e-002 -1.401117e+002 1.603473e-004 -2.249645e+001 1.580853e-004 -2.146186e+001 9.483212e-002 -1.348451e+002
1346737500 8.061403e-002 -1.412884e+002 1.449396e-004 -2.613670e+001 1.537770e-004 -2.578823e+001 9.628265e-002 -1.357500e+002
1369181250 8.181516e-002 -1.425510e+002 1.607345e-004 -2.510998e+001 1.615123e-004 -2.556234e+001 9.772632e-002 -1.366931e+002
1391625000 8.320457e-002 -1.438062e+002 1.690161e-004 -2.778156e+001 1.682179e-004 -2.774055e+001 9.914985e-002 -1.376750e+002
1414068750 8.469522e-002 -1.449759e+002 1.717133e-004 -2.958996e+001 1.699180e-004 -2.433729e+001 1.006234e-001 -1.387037e+002
1436512500 8.618847e-002 -1.460297e+002 1.779015e-004 -3.479792e+001 1.690030e-004 -3.225074e+001 1.022167e-001 -1.397091e+002
1458956250 8.758762e-002 -1.469759e+002 1.791625e-004 -3.209208e+001 1.741901e-004 -3.362512e+001 1.038362e-001 -1.406909e+002
1481400000 8.882394e-002 -1.479215e+002 1.694124e-004 -3.798595e+001 1.637164e-004 -3.360701e+001 1.054829e-001 -1.416320e+002
1503843750 8.992541e-002 -1.489168e+002 1.690160e-004 -3.973416e+001 1.788404e-004 -4.015263e+001 1.071259e-001 -1.425303e+002
1526287500 9.098244e-002 -1.499742e+002 1.815080e-004 -4.067052e+001 1.816063e-004 -4.351196e+001 1.085920e-001 -1.434344e+002
1548731250 9.207948e-002 -1.511372e+002 1.684507e-004 -4.124113e+001 1.699981e-004 -4.118448e+001 1.100413e-001 -1.443090e+002
1571175000 9.328657e-002 -1.523677e+002 1.822806e-004 -4.200986e+001 1.672513e-004 -4.530462e+001 1.114245e-001 -1.452559e+002
1593618750 9.461110e-002 -1.535414e+002 1.810401e-004 -5.026096e+001 1.763314e-004 -5.134388e+001 1.128631e-001 -1.462207e+002
1616062500 9.609477e-002 -1.546508e+002 1.764038e-004 -5.082182e+001 1.872189e-004 -5.071686e+001 1.143501e-001 -1.472100e+002
1638506250 9.752733e-002 -1.556850e+002 1.827173e-004 -5.098365e+001 1.816315e-004 -4.834503e+001 1.158962e-001 -1.482125e+002
1660950000 9.887704e-002 -1.566549e+002 1.758273e-004 -5.393676e+001 1.826780e-004 -5.391998e+001 1.174311e-001 -1.491716e+002
1683393750 1.000294e-001 -1.575987e+002 1.744120e-004 -5.714538e+001 1.784832e-004 -5.698830e+001 1.190969e-001 -1.501300e+002
1705837500 1.011555e-001 -1.585970e+002 1.617211e-004 -5.402283e+001 1.711394e-004 -5.698075e+001 1.206658e-001 -1.510464e+002
1728281250 1.021512e-001 -1.596700e+002 1.817559e-004 -5.722577e+001 1.864038e-004 -6.147335e+001 1.221410e-001 -1.519261e+002
1750725000 1.032113e-001 -1.608116e+002 1.824610e-004 -6.043090e+001 1.790812e-004 -5.753471e+001 1.236059e-001 -1.528177e+002
1773168750 1.044388e-001 -1.620114e+002 1.867960e-004 -6.132264e+001 1.875482e-004 -6.406045e+001 1.249705e-001 -1.537372e+002
1795612500 1.057700e-001 -1.631645e+002 1.934608e-004 -6.467365e+001 1.905258e-004 -6.389911e+001 1.263503e-001 -1.546834e+002
1818056250 1.071675e-001 -1.642633e+002 1.794308e-004 -6.491937e+001 2.016908e-004 -6.630495e+001 1.276838e-001 -1.556445e+002
1840500000 1.085893e-001 -1.652767e+002 1.884643e-004 -6.520837e+001 1.909304e-004 -6.614839e+001 1.291755e-001 -1.566443e+002
1862943750 1.099360e-001 -1.662577e+002 1.903519e-004 -6.839251e+001 1.856718e-004 -7.050619e+001 1.307145e-001 -1.576081e+002
1885387500 1.110589e-001 -1.672330e+002 1.900128e-004 -7.085137e+001 1.979581e-004 -6.909328e+001 1.322187e-001 -1.585793e+002
1907831250 1.120811e-001 -1.682225e+002 1.928982e-004 -6.847511e+001 1.901894e-004 -7.239439e+001 1.337796e-001 -1.595033e+002
1930275000 1.131106e-001 -1.693002e+002 2.039914e-004 -7.464111e+001 1.972988e-004 -7.257066e+001 1.353128e-001 -1.603989e+002
1952718750 1.141691e-001 -1.704495e+002 2.095716e-004 -7.814462e+001 2.185096e-004 -7.956049e+001 1.367213e-001 -1.612837e+002
1975162500 1.153221e-001 -1.716029e+002 2.059722e-004 -7.576557e+001 2.106204e-004 -7.420320e+001 1.380381e-001 -1.621974e+002
1997606250 1.165951e-001 -1.727357e+002 2.103691e-004 -7.967412e+001 1.914097e-004 -7.901553e+001 1.393193e-001 -1.631182e+002
2020050000 1.179619e-001 -1.738331e+002 1.929728e-004 -8.337425e+001 1.993168e-004 -8.535336e+001 1.405722e-001 -1.640839e+002
2042493750 1.192617e-001 -1.748774e+002 1.985562e-004 -8.166260e+001 2.043265e-004 -8.697363e+001 1.419016e-001 -1.650809e+002
2064937500 1.205236e-001 -1.758763e+002 2.004477e-004 -8.436021e+001 2.005886e-004 -8.397578e+001 1.433224e-001 -1.660790e+002
2087381250 1.216101e-001 -1.768742e+002 2.030086e-004 -8.906297e+001 2.160351e-004 -8.842073e+001 1.448221e-001 -1.670702e+002
2109825000 1.226630e-001 -1.778886e+002 2.263737e-004 -9.194643e+001 2.060583e-004 -8.889891e+001 1.463825e-001 -1.680150e+002
2132268750 1.236683e-001 -1.789660e+002 2.235454e-004 -9.155505e+001 2.054613e-004 -9.450297e+001 1.478624e-001 -1.689333e+002
2154712500 1.246807e-001 1.798922e+002 2.057003e-004 -9.800202e+001 2.173083e-004 -9.465839e+001 1.492477e-001 -1.698086e+002
2177156250 1.257843e-001 1.787497e+002 1.979712e-004 -1.017154e+002 2.243146e-004 -1.004465e+002 1.505549e-001 -1.707013e+002
2199600000 1.269763e-001 1.776177e+002 2.084917e-004 -1.011845e+002 2.140195e-004 -1.018164e+002 1.517080e-001 -1.716142e+002
2222043750 1.283387e-001 1.765345e+002 1.874462e-004 -1.022798e+002 2.063122e-004 -1.057622e+002 1.529064e-001 -1.725633e+002
2244487500 1.295938e-001 1.754807e+002 2.101624e-004 -1.071349e+002 2.075823e-004 -1.071816e+002 1.541222e-001 -1.735515e+002
2266931250 1.307828e-001 1.744764e+002 1.991256e-004 -1.083628e+002 2.216362e-004 -1.072411e+002 1.553504e-001 -1.745404e+002
2289375000 1.318745e-001 1.734638e+002 1.960620e-004 -1.088712e+002 1.974449e-004 -1.111653e+002 1.567689e-001 -1.755358e+002
2311818750 1.328371e-001 1.724418e+002 2.050444e-004 -1.133868e+002 2.029897e-004 -1.178278e+002 1.581723e-001 -1.764849e+002
2334262500 1.337276e-001 1.713769e+002 1.963258e-004 -1.140805e+002 1.975558e-004 -1.148860e+002 1.596064e-001 -1.774005e+002
2356706250 1.347458e-001 1.702562e+002 1.886202e-004 -1.191430e+002 1.880471e-004 -1.151454e+002 1.608972e-001 -1.783009e+002
2379150000 1.358041e-001 1.691295e+002 1.869787e-004 -1.176337e+002 1.846259e-004 -1.206681e+002 1.621076e-001 -1.791974e+002
2401593750 1.369323e-001 1.680119e+002 1.685007e-004 -1.237380e+002 2.025151e-004 -1.235542e+002 1.632415e-001 1.798865e+002
2424037500 1.382148e-001 1.669189e+002 1.918448e-004 -1.194268e+002 1.758132e-004 -1.276236e+002 1.643042e-001 1.789384e+002
2446481250 1.394705e-001 1.658968e+002 1.859103e-004 -1.255012e+002 1.811870e-004 -1.256053e+002 1.654073e-001 1.779401e+002
2468925000 1.405860e-001 1.648755e+002 1.814547e-004 -1.232895e+002 1.830390e-004 -1.233993e+002 1.665400e-001 1.769490e+002
2491368750 1.416106e-001 1.638673e+002 1.788529e-004 -1.284275e+002 1.722798e-004 -1.281730e+002 1.677987e-001 1.759787e+002
2513812500 1.425218e-001 1.628384e+002 1.855858e-004 -1.321952e+002 1.830678e-004 -1.338434e+002 1.691336e-001 1.750121e+002
2536256250 1.433735e-001 1.617695e+002 1.932978e-004 -1.327345e+002 1.863996e-004 -1.319541e+002 1.703852e-001 1.740758e+002
2558700000 1.442576e-001 1.606662e+002 1.779554e-004 -1.299301e+002 1.476821e-004 -1.359863e+002 1.715664e-001 1.731521e+002
2581143750 1.452694e-001 1.595539e+002 1.833165e-004 -1.389706e+002 1.811207e-004 -1.342023e+002 1.727421e-001 1.722413e+002
2603587500 1.463460e-001 1.584450e+002 1.637933e-004 -1.367045e+002 1.457141e-004 -1.407453e+002 1.737849e-001 1.713142e+002
2626031250 1.475209e-001 1.573704e+002 1.702223e-004 -1.354900e+002 1.527344e-004 -1.349823e+002 1.748199e-001 1.703700e+002
2648475000 1.486685e-001 1.563663e+002 1.591202e-004 -1.379077e+002 1.441466e-004 -1.315715e+002 1.757728e-001 1.694073e+002
2670918750 1.496522e-001 1.553708e+002 1.741038e-004 -1.397839e+002 1.454892e-004 -1.283471e+002 1.768495e-001 1.684406e+002
2693362500 1.505582e-001 1.543507e+002 1.709040e-004 -1.391613e+002 1.563811e-004 -1.336507e+002 1.779030e-001 1.674685e+002
2715806250 1.513627e-001 1.533311e+002 1.704049e-004 -1.428248e+002 1.393755e-004 -1.323288e+002 1.789844e-001 1.665163e+002
2738250000 1.521465e-001 1.522532e+002 1.568395e-004 -1.475970e+002 1.487359e-004 -1.323537e+002 1.800399e-001 1.655682e+002
2760693750 1.529548e-001 1.511418e+002 1.387612e-004 -1.405665e+002 1.386844e-004 -1.298178e+002 1.810831e-001 1.646329e+002
2783137500 1.538992e-001 1.500522e+002 1.242478e-004 -1.451561e+002 1.534358e-004 -1.296501e+002 1.820181e-001 1.636718e+002
2805581250 1.548792e-001 1.489393e+002 1.345173e-004 -1.452288e+002 1.670861e-004 -1.367470e+002 1.829493e-001 1.627339e+002
2828025000 1.559323e-001 1.478885e+002 1.444585e-004 -1.469473e+002 1.599212e-004 -1.406553e+002 1.838758e-001 1.617772e+002
2850468750 1.569010e-001 1.468665e+002 1.381130e-004 -1.426951e+002 1.836072e-004 -1.383593e+002 1.848769e-001 1.608290e+002
2872912500 1.577287e-001 1.458650e+002 1.306031e-004 -1.415352e+002 1.836629e-004 -1.421544e+002 1.856886e-001 1.598687e+002
2895356250 1.584698e-001 1.448513e+002 1.461130e-004 -1.403723e+002 1.905448e-004 -1.402059e+002 1.865277e-001 1.589040e+002
2917800000 1.591608e-001 1.437907e+002 1.771575e-004 -1.382130e+002 2.030218e-004 -1.465506e+002 1.875032e-001 1.579436e+002
2940243750 1.598872e-001 1.426994e+002 1.526824e-004 -1.430056e+002 1.976848e-004 -1.515523e+002 1.884258e-001 1.569751e+002
2962687500 1.606017e-001 1.415880e+002 1.698400e-004 -1.435075e+002 1.888976e-004 -1.565375e+002 1.891984e-001 1.560181e+002
2985131250 1.614306e-001 1.404669e+002 1.640533e-004 -1.493016e+002 1.921606e-004 -1.605912e+002 1.900481e-001 1.550415e+002
3007575000 1.622788e-001 1.393802e+002 1.780261e-004 -1.469028e+002 1.826481e-004 -1.615201e+002 1.908738e-001 1.541066e+002
3030018750 1.631643e-001 1.383273e+002 1.816514e-004 -1.529816e+002 1.793705e-004 -1.727718e+002 1.916724e-001 1.531682e+002
3052462500 1.639270e-001 1.373076e+002 1.779682e-004 -1.608914e+002 1.666879e-004 -1.706945e+002 1.923427e-001 1.522213e+002
3074906250 1.646342e-001 1.362903e+002 1.780560e-004 -1.567082e+002 1.608849e-004 -1.659667e+002 1.930147e-001 1.512568e+002
3097350000 1.652018e-001 1.352631e+002 1.650326e-004 -1.595042e+002 1.483456e-004 -1.701068e+002 1.936798e-001 1.503030e+002
3119793750 1.656944e-001 1.341756e+002 1.575128e-004 -1.643494e+002 1.366237e-004 -1.703082e+002 1.943110e-001 1.493059e+002
3142237500 1.663194e-001 1.330842e+002 1.638766e-004 -1.644278e+002 1.298733e-004 -1.711623e+002 1.949697e-001 1.483242e+002
3164681250 1.669956e-001 1.319729e+002 1.808778e-004 -1.670979e+002 1.218886e-004 -1.655656e+002 1.956455e-001 1.473333e+002
3187125000 1.676850e-001 1.308627e+002 1.630016e-004 -1.685051e+002 1.134196e-004 -1.578712e+002 1.963719e-001 1.463535e+002
3209568750 1.684090e-001 1.298018e+002 1.608912e-004 -1.757955e+002 1.437646e-004 -1.631434e+002 1.970001e-001 1.454020e+002
3232012500 1.691349e-001 1.287685e+002 1.675461e-004 -1.733633e+002 1.346072e-004 -1.755411e+002 1.976261e-001 1.444642e+002
3254456250 1.697374e-001 1.277464e+002 1.593945e-004 -1.776553e+002 1.302943e-004 -1.680632e+002 1.981634e-001 1.435212e+002
3276900000 1.702261e-001 1.267300e+002 1.715386e-004 1.758877e+002 1.344550e-004 -1.731325e+002 1.986295e-001 1.425791e+002
3299343750 1.706172e-001 1.256867e+002 1.494835e-004 1.692484e+002 1.138695e-004 -1.799648e+002 1.989998e-001 1.416090e+002
3321787500 1.709920e-001 1.246162e+002 1.545569e-004 1.713345e+002 1.207898e-004 -1.741721e+002 1.994452e-001 1.406217e+002
3344231250 1.713888e-001 1.235098e+002 1.377279e-004 1.698835e+002 1.099081e-004 -1.587663e+002 1.999519e-001 1.396439e+002
3366675000 1.719303e-001 1.224121e+002 1.289082e-004 1.730322e+002 1.288796e-004 -1.592743e+002 2.004114e-001 1.386546e+002
3389118750 1.725676e-001 1.213205e+002 1.137894e-004 1.750448e+002 1.355076e-004 -1.621573e+002 2.008922e-001 1.376825e+002
3411562500 1.731815e-001 1.202889e+002 9.276405e-005 1.634200e+002 1.397546e-004 -1.601497e+002 2.013301e-001 1.367403e+002
3434006250 1.737419e-001 1.192696e+002 1.125069e-004 -1.725982e+002 1.418443e-004 -1.654959e+002 2.017585e-001 1.357894e+002
3456450000 1.741337e-001 1.182643e+002 1.034875e-004 1.782020e+002 1.377205e-004 -1.677240e+002 2.021219e-001 1.348435e+002
3478893750 1.744860e-001 1.172514e+002 1.055016e-004 -1.691629e+002 1.548697e-004 -1.714903e+002 2.024209e-001 1.338931e+002
3501337500 1.747476e-001 1.161860e+002 1.315664e-004 -1.713123e+002 1.460494e-004 -1.769902e+002 2.025671e-001 1.329176e+002
