!Agilent Technologies,E8364A,US41440284,A.06.04.32
!Agilent E8364A: A.06.04.32
!Date: Friday, December 06, 2019 09:56:05
!Correction: S11(Full 2 Port(1,2)) S21(Full 2 Port(1,2)) S12(Full 2 Port(1,2)) S22(Full 2 Port(1,2)) 
!S2P File: Measurements: S11, S21, S12, S22:
# Hz S  MA   R 50
45000000 5.719881e-003 -9.685220e+001 1.000032e+000 -4.169817e+000 9.996198e-001 -4.143618e+000 6.855723e-003 -1.024097e+002
67443750 8.344703e-003 -9.311226e+001 9.987345e-001 -6.223853e+000 9.989863e-001 -6.208929e+000 8.422388e-003 -9.874835e+001
89887500 1.115231e-002 -9.203556e+001 9.984833e-001 -8.268687e+000 9.983448e-001 -8.257039e+000 1.137565e-002 -9.372755e+001
112331250 1.403610e-002 -9.296999e+001 9.977090e-001 -1.031374e+001 9.974898e-001 -1.030081e+001 1.478862e-002 -9.541887e+001
134775000 1.705085e-002 -9.746446e+001 9.974021e-001 -1.234513e+001 9.969833e-001 -1.233065e+001 1.763916e-002 -9.977802e+001
157218750 2.011090e-002 -1.016242e+002 9.966527e-001 -1.437315e+001 9.967910e-001 -1.436875e+001 2.022187e-002 -1.018587e+002
179662500 2.308949e-002 -1.051561e+002 9.961235e-001 -1.640177e+001 9.960614e-001 -1.639325e+001 2.320288e-002 -1.038053e+002
202106250 2.616594e-002 -1.066150e+002 9.953523e-001 -1.842638e+001 9.953306e-001 -1.842306e+001 2.599831e-002 -1.063644e+002
224550000 2.963658e-002 -1.093211e+002 9.951711e-001 -2.042704e+001 9.949149e-001 -2.041491e+001 2.922290e-002 -1.079305e+002
246993750 3.230665e-002 -1.101576e+002 9.943764e-001 -2.245672e+001 9.940993e-001 -2.243342e+001 3.215352e-002 -1.091755e+002
269437500 3.521528e-002 -1.107404e+002 9.938321e-001 -2.445503e+001 9.939104e-001 -2.445033e+001 3.519541e-002 -1.106325e+002
291881250 3.803829e-002 -1.122451e+002 9.933994e-001 -2.648461e+001 9.931217e-001 -2.647949e+001 3.796138e-002 -1.127100e+002
314325000 4.074332e-002 -1.141734e+002 9.926535e-001 -2.849930e+001 9.925699e-001 -2.848603e+001 4.068198e-002 -1.145860e+002
336768750 4.359517e-002 -1.168921e+002 9.921042e-001 -3.051223e+001 9.919349e-001 -3.050273e+001 4.361749e-002 -1.167161e+002
359212500 4.647838e-002 -1.199051e+002 9.914701e-001 -3.252337e+001 9.915495e-001 -3.251020e+001 4.643973e-002 -1.193500e+002
381656250 4.922252e-002 -1.231119e+002 9.912004e-001 -3.452972e+001 9.911538e-001 -3.452082e+001 4.926849e-002 -1.217852e+002
404100000 5.176312e-002 -1.255924e+002 9.907303e-001 -3.654002e+001 9.905868e-001 -3.653149e+001 5.173752e-002 -1.239391e+002
426543750 5.479224e-002 -1.276299e+002 9.898978e-001 -3.853698e+001 9.900091e-001 -3.852588e+001 5.455041e-002 -1.256968e+002
448987500 5.712932e-002 -1.292866e+002 9.896650e-001 -4.054134e+001 9.895267e-001 -4.053253e+001 5.723431e-002 -1.276660e+002
471431250 5.955331e-002 -1.310294e+002 9.892041e-001 -4.254931e+001 9.890800e-001 -4.254966e+001 5.974340e-002 -1.293661e+002
493875000 6.194003e-002 -1.326631e+002 9.882964e-001 -4.456641e+001 9.885270e-001 -4.454696e+001 6.232119e-002 -1.313267e+002
516318750 6.441087e-002 -1.346189e+002 9.878126e-001 -4.655663e+001 9.880219e-001 -4.652609e+001 6.498665e-002 -1.336198e+002
538762500 6.676537e-002 -1.371353e+002 9.873211e-001 -4.856664e+001 9.872409e-001 -4.853244e+001 6.749873e-002 -1.359078e+002
561206250 6.880753e-002 -1.400375e+002 9.867152e-001 -5.055826e+001 9.867776e-001 -5.053428e+001 6.983539e-002 -1.381276e+002
583650000 7.119607e-002 -1.427434e+002 9.865550e-001 -5.256047e+001 9.865575e-001 -5.255306e+001 7.218516e-002 -1.402171e+002
606093750 7.340948e-002 -1.450469e+002 9.862575e-001 -5.455439e+001 9.862499e-001 -5.454647e+001 7.424881e-002 -1.425267e+002
628537500 7.553155e-002 -1.470451e+002 9.854493e-001 -5.654557e+001 9.853949e-001 -5.652555e+001 7.651059e-002 -1.444244e+002
650981250 7.751784e-002 -1.489254e+002 9.849511e-001 -5.854902e+001 9.851640e-001 -5.853409e+001 7.850981e-002 -1.461523e+002
673425000 7.954577e-002 -1.506514e+002 9.843867e-001 -6.053475e+001 9.841515e-001 -6.052893e+001 8.052155e-002 -1.481675e+002
695868750 8.165961e-002 -1.524516e+002 9.838098e-001 -6.253824e+001 9.839222e-001 -6.252979e+001 8.260463e-002 -1.500831e+002
718312500 8.332927e-002 -1.546482e+002 9.830696e-001 -6.452809e+001 9.831977e-001 -6.452271e+001 8.438860e-002 -1.523170e+002
740756250 8.505044e-002 -1.571364e+002 9.827318e-001 -6.653521e+001 9.826301e-001 -6.650908e+001 8.643290e-002 -1.543632e+002
763200000 8.685051e-002 -1.596059e+002 9.822098e-001 -6.850906e+001 9.825268e-001 -6.848042e+001 8.830658e-002 -1.566709e+002
785643750 8.856454e-002 -1.620215e+002 9.821777e-001 -7.049127e+001 9.819118e-001 -7.048006e+001 9.021296e-002 -1.588460e+002
808087500 9.002420e-002 -1.642304e+002 9.816341e-001 -7.248267e+001 9.816920e-001 -7.246777e+001 9.167342e-002 -1.609276e+002
830531250 9.126855e-002 -1.662939e+002 9.807557e-001 -7.447048e+001 9.810630e-001 -7.445750e+001 9.306426e-002 -1.627210e+002
852975000 9.299786e-002 -1.680001e+002 9.805422e-001 -7.646375e+001 9.804320e-001 -7.645018e+001 9.475686e-002 -1.645226e+002
875418750 9.438561e-002 -1.699121e+002 9.799789e-001 -7.844190e+001 9.801977e-001 -7.843884e+001 9.599896e-002 -1.664618e+002
897862500 9.547187e-002 -1.717267e+002 9.794261e-001 -8.044164e+001 9.799559e-001 -8.042706e+001 9.688528e-002 -1.684714e+002
920306250 9.647927e-002 -1.739193e+002 9.788515e-001 -8.241656e+001 9.789493e-001 -8.241016e+001 9.797755e-002 -1.704278e+002
942750000 9.793612e-002 -1.760883e+002 9.783698e-001 -8.441249e+001 9.787622e-001 -8.439932e+001 9.912509e-002 -1.725833e+002
965193750 9.914377e-002 -1.784907e+002 9.781249e-001 -8.640137e+001 9.786727e-001 -8.637991e+001 1.003455e-001 -1.747330e+002
987637500 9.997645e-002 1.792082e+002 9.778383e-001 -8.837843e+001 9.782798e-001 -8.836568e+001 1.012193e-001 -1.769137e+002
1010081250 1.006188e-001 1.770317e+002 9.776685e-001 -9.035057e+001 9.777348e-001 -9.033756e+001 1.019577e-001 -1.787578e+002
1032525000 1.013259e-001 1.751177e+002 9.777503e-001 -9.234004e+001 9.771388e-001 -9.233234e+001 1.029348e-001 1.794487e+002
1054968750 1.018699e-001 1.732152e+002 9.772158e-001 -9.432961e+001 9.770778e-001 -9.431284e+001 1.035710e-001 1.776839e+002
1077412500 1.024281e-001 1.713979e+002 9.766480e-001 -9.630356e+001 9.766721e-001 -9.630615e+001 1.038174e-001 1.758592e+002
1099856250 1.028361e-001 1.694865e+002 9.761157e-001 -9.829268e+001 9.761308e-001 -9.828441e+001 1.040793e-001 1.740871e+002
1122300000 1.035978e-001 1.673265e+002 9.755015e-001 -1.002677e+002 9.762318e-001 -1.002727e+002 1.047504e-001 1.720063e+002
1144743750 1.040163e-001 1.650589e+002 9.754196e-001 -1.022581e+002 9.755987e-001 -1.022553e+002 1.049428e-001 1.697577e+002
1167187500 1.041291e-001 1.627877e+002 9.753633e-001 -1.042359e+002 9.753692e-001 -1.042222e+002 1.049013e-001 1.675999e+002
1189631250 1.041847e-001 1.606061e+002 9.747417e-001 -1.062179e+002 9.752039e-001 -1.062051e+002 1.050171e-001 1.657785e+002
1212075000 1.041088e-001 1.585221e+002 9.747668e-001 -1.081990e+002 9.751320e-001 -1.081879e+002 1.053442e-001 1.638142e+002
1234518750 1.038840e-001 1.564346e+002 9.745945e-001 -1.101759e+002 9.745818e-001 -1.101679e+002 1.053966e-001 1.619249e+002
1256962500 1.035306e-001 1.545992e+002 9.743148e-001 -1.121490e+002 9.745170e-001 -1.121453e+002 1.049871e-001 1.601555e+002
1279406250 1.030366e-001 1.527402e+002 9.739048e-001 -1.141342e+002 9.740229e-001 -1.141240e+002 1.043961e-001 1.585131e+002
1301850000 1.026824e-001 1.507436e+002 9.736157e-001 -1.161233e+002 9.739443e-001 -1.161133e+002 1.043696e-001 1.565918e+002
1324293750 1.026934e-001 1.485208e+002 9.733464e-001 -1.181012e+002 9.733153e-001 -1.180848e+002 1.037604e-001 1.544546e+002
1346737500 1.022570e-001 1.462406e+002 9.729825e-001 -1.200798e+002 9.733577e-001 -1.200739e+002 1.030787e-001 1.522741e+002
1369181250 1.019568e-001 1.440407e+002 9.730313e-001 -1.220533e+002 9.730906e-001 -1.220526e+002 1.023579e-001 1.502615e+002
1391625000 1.010817e-001 1.418440e+002 9.728549e-001 -1.240452e+002 9.727097e-001 -1.240325e+002 1.019263e-001 1.481837e+002
1414068750 1.006220e-001 1.397136e+002 9.727882e-001 -1.260220e+002 9.728218e-001 -1.260188e+002 1.013338e-001 1.461231e+002
1436512500 9.895255e-002 1.377391e+002 9.727344e-001 -1.280093e+002 9.726828e-001 -1.279982e+002 1.001713e-001 1.444490e+002
1458956250 9.753610e-002 1.358670e+002 9.722309e-001 -1.299899e+002 9.728010e-001 -1.299795e+002 9.905432e-002 1.428299e+002
1481400000 9.644944e-002 1.337397e+002 9.720821e-001 -1.319621e+002 9.722445e-001 -1.319616e+002 9.795088e-002 1.410060e+002
1503843750 9.540450e-002 1.315865e+002 9.721367e-001 -1.339513e+002 9.719126e-001 -1.339485e+002 9.703239e-002 1.389807e+002
1526287500 9.426947e-002 1.293553e+002 9.721034e-001 -1.359334e+002 9.715291e-001 -1.359248e+002 9.580383e-002 1.369181e+002
1548731250 9.309281e-002 1.270219e+002 9.715426e-001 -1.379166e+002 9.717676e-001 -1.379101e+002 9.403865e-002 1.348556e+002
1571175000 9.215464e-002 1.247216e+002 9.716271e-001 -1.399036e+002 9.715002e-001 -1.398866e+002 9.266896e-002 1.326689e+002
1593618750 9.065631e-002 1.224844e+002 9.715163e-001 -1.418936e+002 9.711215e-001 -1.418820e+002 9.112303e-002 1.306609e+002
1616062500 8.868262e-002 1.205115e+002 9.714150e-001 -1.438819e+002 9.717940e-001 -1.438543e+002 8.944756e-002 1.289246e+002
1638506250 8.670942e-002 1.184120e+002 9.716686e-001 -1.458587e+002 9.714397e-001 -1.458503e+002 8.783459e-002 1.271408e+002
1660950000 8.485351e-002 1.162773e+002 9.714895e-001 -1.478399e+002 9.712065e-001 -1.478254e+002 8.612133e-002 1.253708e+002
1683393750 8.260404e-002 1.141384e+002 9.712111e-001 -1.498317e+002 9.709728e-001 -1.498205e+002 8.422921e-002 1.237091e+002
1705837500 8.070669e-002 1.117725e+002 9.710371e-001 -1.518271e+002 9.711985e-001 -1.518058e+002 8.233912e-002 1.218232e+002
1728281250 7.906243e-002 1.091766e+002 9.711915e-001 -1.537981e+002 9.708115e-001 -1.537928e+002 8.048966e-002 1.197076e+002
1750725000 7.730476e-002 1.066635e+002 9.708677e-001 -1.557925e+002 9.708382e-001 -1.557814e+002 7.825589e-002 1.173991e+002
1773168750 7.512119e-002 1.044095e+002 9.707675e-001 -1.577913e+002 9.703688e-001 -1.577795e+002 7.565275e-002 1.154611e+002
1795612500 7.281413e-002 1.022268e+002 9.709696e-001 -1.597727e+002 9.705006e-001 -1.597568e+002 7.305448e-002 1.137646e+002
1818056250 7.048500e-002 1.000501e+002 9.707403e-001 -1.617667e+002 9.703373e-001 -1.617524e+002 7.058288e-002 1.120992e+002
1840500000 6.768826e-002 9.791164e+001 9.707724e-001 -1.637524e+002 9.705386e-001 -1.637356e+002 6.828253e-002 1.102475e+002
1862943750 6.498925e-002 9.542113e+001 9.703740e-001 -1.657503e+002 9.705838e-001 -1.657334e+002 6.575217e-002 1.084709e+002
1885387500 6.206049e-002 9.291400e+001 9.702901e-001 -1.677354e+002 9.705284e-001 -1.677211e+002 6.314911e-002 1.066162e+002
1907831250 5.939031e-002 9.015950e+001 9.704468e-001 -1.697337e+002 9.700457e-001 -1.697136e+002 6.071587e-002 1.045773e+002
1930275000 5.701810e-002 8.742847e+001 9.701961e-001 -1.717359e+002 9.696101e-001 -1.717112e+002 5.774599e-002 1.028947e+002
1952718750 5.445918e-002 8.462373e+001 9.701830e-001 -1.737294e+002 9.699447e-001 -1.737127e+002 5.469020e-002 1.010152e+002
1975162500 5.185961e-002 8.206165e+001 9.699941e-001 -1.757132e+002 9.697160e-001 -1.757107e+002 5.165476e-002 9.916879e+001
1997606250 4.900733e-002 7.949667e+001 9.700830e-001 -1.777208e+002 9.698831e-001 -1.776977e+002 4.844952e-002 9.746423e+001
2020050000 4.613960e-002 7.646822e+001 9.699205e-001 -1.797115e+002 9.698585e-001 -1.797006e+002 4.533867e-002 9.590049e+001
2042493750 4.272763e-002 7.332197e+001 9.696463e-001 1.782901e+002 9.698459e-001 1.783035e+002 4.216288e-002 9.434855e+001
2064937500 3.943675e-002 7.014270e+001 9.696536e-001 1.762891e+002 9.695960e-001 1.763035e+002 3.887205e-002 9.257706e+001
2087381250 3.625833e-002 6.637636e+001 9.693971e-001 1.742789e+002 9.691839e-001 1.743032e+002 3.581386e-002 9.112794e+001
2109825000 3.302949e-002 6.221573e+001 9.691491e-001 1.722861e+002 9.694782e-001 1.723120e+002 3.255967e-002 9.013914e+001
2132268750 3.008077e-002 5.756578e+001 9.692725e-001 1.702870e+002 9.692900e-001 1.703082e+002 2.923615e-002 8.840565e+001
2154712500 2.719818e-002 5.302708e+001 9.687461e-001 1.682771e+002 9.689550e-001 1.683111e+002 2.562413e-002 8.713688e+001
2177156250 2.415912e-002 4.825869e+001 9.685709e-001 1.662629e+002 9.692816e-001 1.663008e+002 2.190837e-002 8.732111e+001
2199600000 2.119838e-002 4.217163e+001 9.684697e-001 1.642725e+002 9.690154e-001 1.642990e+002 1.814686e-002 8.804314e+001
2222043750 1.822022e-002 3.298340e+001 9.686672e-001 1.622599e+002 9.684232e-001 1.622862e+002 1.454538e-002 8.839661e+001
2244487500 1.554923e-002 2.255214e+001 9.684198e-001 1.602578e+002 9.681829e-001 1.602870e+002 1.090262e-002 9.115724e+001
2266931250 1.290636e-002 6.380147e+000 9.681302e-001 1.582550e+002 9.683940e-001 1.582878e+002 7.435912e-003 9.859327e+001
2289375000 1.182968e-002 -1.296649e+001 9.680175e-001 1.562483e+002 9.677051e-001 1.562748e+002 4.679590e-003 1.227717e+002
2311818750 1.162205e-002 -3.323020e+001 9.676131e-001 1.542498e+002 9.679428e-001 1.542706e+002 4.069078e-003 1.685442e+002
2334262500 1.234524e-002 -5.282784e+001 9.674245e-001 1.522419e+002 9.673920e-001 1.522703e+002 6.250371e-003 -1.585235e+002
2356706250 1.421987e-002 -6.801066e+001 9.671614e-001 1.502410e+002 9.668781e-001 1.502550e+002 9.675823e-003 -1.441442e+002
2379150000 1.684133e-002 -8.063289e+001 9.667938e-001 1.482397e+002 9.670205e-001 1.482550e+002 1.340143e-002 -1.381167e+002
2401593750 1.976997e-002 -9.013038e+001 9.667208e-001 1.462229e+002 9.661304e-001 1.462547e+002 1.762042e-002 -1.364559e+002
2424037500 2.321100e-002 -9.751569e+001 9.661415e-001 1.442241e+002 9.655276e-001 1.442333e+002 2.177801e-002 -1.355912e+002
2446481250 2.700656e-002 -1.045340e+002 9.656161e-001 1.422008e+002 9.656388e-001 1.422433e+002 2.584197e-002 -1.364198e+002
2468925000 3.075220e-002 -1.093939e+002 9.654385e-001 1.402003e+002 9.651896e-001 1.402257e+002 2.959734e-002 -1.368727e+002
2491368750 3.470838e-002 -1.136550e+002 9.648156e-001 1.382038e+002 9.646111e-001 1.382325e+002 3.351186e-002 -1.377234e+002
2513812500 3.863848e-002 -1.182157e+002 9.644738e-001 1.361933e+002 9.646685e-001 1.362263e+002 3.760819e-002 -1.390649e+002
2536256250 4.236750e-002 -1.216222e+002 9.640059e-001 1.341804e+002 9.642861e-001 1.342194e+002 4.162542e-002 -1.406302e+002
2558700000 4.590768e-002 -1.252338e+002 9.636418e-001 1.321807e+002 9.638891e-001 1.322217e+002 4.569286e-002 -1.425073e+002
2581143750 4.977756e-002 -1.283777e+002 9.634626e-001 1.301819e+002 9.636070e-001 1.302048e+002 4.990503e-002 -1.438280e+002
2603587500 5.395015e-002 -1.313327e+002 9.628564e-001 1.281771e+002 9.628062e-001 1.282063e+002 5.439154e-002 -1.452428e+002
2626031250 5.820165e-002 -1.340703e+002 9.622108e-001 1.261692e+002 9.627225e-001 1.262004e+002 5.881952e-002 -1.470039e+002
2648475000 6.238141e-002 -1.368388e+002 9.619195e-001 1.241546e+002 9.622237e-001 1.241968e+002 6.288435e-002 -1.486536e+002
2670918750 6.651317e-002 -1.393383e+002 9.612939e-001 1.221616e+002 9.618349e-001 1.221959e+002 6.691663e-002 -1.504974e+002
2693362500 7.079314e-002 -1.420491e+002 9.610896e-001 1.201420e+002 9.611713e-001 1.201835e+002 7.095274e-002 -1.521874e+002
2715806250 7.467532e-002 -1.446284e+002 9.602214e-001 1.181413e+002 9.606989e-001 1.181832e+002 7.493357e-002 -1.539852e+002
2738250000 7.829443e-002 -1.470822e+002 9.599773e-001 1.161477e+002 9.600291e-001 1.161718e+002 7.906095e-002 -1.558193e+002
2760693750 8.229689e-002 -1.496289e+002 9.591255e-001 1.141282e+002 9.597704e-001 1.141630e+002 8.341024e-002 -1.575325e+002
2783137500 8.642264e-002 -1.519467e+002 9.587527e-001 1.121276e+002 9.585766e-001 1.121666e+002 8.778201e-002 -1.592747e+002
2805581250 9.037441e-002 -1.544559e+002 9.578175e-001 1.101256e+002 9.580830e-001 1.101631e+002 9.211069e-002 -1.609787e+002
2828025000 9.423251e-002 -1.566573e+002 9.575812e-001 1.081298e+002 9.576216e-001 1.081550e+002 9.613980e-002 -1.629859e+002
2850468750 9.851382e-002 -1.588834e+002 9.570045e-001 1.061189e+002 9.568370e-001 1.061612e+002 1.001153e-001 -1.646958e+002
2872912500 1.030193e-001 -1.609009e+002 9.560136e-001 1.041254e+002 9.565296e-001 1.041643e+002 1.042164e-001 -1.664981e+002
2895356250 1.068545e-001 -1.632242e+002 9.553549e-001 1.021267e+002 9.558972e-001 1.021552e+002 1.079578e-001 -1.682906e+002
2917800000 1.104270e-001 -1.655482e+002 9.544711e-001 1.001149e+002 9.548302e-001 1.001587e+002 1.117175e-001 -1.703663e+002
2940243750 1.141347e-001 -1.678007e+002 9.540080e-001 9.812727e+001 9.541970e-001 9.816906e+001 1.156262e-001 -1.722799e+002
2962687500 1.178398e-001 -1.699530e+002 9.529829e-001 9.614426e+001 9.532806e-001 9.617503e+001 1.196177e-001 -1.740057e+002
2985131250 1.215806e-001 -1.722426e+002 9.524993e-001 9.413435e+001 9.526992e-001 9.417544e+001 1.238026e-001 -1.759092e+002
3007575000 1.252985e-001 -1.744056e+002 9.516189e-001 9.213551e+001 9.520396e-001 9.218576e+001 1.277801e-001 -1.777357e+002
3030018750 1.291485e-001 -1.765854e+002 9.509085e-001 9.013836e+001 9.512329e-001 9.018868e+001 1.317541e-001 -1.795432e+002
3052462500 1.329962e-001 -1.786133e+002 9.504108e-001 8.815587e+001 9.507991e-001 8.819645e+001 1.354363e-001 1.785977e+002
3074906250 1.365981e-001 1.793199e+002 9.497554e-001 8.615791e+001 9.499072e-001 8.619048e+001 1.388012e-001 1.767047e+002
3097350000 1.401793e-001 1.772176e+002 9.487928e-001 8.416776e+001 9.490423e-001 8.421185e+001 1.422031e-001 1.747792e+002
3119793750 1.439929e-001 1.751336e+002 9.477462e-001 8.218388e+001 9.486622e-001 8.223833e+001 1.456986e-001 1.729535e+002
3142237500 1.473489e-001 1.730246e+002 9.472429e-001 8.019813e+001 9.477322e-001 8.023857e+001 1.494944e-001 1.710289e+002
3164681250 1.504967e-001 1.707743e+002 9.461093e-001 7.820226e+001 9.470262e-001 7.824557e+001 1.531518e-001 1.690776e+002
3187125000 1.535840e-001 1.686227e+002 9.457479e-001 7.622086e+001 9.461283e-001 7.626450e+001 1.566692e-001 1.671668e+002
3209568750 1.569490e-001 1.665069e+002 9.448741e-001 7.423992e+001 9.453776e-001 7.428876e+001 1.602302e-001 1.653699e+002
3232012500 1.601210e-001 1.643974e+002 9.441476e-001 7.225692e+001 9.449447e-001 7.229475e+001 1.635553e-001 1.635019e+002
3254456250 1.632717e-001 1.623409e+002 9.433735e-001 7.026825e+001 9.439647e-001 7.030734e+001 1.664450e-001 1.616243e+002
3276900000 1.667087e-001 1.604041e+002 9.424818e-001 6.829922e+001 9.433608e-001 6.833847e+001 1.692337e-001 1.598155e+002
3299343750 1.700286e-001 1.583026e+002 9.421489e-001 6.633220e+001 9.422995e-001 6.636025e+001 1.724558e-001 1.579311e+002
3321787500 1.730491e-001 1.562526e+002 9.411459e-001 6.434587e+001 9.412823e-001 6.437413e+001 1.755503e-001 1.560289e+002
3344231250 1.756408e-001 1.541341e+002 9.400882e-001 6.235021e+001 9.405881e-001 6.239457e+001 1.785104e-001 1.540973e+002
3366675000 1.778687e-001 1.520842e+002 9.393991e-001 6.039285e+001 9.397553e-001 6.043470e+001 1.811395e-001 1.522041e+002
3389118750 1.804167e-001 1.500083e+002 9.386802e-001 5.841803e+001 9.392403e-001 5.846370e+001 1.839864e-001 1.503669e+002
3411562500 1.833331e-001 1.478718e+002 9.380564e-001 5.643769e+001 9.390709e-001 5.648489e+001 1.870944e-001 1.484916e+002
3434006250 1.857451e-001 1.457735e+002 9.371541e-001 5.446152e+001 9.379398e-001 5.449895e+001 1.896052e-001 1.466070e+002
3456450000 1.879721e-001 1.438120e+002 9.367025e-001 5.248913e+001 9.371870e-001 5.253626e+001 1.915427e-001 1.447766e+002
3478893750 1.907542e-001 1.418385e+002 9.357316e-001 5.052320e+001 9.367691e-001 5.057508e+001 1.938090e-001 1.429300e+002
3501337500 1.935015e-001 1.397780e+002 9.349294e-001 4.856586e+001 9.353011e-001 4.861092e+001 1.963987e-001 1.410652e+002
3523781250 1.958524e-001 1.377856e+002 9.338164e-001 4.659449e+001 9.349909e-001 4.663589e+001 1.988633e-001 1.391621e+002
