!Agilent Technologies,E8364A,US41440284,A.06.04.32
!Agilent E8364A: A.06.04.32
!Date: Monday, November 18, 2019 13:30:27
!Correction: S11(Full 1 Port(1)) 
!S1P File: Measurement: S11:
# Hz S  MA   R 50
45000000  5.786149e-003  -7.433363e+001 
67443750  9.307001e-003  -8.228937e+001 
89887500  1.241937e-002  -8.823315e+001 
112331250  1.543437e-002  -9.178404e+001 
134775000  1.857254e-002  -9.267349e+001 
157218750  2.170199e-002  -9.465894e+001 
179662500  2.463069e-002  -9.629463e+001 
202106250  2.737727e-002  -9.875163e+001 
224550000  3.027156e-002  -1.010494e+002 
246993750  3.317819e-002  -1.031800e+002 
269437500  3.619172e-002  -1.053862e+002 
291881250  3.929040e-002  -1.073413e+002 
314325000  4.247088e-002  -1.088918e+002 
336768750  4.567951e-002  -1.105954e+002 
359212500  4.882538e-002  -1.119721e+002 
381656250  5.161328e-002  -1.133679e+002 
404100000  5.433025e-002  -1.148360e+002 
426543750  5.715894e-002  -1.167817e+002 
448987500  5.994906e-002  -1.183936e+002 
471431250  6.298055e-002  -1.200065e+002 
493875000  6.595698e-002  -1.219207e+002 
516318750  6.906527e-002  -1.234284e+002 
538762500  7.206727e-002  -1.248724e+002 
561206250  7.519908e-002  -1.263695e+002 
583650000  7.807140e-002  -1.276421e+002 
606093750  8.071458e-002  -1.291520e+002 
628537500  8.356563e-002  -1.307838e+002 
650981250  8.621451e-002  -1.324314e+002 
673425000  8.904011e-002  -1.340636e+002 
695868750  9.204370e-002  -1.356841e+002 
718312500  9.500267e-002  -1.372298e+002 
740756250  9.798173e-002  -1.386349e+002 
763200000  1.007972e-001  -1.400889e+002 
785643750  1.036436e-001  -1.414935e+002 
808087500  1.064210e-001  -1.428964e+002 
830531250  1.090683e-001  -1.443160e+002 
852975000  1.117525e-001  -1.459285e+002 
875418750  1.144214e-001  -1.474659e+002 
897862500  1.173358e-001  -1.489941e+002 
920306250  1.202695e-001  -1.504931e+002 
942750000  1.230594e-001  -1.519588e+002 
965193750  1.257856e-001  -1.533714e+002 
987637500  1.285938e-001  -1.548029e+002 
1010081250  1.312040e-001  -1.562221e+002 
1032525000  1.337280e-001  -1.576434e+002 
1054968750  1.363168e-001  -1.591963e+002 
1077412500  1.390397e-001  -1.606945e+002 
1099856250  1.416980e-001  -1.621740e+002 
1122300000  1.445556e-001  -1.636497e+002 
1144743750  1.472365e-001  -1.650553e+002 
1167187500  1.498753e-001  -1.664872e+002 
1189631250  1.524624e-001  -1.678659e+002 
1212075000  1.549836e-001  -1.692906e+002 
1234518750  1.574937e-001  -1.707312e+002 
1256962500  1.599314e-001  -1.722193e+002 
1279406250  1.624856e-001  -1.736619e+002 
1301850000  1.651862e-001  -1.751140e+002 
1324293750  1.677659e-001  -1.765401e+002 
1346737500  1.703613e-001  -1.779674e+002 
1369181250  1.728433e-001  -1.793356e+002 
1391625000  1.753183e-001  1.792896e+002 
1414068750  1.777628e-001  1.779165e+002 
1436512500  1.801144e-001  1.765470e+002 
1458956250  1.824791e-001  1.750944e+002 
1481400000  1.850334e-001  1.736476e+002 
1503843750  1.874574e-001  1.722429e+002 
1526287500  1.898740e-001  1.708200e+002 
1548731250  1.923293e-001  1.694502e+002 
1571175000  1.947084e-001  1.681113e+002 
1593618750  1.969604e-001  1.667404e+002 
1616062500  1.993234e-001  1.653970e+002 
1638506250  2.016643e-001  1.640739e+002 
1660950000  2.037074e-001  1.626889e+002 
1683393750  2.059104e-001  1.612849e+002 
1705837500  2.081972e-001  1.598957e+002 
1728281250  2.108486e-001  1.585839e+002 
1750725000  2.134350e-001  1.572129e+002 
1773168750  2.157114e-001  1.558729e+002 
1795612500  2.177312e-001  1.545376e+002 
1818056250  2.196953e-001  1.531587e+002 
1840500000  2.218238e-001  1.517878e+002 
1862943750  2.238192e-001  1.504455e+002 
1885387500  2.258312e-001  1.490450e+002 
1907831250  2.278991e-001  1.477531e+002 
1930275000  2.299263e-001  1.464658e+002 
1952718750  2.321981e-001  1.451747e+002 
1975162500  2.343594e-001  1.438928e+002 
1997606250  2.364086e-001  1.426424e+002 
2020050000  2.382643e-001  1.413325e+002 
2042493750  2.402289e-001  1.400216e+002 
2064937500  2.423219e-001  1.386720e+002 
2087381250  2.444640e-001  1.373247e+002 
2109825000  2.462449e-001  1.360028e+002 
2132268750  2.483318e-001  1.346573e+002 
2154712500  2.502314e-001  1.333677e+002 
2177156250  2.521244e-001  1.321232e+002 
2199600000  2.538058e-001  1.308970e+002 
2222043750  2.555241e-001  1.296092e+002 
2244487500  2.573208e-001  1.282992e+002 
2266931250  2.590159e-001  1.269911e+002 
2289375000  2.604984e-001  1.256599e+002 
2311818750  2.621517e-001  1.243654e+002 
2334262500  2.636573e-001  1.231196e+002 
2356706250  2.650391e-001  1.218505e+002 
2379150000  2.666237e-001  1.205871e+002 
2401593750  2.681999e-001  1.193777e+002 
2424037500  2.692969e-001  1.181082e+002 
2446481250  2.705766e-001  1.168805e+002 
2468925000  2.720062e-001  1.156844e+002 
2491368750  2.731076e-001  1.144837e+002 
2513812500  2.743623e-001  1.132388e+002 
2536256250  2.757351e-001  1.120443e+002 
2558700000  2.770009e-001  1.108004e+002 
2581143750  2.783558e-001  1.096456e+002 
2603587500  2.794479e-001  1.084787e+002 
2626031250  2.808076e-001  1.072641e+002 
2648475000  2.818787e-001  1.061330e+002 
2670918750  2.829829e-001  1.049875e+002 
2693362500  2.839133e-001  1.037863e+002 
2715806250  2.849746e-001  1.026044e+002 
2738250000  2.858829e-001  1.014335e+002 
2760693750  2.869055e-001  1.002581e+002 
2783137500  2.878397e-001  9.912373e+001 
2805581250  2.890618e-001  9.804808e+001 
2828025000  2.901796e-001  9.698299e+001 
2850468750  2.913176e-001  9.589547e+001 
2872912500  2.923487e-001  9.474938e+001 
2895356250  2.931492e-001  9.353609e+001 
2917800000  2.936079e-001  9.235295e+001 
2940243750  2.944416e-001  9.119696e+001 
2962687500  2.949536e-001  9.000137e+001 
2985131250  2.956350e-001  8.887202e+001 
3007575000  2.961664e-001  8.773120e+001 
3030018750  2.964424e-001  8.667893e+001 
3052462500  2.969811e-001  8.558892e+001 
3074906250  2.972890e-001  8.452470e+001 
3097350000  2.974875e-001  8.344043e+001 
3119793750  2.975289e-001  8.240249e+001 
3142237500  2.980414e-001  8.136686e+001 
3164681250  2.983045e-001  8.031271e+001 
3187125000  2.984242e-001  7.932271e+001 
3209568750  2.985427e-001  7.827613e+001 
3232012500  2.987619e-001  7.725186e+001 
3254456250  2.989343e-001  7.628702e+001 
3276900000  2.990365e-001  7.529670e+001 
3299343750  2.989343e-001  7.431843e+001 
3321787500  2.989936e-001  7.336955e+001 
3344231250  2.989927e-001  7.241990e+001 
3366675000  2.990121e-001  7.145459e+001 
3389118750  2.989196e-001  7.051256e+001 
3411562500  2.988496e-001  6.960086e+001 
3434006250  2.990283e-001  6.865855e+001 
3456450000  2.990266e-001  6.778104e+001 
3478893750  2.989821e-001  6.690932e+001 
3501337500  2.990624e-001  6.604794e+001 
3523781250  2.995335e-001  6.519020e+001 
3546225000  2.998956e-001  6.429145e+001 
3568668750  3.003711e-001  6.333490e+001 
3591112500  3.006409e-001  6.236575e+001 
3613556250  3.005032e-001  6.135160e+001 
3636000000  3.005577e-001  6.034614e+001 
3658443750  3.002420e-001  5.937145e+001 
3680887500  2.998531e-001  5.840738e+001 
3703331250  2.991566e-001  5.747409e+001 
3725775000  2.985629e-001  5.657983e+001 
3748218750  2.977068e-001  5.565458e+001 
3770662500  2.969381e-001  5.476925e+001 
3793106250  2.957525e-001  5.390177e+001 
3815550000  2.950310e-001  5.308469e+001 
3837993750  2.939720e-001  5.227805e+001 
3860437500  2.931605e-001  5.146998e+001 
3882881250  2.916944e-001  5.071243e+001 
3905325000  2.908288e-001  4.999387e+001 
3927768750  2.895508e-001  4.932325e+001 
3950212500  2.885275e-001  4.868254e+001 
3972656250  2.875143e-001  4.806776e+001 
3995100000  2.865693e-001  4.743798e+001 
4017543750  2.857182e-001  4.687967e+001 
4039987500  2.850903e-001  4.628345e+001 
4062431250  2.843877e-001  4.569866e+001 
4084875000  2.838433e-001  4.518217e+001 
4107318750  2.835890e-001  4.460627e+001 
4129762500  2.830943e-001  4.408528e+001 
4152206250  2.828371e-001  4.356147e+001 
4174650000  2.824030e-001  4.301308e+001 
4197093750  2.818248e-001  4.247734e+001 
4219537500  2.813980e-001  4.188951e+001 
4241981250  2.810603e-001  4.138836e+001 
4264425000  2.804835e-001  4.088675e+001 
4286868750  2.801729e-001  4.039687e+001 
4309312500  2.797646e-001  3.987453e+001 
4331756250  2.794825e-001  3.949788e+001 
4354200000  2.791696e-001  3.903935e+001 
4376643750  2.790971e-001  3.866390e+001 
4399087500  2.790520e-001  3.819303e+001 
4421531250  2.790071e-001  3.780896e+001 
4443975000  2.786404e-001  3.736667e+001 
4466418750  2.785679e-001  3.702377e+001 
4488862500  2.787317e-001  3.661353e+001 
4511306250  2.787955e-001  3.627105e+001 
4533750000  2.791897e-001  3.593668e+001 
4556193750  2.796878e-001  3.563570e+001 
4578637500  2.799801e-001  3.531403e+001 
4601081250  2.806236e-001  3.501130e+001 
4623525000  2.807626e-001  3.471325e+001 
4645968750  2.814824e-001  3.438861e+001 
4668412500  2.821006e-001  3.409523e+001 
4690856250  2.828931e-001  3.376500e+001 
4713300000  2.836837e-001  3.352333e+001 
4735743750  2.848449e-001  3.331315e+001 
4758187500  2.862709e-001  3.310517e+001 
4780631250  2.878997e-001  3.293336e+001 
4803075000  2.897910e-001  3.269781e+001 
4825518750  2.916749e-001  3.243763e+001 
4847962500  2.937018e-001  3.209937e+001 
4870406250  2.958545e-001  3.181315e+001 
4892850000  2.981382e-001  3.151537e+001 
4915293750  3.008356e-001  3.120754e+001 
4937737500  3.037311e-001  3.087434e+001 
4960181250  3.067341e-001  3.051324e+001 
4982625000  3.097982e-001  3.014588e+001 
5005068750  3.127755e-001  2.980456e+001 
5027512500  3.159096e-001  2.938973e+001 
5049956250  3.193722e-001  2.894840e+001 
5072400000  3.231043e-001  2.846853e+001 
5094843750  3.272366e-001  2.792567e+001 
5117287500  3.312061e-001  2.735074e+001 
5139731250  3.350279e-001  2.670977e+001 
5162175000  3.385725e-001  2.616330e+001 
5184618750  3.426067e-001  2.558263e+001 
5207062500  3.467607e-001  2.500447e+001 
5229506250  3.509249e-001  2.440866e+001 
5251950000  3.553852e-001  2.378358e+001 
5274393750  3.599829e-001  2.312473e+001 
5296837500  3.650326e-001  2.244484e+001 
5319281250  3.701778e-001  2.171803e+001 
5341725000  3.757559e-001  2.096784e+001 
5364168750  3.814047e-001  2.017189e+001 
5386612500  3.870325e-001  1.933239e+001 
5409056250  3.929079e-001  1.848472e+001 
5431500000  3.986026e-001  1.756234e+001 
5453943750  4.043068e-001  1.660186e+001 
5476387500  4.100483e-001  1.563093e+001 
5498831250  4.162725e-001  1.461800e+001 
5521275000  4.226838e-001  1.357693e+001 
5543718750  4.294631e-001  1.245867e+001 
5566162500  4.358130e-001  1.126810e+001 
5588606250  4.423366e-001  1.003105e+001 
5611050000  4.482582e-001  8.800589e+000 
5633493750  4.545422e-001  7.571565e+000 
5655937500  4.608372e-001  6.317269e+000 
5678381250  4.673442e-001  4.981395e+000 
5700825000  4.740441e-001  3.605131e+000 
5723268750  4.804917e-001  2.149278e+000 
5745712500  4.869978e-001  6.138787e-001 
5768156250  4.931028e-001  -9.556977e-001 
5790600000  4.986222e-001  -2.565590e+000 
5813043750  5.038987e-001  -4.176638e+000 
5835487500  5.082000e-001  -5.781226e+000 
5857931250  5.126961e-001  -7.406025e+000 
5880375000  5.169178e-001  -9.006882e+000 
5902818750  5.208999e-001  -1.063240e+001 
5925262500  5.248051e-001  -1.224311e+001 
5947706250  5.289639e-001  -1.391054e+001 
5970150000  5.333809e-001  -1.557645e+001 
5992593750  5.374002e-001  -1.732429e+001 
6015037500  5.405912e-001  -1.906134e+001 
6037481250  5.435516e-001  -2.079237e+001 
6059925000  5.454569e-001  -2.253241e+001 
6082368750  5.475123e-001  -2.422651e+001 
6104812500  5.494306e-001  -2.592698e+001 
6127256250  5.519072e-001  -2.765055e+001 
6149700000  5.538961e-001  -2.938684e+001 
6172143750  5.558031e-001  -3.103579e+001 
6194587500  5.576642e-001  -3.268836e+001 
6217031250  5.598195e-001  -3.435467e+001 
6239475000  5.618690e-001  -3.591658e+001 
6261918750  5.655247e-001  -3.747256e+001 
6284362500  5.706962e-001  -3.911337e+001 
6306806250  5.772508e-001  -4.096235e+001 
6329250000  5.847411e-001  -4.303247e+001 
6351693750  5.915272e-001  -4.545671e+001 
6374137500  5.958280e-001  -4.805523e+001 
6396581250  5.969505e-001  -5.072636e+001 
6419025000  5.956785e-001  -5.334133e+001 
6441468750  5.925777e-001  -5.586476e+001 
6463912500  5.880039e-001  -5.833691e+001 
6486356250  5.825631e-001  -6.060086e+001 
6508800000  5.772719e-001  -6.271487e+001 
6531243750  5.728814e-001  -6.467574e+001 
6553687500  5.711994e-001  -6.661648e+001 
6576131250  5.713015e-001  -6.865305e+001 
6598575000  5.723848e-001  -7.090761e+001 
6621018750  5.733893e-001  -7.346687e+001 
6643462500  5.730363e-001  -7.628446e+001 
6665906250  5.696570e-001  -7.936841e+001 
6688350000  5.636413e-001  -8.253340e+001 
6710793750  5.534190e-001  -8.572517e+001 
6733237500  5.403803e-001  -8.873747e+001 
6755681250  5.255466e-001  -9.151167e+001 
6778125000  5.099860e-001  -9.405622e+001 
6800568750  4.938926e-001  -9.616966e+001 
6823012500  4.793212e-001  -9.798230e+001 
6845456250  4.666000e-001  -9.966801e+001 
6867900000  4.551396e-001  -1.011747e+002 
6890343750  4.460880e-001  -1.026344e+002 
6912787500  4.385503e-001  -1.042498e+002 
6935231250  4.315479e-001  -1.058643e+002 
6957675000  4.247087e-001  -1.075286e+002 
6980118750  4.182984e-001  -1.090679e+002 
7002562500  4.141706e-001  -1.106053e+002 
7025006250  4.113970e-001  -1.122807e+002 
7047450000  4.099874e-001  -1.143604e+002 
7069893750  4.069943e-001  -1.166792e+002 
7092337500  4.029281e-001  -1.191981e+002 
7114781250  3.978828e-001  -1.216805e+002 
7137225000  3.915330e-001  -1.241533e+002 
7159668750  3.860704e-001  -1.265414e+002 
7182112500  3.805744e-001  -1.288595e+002 
7204556250  3.766139e-001  -1.310401e+002 
7227000000  3.748193e-001  -1.335528e+002 
7249443750  3.715779e-001  -1.363817e+002 
7271887500  3.681875e-001  -1.393598e+002 
7294331250  3.636639e-001  -1.423507e+002 
7316775000  3.601209e-001  -1.453740e+002 
7339218750  3.571446e-001  -1.486449e+002 
7361662500  3.537154e-001  -1.522005e+002 
7384106250  3.498769e-001  -1.557993e+002 
7406550000  3.447075e-001  -1.594115e+002 
7428993750  3.400761e-001  -1.631185e+002 
7451437500  3.360395e-001  -1.668966e+002 
7473881250  3.327836e-001  -1.709941e+002 
7496325000  3.285053e-001  -1.755422e+002 
7518768750  3.229695e-001  1.798371e+002 
7541212500  3.160545e-001  1.751652e+002 
7563656250  3.085075e-001  1.705663e+002 
7586100000  3.003538e-001  1.661174e+002 
7608543750  2.934735e-001  1.619785e+002 
7630987500  2.869116e-001  1.578561e+002 
7653431250  2.808127e-001  1.537186e+002 
7675875000  2.764282e-001  1.497987e+002 
7698318750  2.735986e-001  1.460112e+002 
7720762500  2.730889e-001  1.421740e+002 
7743206250  2.751183e-001  1.380044e+002 
7765650000  2.783550e-001  1.335690e+002 
7788093750  2.820228e-001  1.287789e+002 
7810537500  2.859352e-001  1.237888e+002 
7832981250  2.895215e-001  1.186130e+002 
7855425000  2.931947e-001  1.135094e+002 
7877868750  2.966945e-001  1.084916e+002 
7900312500  3.011933e-001  1.035004e+002 
7922756250  3.065561e-001  9.857894e+001 
7945200000  3.131101e-001  9.373571e+001 
7967643750  3.207855e-001  8.876703e+001 
7990087500  3.291307e-001  8.355991e+001 
8012531250  3.370429e-001  7.816000e+001 
8034975000  3.433903e-001  7.276150e+001 
8057418750  3.474461e-001  6.736634e+001 
8079862500  3.494463e-001  6.231106e+001 
8102306250  3.508197e-001  5.763779e+001 
8124750000  3.520248e-001  5.337730e+001 
8147193750  3.539916e-001  4.950404e+001 
8169637500  3.570183e-001  4.585686e+001 
8192081250  3.603723e-001  4.237475e+001 
8214525000  3.648822e-001  3.909236e+001 
8236968750  3.700060e-001  3.586121e+001 
8259412500  3.759359e-001  3.265295e+001 
8281856250  3.812794e-001  2.944534e+001 
8304300000  3.869399e-001  2.643568e+001 
8326743750  3.938719e-001  2.347175e+001 
8349187500  4.011726e-001  2.045888e+001 
8371631250  4.078773e-001  1.738304e+001 
8394075000  4.139877e-001  1.441363e+001 
8416518750  4.192104e-001  1.151549e+001 
8438962500  4.246010e-001  8.729596e+000 
8461406250  4.298066e-001  5.986712e+000 
8483850000  4.346992e-001  3.367975e+000 
8506293750  4.399633e-001  7.975829e-001 
8528737500  4.454652e-001  -1.731763e+000 
8551181250  4.507237e-001  -4.159259e+000 
8573625000  4.560249e-001  -6.582578e+000 
8596068750  4.611719e-001  -8.870499e+000 
8618512500  4.664785e-001  -1.117122e+001 
8640956250  4.717159e-001  -1.340767e+001 
8663400000  4.771474e-001  -1.570661e+001 
8685843750  4.825718e-001  -1.791582e+001 
8708287500  4.879088e-001  -2.011287e+001 
8730731250  4.935206e-001  -2.229325e+001 
8753175000  4.989009e-001  -2.450859e+001 
8775618750  5.036849e-001  -2.671554e+001 
8798062500  5.080935e-001  -2.885690e+001 
8820506250  5.123202e-001  -3.097144e+001 
8842950000  5.163881e-001  -3.302924e+001 
8865393750  5.206592e-001  -3.508125e+001 
8887837500  5.249404e-001  -3.716439e+001 
8910281250  5.287470e-001  -3.922614e+001 
8932725000  5.326054e-001  -4.125154e+001 
8955168750  5.361979e-001  -4.328093e+001 
8977612500  5.394233e-001  -4.528106e+001 
9000056250  5.423439e-001  -4.729371e+001 
9022500000  5.445756e-001  -4.929591e+001 
9044943750  5.462956e-001  -5.123520e+001 
9067387500  5.476729e-001  -5.314353e+001 
9089831250  5.489647e-001  -5.499542e+001 
9112275000  5.501416e-001  -5.678826e+001 
9134718750  5.506083e-001  -5.857883e+001 
9157162500  5.512630e-001  -6.030823e+001 
9179606250  5.521482e-001  -6.194596e+001 
9202050000  5.534871e-001  -6.361630e+001 
9224493750  5.545901e-001  -6.525568e+001 
9246937500  5.554368e-001  -6.685249e+001 
9269381250  5.561275e-001  -6.842210e+001 
9291825000  5.568291e-001  -6.994942e+001 
9314268750  5.579684e-001  -7.143966e+001 
9336712500  5.590984e-001  -7.292307e+001 
9359156250  5.606878e-001  -7.443174e+001 
9381600000  5.621231e-001  -7.593933e+001 
9404043750  5.632590e-001  -7.742835e+001 
9426487500  5.641868e-001  -7.890266e+001 
9448931250  5.648370e-001  -8.040899e+001 
9471375000  5.655655e-001  -8.188538e+001 
9493818750  5.654684e-001  -8.330836e+001 
9516262500  5.655591e-001  -8.465269e+001 
9538706250  5.659855e-001  -8.593056e+001 
9561150000  5.670621e-001  -8.721080e+001 
9583593750  5.685095e-001  -8.844898e+001 
9606037500  5.704253e-001  -8.968540e+001 
9628481250  5.730832e-001  -9.092655e+001 
9650925000  5.755324e-001  -9.219850e+001 
9673368750  5.786185e-001  -9.351481e+001 
9695812500  5.814254e-001  -9.483979e+001 
9718256250  5.848845e-001  -9.617906e+001 
9740700000  5.882667e-001  -9.759845e+001 
9763143750  5.914422e-001  -9.906342e+001 
9785587500  5.939463e-001  -1.005231e+002 
9808031250  5.962906e-001  -1.020420e+002 
9830475000  5.983223e-001  -1.035227e+002 
9852918750  6.002272e-001  -1.050222e+002 
9875362500  6.017774e-001  -1.064743e+002 
9897806250  6.035081e-001  -1.079324e+002 
9920250000  6.042590e-001  -1.094156e+002 
9942693750  6.056700e-001  -1.108653e+002 
9965137500  6.066365e-001  -1.122995e+002 
9987581250  6.078933e-001  -1.137444e+002 
10010025000  6.091734e-001  -1.151610e+002 
10032468750  6.101785e-001  -1.165875e+002 
10054912500  6.112301e-001  -1.180240e+002 
10077356250  6.123731e-001  -1.194098e+002 
10099800000  6.135080e-001  -1.208426e+002 
10122243750  6.142128e-001  -1.222285e+002 
10144687500  6.151268e-001  -1.236299e+002 
10167131250  6.166156e-001  -1.250258e+002 
10189575000  6.175681e-001  -1.264671e+002 
10212018750  6.184074e-001  -1.278858e+002 
10234462500  6.197227e-001  -1.293043e+002 
10256906250  6.205565e-001  -1.307644e+002 
