!Agilent Technologies,E8364A,US41440284,A.06.04.32
!Agilent E8364A: A.06.04.32
!Date: Monday, November 18, 2019 12:37:32
!Correction: S11(Full 1 Port(1)) 
!S1P File: Measurement: S11:
# Hz S  MA   R 50
45000000  4.960428e-003  -1.023741e+002 
67443750  7.173765e-003  -9.771431e+001 
89887500  9.496839e-003  -9.997997e+001 
112331250  1.151029e-002  -9.895383e+001 
134775000  1.397237e-002  -9.712170e+001 
157218750  1.625916e-002  -9.694833e+001 
179662500  1.860034e-002  -9.683337e+001 
202106250  2.111150e-002  -9.759511e+001 
224550000  2.360541e-002  -9.839848e+001 
246993750  2.620441e-002  -9.878826e+001 
269437500  2.858744e-002  -9.958526e+001 
291881250  3.115563e-002  -1.006466e+002 
314325000  3.396378e-002  -1.011577e+002 
336768750  3.676136e-002  -1.024137e+002 
359212500  3.959827e-002  -1.031520e+002 
381656250  4.229300e-002  -1.039472e+002 
404100000  4.510345e-002  -1.048011e+002 
426543750  4.800723e-002  -1.060569e+002 
448987500  5.075569e-002  -1.070295e+002 
471431250  5.364844e-002  -1.079389e+002 
493875000  5.641713e-002  -1.091435e+002 
516318750  5.941092e-002  -1.103740e+002 
538762500  6.228863e-002  -1.115822e+002 
561206250  6.546704e-002  -1.129690e+002 
583650000  6.836488e-002  -1.140292e+002 
606093750  7.133017e-002  -1.152833e+002 
628537500  7.448179e-002  -1.164851e+002 
650981250  7.726356e-002  -1.177509e+002 
673425000  8.017766e-002  -1.189792e+002 
695868750  8.298751e-002  -1.202639e+002 
718312500  8.578179e-002  -1.215882e+002 
740756250  8.855284e-002  -1.229415e+002 
763200000  9.124361e-002  -1.242905e+002 
785643750  9.404222e-002  -1.254792e+002 
808087500  9.693763e-002  -1.267611e+002 
830531250  9.968439e-002  -1.279677e+002 
852975000  1.022001e-001  -1.292169e+002 
875418750  1.045594e-001  -1.303286e+002 
897862500  1.071282e-001  -1.314824e+002 
920306250  1.095941e-001  -1.326191e+002 
942750000  1.119967e-001  -1.337283e+002 
965193750  1.144997e-001  -1.348233e+002 
987637500  1.170598e-001  -1.360090e+002 
1010081250  1.196899e-001  -1.369625e+002 
1032525000  1.222438e-001  -1.378871e+002 
1054968750  1.248878e-001  -1.389702e+002 
1077412500  1.274630e-001  -1.399286e+002 
1099856250  1.301936e-001  -1.408467e+002 
1122300000  1.329836e-001  -1.418725e+002 
1144743750  1.357014e-001  -1.429421e+002 
1167187500  1.385582e-001  -1.439690e+002 
1189631250  1.414874e-001  -1.449210e+002 
1212075000  1.445330e-001  -1.460544e+002 
1234518750  1.476365e-001  -1.471219e+002 
1256962500  1.509219e-001  -1.481618e+002 
1279406250  1.540580e-001  -1.492575e+002 
1301850000  1.573389e-001  -1.503887e+002 
1324293750  1.604891e-001  -1.515809e+002 
1346737500  1.636882e-001  -1.528804e+002 
1369181250  1.666762e-001  -1.541723e+002 
1391625000  1.696729e-001  -1.555663e+002 
1414068750  1.725509e-001  -1.568948e+002 
1436512500  1.749788e-001  -1.582721e+002 
1458956250  1.769990e-001  -1.596362e+002 
1481400000  1.790285e-001  -1.608263e+002 
1503843750  1.806165e-001  -1.618979e+002 
1526287500  1.823578e-001  -1.628670e+002 
1548731250  1.844145e-001  -1.637000e+002 
1571175000  1.870687e-001  -1.645612e+002 
1593618750  1.896288e-001  -1.654645e+002 
1616062500  1.928652e-001  -1.663978e+002 
1638506250  1.961475e-001  -1.673396e+002 
1660950000  1.994214e-001  -1.682934e+002 
1683393750  2.025317e-001  -1.693511e+002 
1705837500  2.058836e-001  -1.704459e+002 
1728281250  2.092536e-001  -1.715513e+002 
1750725000  2.124874e-001  -1.726965e+002 
1773168750  2.155948e-001  -1.738609e+002 
1795612500  2.187115e-001  -1.750067e+002 
1818056250  2.220336e-001  -1.762376e+002 
1840500000  2.251592e-001  -1.774693e+002 
1862943750  2.282070e-001  -1.786855e+002 
1885387500  2.312028e-001  -1.799509e+002 
1907831250  2.342126e-001  1.787874e+002 
1930275000  2.368667e-001  1.775773e+002 
1952718750  2.398575e-001  1.763528e+002 
1975162500  2.427852e-001  1.750610e+002 
1997606250  2.453466e-001  1.738536e+002 
2020050000  2.478349e-001  1.725497e+002 
2042493750  2.505202e-001  1.712843e+002 
2064937500  2.531059e-001  1.699866e+002 
2087381250  2.554662e-001  1.687201e+002 
2109825000  2.579172e-001  1.674629e+002 
2132268750  2.601964e-001  1.661805e+002 
2154712500  2.624485e-001  1.649971e+002 
2177156250  2.645465e-001  1.637230e+002 
2199600000  2.667179e-001  1.624514e+002 
2222043750  2.683693e-001  1.611819e+002 
2244487500  2.702577e-001  1.599415e+002 
2266931250  2.725188e-001  1.586641e+002 
2289375000  2.739623e-001  1.573867e+002 
2311818750  2.753503e-001  1.561671e+002 
2334262500  2.769419e-001  1.550164e+002 
2356706250  2.782317e-001  1.537766e+002 
2379150000  2.795044e-001  1.525841e+002 
2401593750  2.807676e-001  1.514507e+002 
2424037500  2.816733e-001  1.502386e+002 
2446481250  2.825555e-001  1.490716e+002 
2468925000  2.835262e-001  1.480074e+002 
2491368750  2.842922e-001  1.469285e+002 
2513812500  2.850526e-001  1.458093e+002 
2536256250  2.857712e-001  1.448273e+002 
2558700000  2.861845e-001  1.437982e+002 
2581143750  2.866513e-001  1.426909e+002 
2603587500  2.873111e-001  1.417805e+002 
2626031250  2.877478e-001  1.408649e+002 
2648475000  2.882426e-001  1.399366e+002 
2670918750  2.887610e-001  1.390473e+002 
2693362500  2.893811e-001  1.382896e+002 
2715806250  2.901495e-001  1.374178e+002 
2738250000  2.906415e-001  1.365849e+002 
2760693750  2.914253e-001  1.358546e+002 
2783137500  2.925193e-001  1.351285e+002 
2805581250  2.935726e-001  1.343536e+002 
2828025000  2.948207e-001  1.336591e+002 
2850468750  2.964342e-001  1.329781e+002 
2872912500  2.977304e-001  1.322677e+002 
2895356250  2.992824e-001  1.315318e+002 
2917800000  3.011754e-001  1.308791e+002 
2940243750  3.033478e-001  1.301668e+002 
2962687500  3.051611e-001  1.294306e+002 
2985131250  3.073893e-001  1.286897e+002 
3007575000  3.100944e-001  1.279179e+002 
3030018750  3.125456e-001  1.271614e+002 
3052462500  3.151055e-001  1.263436e+002 
3074906250  3.180657e-001  1.255237e+002 
3097350000  3.210862e-001  1.246800e+002 
3119793750  3.235458e-001  1.238366e+002 
3142237500  3.263791e-001  1.229290e+002 
3164681250  3.291762e-001  1.219968e+002 
3187125000  3.318344e-001  1.210574e+002 
3209568750  3.345268e-001  1.200994e+002 
3232012500  3.371106e-001  1.191241e+002 
3254456250  3.398740e-001  1.181585e+002 
3276900000  3.421425e-001  1.171832e+002 
3299343750  3.446712e-001  1.162143e+002 
3321787500  3.472645e-001  1.152559e+002 
3344231250  3.500628e-001  1.143124e+002 
3366675000  3.525530e-001  1.133414e+002 
3389118750  3.555502e-001  1.123069e+002 
3411562500  3.583585e-001  1.112099e+002 
3434006250  3.609087e-001  1.100716e+002 
3456450000  3.631725e-001  1.089490e+002 
3478893750  3.650227e-001  1.078362e+002 
3501337500  3.666708e-001  1.068264e+002 
3523781250  3.688462e-001  1.057860e+002 
3546225000  3.710151e-001  1.047310e+002 
3568668750  3.732841e-001  1.036605e+002 
3591112500  3.751392e-001  1.025465e+002 
3613556250  3.769654e-001  1.014303e+002 
3636000000  3.788319e-001  1.003021e+002 
3658443750  3.805139e-001  9.916500e+001 
3680887500  3.821740e-001  9.803860e+001 
3703331250  3.833504e-001  9.688876e+001 
3725775000  3.846847e-001  9.577618e+001 
3748218750  3.859600e-001  9.467918e+001 
3770662500  3.872335e-001  9.354408e+001 
3793106250  3.878700e-001  9.243889e+001 
3815550000  3.889846e-001  9.134608e+001 
3837993750  3.895572e-001  9.026862e+001 
3860437500  3.903812e-001  8.917100e+001 
3882881250  3.908190e-001  8.808537e+001 
3905325000  3.916549e-001  8.697682e+001 
3927768750  3.919851e-001  8.592522e+001 
3950212500  3.925383e-001  8.485545e+001 
3972656250  3.927634e-001  8.378835e+001 
3995100000  3.931122e-001  8.276927e+001 
4017543750  3.933688e-001  8.175220e+001 
4039987500  3.933693e-001  8.071346e+001 
4062431250  3.933850e-001  7.970478e+001 
4084875000  3.933776e-001  7.868524e+001 
4107318750  3.934340e-001  7.766014e+001 
4129762500  3.935602e-001  7.667541e+001 
4152206250  3.934731e-001  7.570566e+001 
4174650000  3.933777e-001  7.471684e+001 
4197093750  3.931822e-001  7.376701e+001 
4219537500  3.929392e-001  7.278125e+001 
4241981250  3.928607e-001  7.185052e+001 
4264425000  3.923581e-001  7.089607e+001 
4286868750  3.921295e-001  6.996061e+001 
4309312500  3.916080e-001  6.902201e+001 
4331756250  3.912629e-001  6.812355e+001 
4354200000  3.909683e-001  6.719938e+001 
4376643750  3.904656e-001  6.629906e+001 
4399087500  3.901278e-001  6.541919e+001 
4421531250  3.898667e-001  6.455533e+001 
4443975000  3.894069e-001  6.365926e+001 
4466418750  3.889149e-001  6.282937e+001 
4488862500  3.885565e-001  6.193700e+001 
4511306250  3.881167e-001  6.109168e+001 
4533750000  3.877477e-001  6.025771e+001 
4556193750  3.874488e-001  5.941006e+001 
4578637500  3.870220e-001  5.857988e+001 
4601081250  3.868414e-001  5.775187e+001 
4623525000  3.864194e-001  5.695329e+001 
4645968750  3.864851e-001  5.613215e+001 
4668412500  3.864155e-001  5.532230e+001 
4690856250  3.865488e-001  5.446702e+001 
4713300000  3.864512e-001  5.362246e+001 
4735743750  3.863739e-001  5.271181e+001 
4758187500  3.859012e-001  5.181752e+001 
4780631250  3.854343e-001  5.092028e+001 
4803075000  3.846002e-001  5.002586e+001 
4825518750  3.838030e-001  4.917029e+001 
4847962500  3.828224e-001  4.828594e+001 
4870406250  3.818506e-001  4.750602e+001 
4892850000  3.809567e-001  4.672830e+001 
4915293750  3.798231e-001  4.593799e+001 
4937737500  3.789501e-001  4.518224e+001 
4960181250  3.781605e-001  4.441730e+001 
4982625000  3.772533e-001  4.368597e+001 
5005068750  3.763652e-001  4.298481e+001 
5027512500  3.754826e-001  4.225289e+001 
5049956250  3.749066e-001  4.153125e+001 
5072400000  3.740979e-001  4.083719e+001 
5094843750  3.735918e-001  4.012158e+001 
5117287500  3.729334e-001  3.944968e+001 
5139731250  3.722961e-001  3.874570e+001 
5162175000  3.717128e-001  3.806294e+001 
5184618750  3.713303e-001  3.737970e+001 
5207062500  3.707572e-001  3.667815e+001 
5229506250  3.702849e-001  3.600767e+001 
5251950000  3.699332e-001  3.533504e+001 
5274393750  3.693622e-001  3.464829e+001 
5296837500  3.690625e-001  3.398410e+001 
5319281250  3.686182e-001  3.330709e+001 
5341725000  3.683693e-001  3.264333e+001 
5364168750  3.681879e-001  3.197282e+001 
5386612500  3.677610e-001  3.128782e+001 
5409056250  3.676194e-001  3.061914e+001 
5431500000  3.671384e-001  2.994761e+001 
5453943750  3.669114e-001  2.926136e+001 
5476387500  3.665689e-001  2.857157e+001 
5498831250  3.664097e-001  2.788648e+001 
5521275000  3.660996e-001  2.721996e+001 
5543718750  3.657510e-001  2.652606e+001 
5566162500  3.653406e-001  2.584371e+001 
5588606250  3.652716e-001  2.515505e+001 
5611050000  3.649175e-001  2.443550e+001 
5633493750  3.648065e-001  2.374619e+001 
5655937500  3.645974e-001  2.305274e+001 
5678381250  3.643242e-001  2.233030e+001 
5700825000  3.639263e-001  2.161117e+001 
5723268750  3.634131e-001  2.089102e+001 
5745712500  3.627745e-001  2.017799e+001 
5768156250  3.622193e-001  1.947038e+001 
5790600000  3.613018e-001  1.874770e+001 
5813043750  3.607335e-001  1.806468e+001 
5835487500  3.598333e-001  1.735617e+001 
5857931250  3.590822e-001  1.666560e+001 
5880375000  3.584322e-001  1.600117e+001 
5902818750  3.574571e-001  1.530124e+001 
5925262500  3.565378e-001  1.464643e+001 
5947706250  3.554592e-001  1.397320e+001 
5970150000  3.546648e-001  1.332457e+001 
5992593750  3.534137e-001  1.265530e+001 
6015037500  3.520588e-001  1.202642e+001 
6037481250  3.509240e-001  1.141695e+001 
6059925000  3.494719e-001  1.078337e+001 
6082368750  3.481339e-001  1.019458e+001 
6104812500  3.466643e-001  9.625894e+000 
6127256250  3.453314e-001  9.058023e+000 
6149700000  3.438121e-001  8.490783e+000 
6172143750  3.422544e-001  8.006402e+000 
6194587500  3.406543e-001  7.483387e+000 
6217031250  3.390393e-001  6.995481e+000 
6239475000  3.371899e-001  6.569413e+000 
6261918750  3.356273e-001  6.164786e+000 
6284362500  3.340799e-001  5.762637e+000 
6306806250  3.324813e-001  5.404884e+000 
6329250000  3.307316e-001  5.105642e+000 
6351693750  3.292718e-001  4.790090e+000 
6374137500  3.276888e-001  4.579887e+000 
6396581250  3.263178e-001  4.391277e+000 
6419025000  3.250650e-001  4.241220e+000 
6441468750  3.240176e-001  4.140388e+000 
6463912500  3.232120e-001  4.067667e+000 
6486356250  3.223567e-001  4.050776e+000 
6508800000  3.221662e-001  4.026044e+000 
6531243750  3.218972e-001  4.068766e+000 
6553687500  3.220546e-001  4.123541e+000 
6576131250  3.225347e-001  4.188422e+000 
6598575000  3.233106e-001  4.278914e+000 
6621018750  3.247040e-001  4.411882e+000 
6643462500  3.263854e-001  4.496992e+000 
6665906250  3.283449e-001  4.567789e+000 
6688350000  3.308041e-001  4.674403e+000 
6710793750  3.336418e-001  4.729378e+000 
6733237500  3.367916e-001  4.752427e+000 
6755681250  3.400885e-001  4.702599e+000 
6778125000  3.438776e-001  4.664279e+000 
6800568750  3.480645e-001  4.529533e+000 
6823012500  3.521881e-001  4.345004e+000 
6845456250  3.567957e-001  4.097355e+000 
6867900000  3.615240e-001  3.846363e+000 
6890343750  3.663539e-001  3.519871e+000 
6912787500  3.712573e-001  3.174668e+000 
6935231250  3.764688e-001  2.776913e+000 
6957675000  3.816576e-001  2.382985e+000 
6980118750  3.868628e-001  1.932993e+000 
7002562500  3.922971e-001  1.460109e+000 
7025006250  3.979537e-001  9.584867e-001 
7047450000  4.035299e-001  3.908972e-001 
7069893750  4.092385e-001  -1.822397e-001 
7092337500  4.151704e-001  -7.704318e-001 
7114781250  4.211606e-001  -1.397253e+000 
7137225000  4.270020e-001  -2.075377e+000 
7159668750  4.335061e-001  -2.759248e+000 
7182112500  4.400030e-001  -3.488493e+000 
7204556250  4.461563e-001  -4.253248e+000 
7227000000  4.527700e-001  -5.055058e+000 
7249443750  4.594411e-001  -5.880461e+000 
7271887500  4.661582e-001  -6.750396e+000 
7294331250  4.728833e-001  -7.612622e+000 
7316775000  4.796206e-001  -8.555749e+000 
7339218750  4.866030e-001  -9.539599e+000 
7361662500  4.930224e-001  -1.051795e+001 
7384106250  4.999020e-001  -1.153919e+001 
7406550000  5.066959e-001  -1.258578e+001 
7428993750  5.132740e-001  -1.366190e+001 
7451437500  5.199684e-001  -1.475475e+001 
7473881250  5.264971e-001  -1.586627e+001 
7496325000  5.329440e-001  -1.701461e+001 
7518768750  5.389581e-001  -1.817694e+001 
7541212500  5.447289e-001  -1.939131e+001 
7563656250  5.510411e-001  -2.059665e+001 
7586100000  5.567909e-001  -2.180078e+001 
7608543750  5.624608e-001  -2.308372e+001 
7630987500  5.680541e-001  -2.434497e+001 
7653431250  5.732504e-001  -2.560650e+001 
7675875000  5.780639e-001  -2.687465e+001 
7698318750  5.827293e-001  -2.815926e+001 
7720762500  5.876724e-001  -2.941117e+001 
7743206250  5.924042e-001  -3.070314e+001 
7765650000  5.972450e-001  -3.201948e+001 
7788093750  6.015405e-001  -3.335013e+001 
7810537500  6.056352e-001  -3.464574e+001 
7832981250  6.093400e-001  -3.597519e+001 
7855425000  6.129326e-001  -3.729927e+001 
7877868750  6.161504e-001  -3.863580e+001 
7900312500  6.194209e-001  -3.995224e+001 
7922756250  6.224015e-001  -4.128909e+001 
7945200000  6.254082e-001  -4.259769e+001 
7967643750  6.280546e-001  -4.391625e+001 
7990087500  6.307458e-001  -4.519767e+001 
8012531250  6.333161e-001  -4.650167e+001 
8034975000  6.351888e-001  -4.779070e+001 
8057418750  6.374789e-001  -4.909790e+001 
8079862500  6.392252e-001  -5.037447e+001 
8102306250  6.411003e-001  -5.165274e+001 
8124750000  6.428996e-001  -5.290098e+001 
8147193750  6.444748e-001  -5.416323e+001 
8169637500  6.466424e-001  -5.540117e+001 
8192081250  6.481345e-001  -5.663761e+001 
8214525000  6.497238e-001  -5.786808e+001 
8236968750  6.514669e-001  -5.909633e+001 
8259412500  6.533595e-001  -6.031922e+001 
8281856250  6.547887e-001  -6.155296e+001 
8304300000  6.563183e-001  -6.278772e+001 
8326743750  6.581550e-001  -6.400085e+001 
8349187500  6.598065e-001  -6.524162e+001 
8371631250  6.613917e-001  -6.644455e+001 
8394075000  6.631402e-001  -6.768584e+001 
8416518750  6.650240e-001  -6.892095e+001 
8438962500  6.663389e-001  -7.018095e+001 
8461406250  6.678171e-001  -7.142152e+001 
8483850000  6.693373e-001  -7.265370e+001 
8506293750  6.708518e-001  -7.393079e+001 
8528737500  6.722327e-001  -7.518391e+001 
8551181250  6.736646e-001  -7.643083e+001 
8573625000  6.749089e-001  -7.769900e+001 
8596068750  6.755988e-001  -7.894998e+001 
8618512500  6.766458e-001  -8.025819e+001 
8640956250  6.778135e-001  -8.152417e+001 
8663400000  6.786003e-001  -8.283089e+001 
8685843750  6.793719e-001  -8.410947e+001 
8708287500  6.802155e-001  -8.538800e+001 
8730731250  6.806151e-001  -8.666508e+001 
8753175000  6.808826e-001  -8.792367e+001 
8775618750  6.812235e-001  -8.921000e+001 
8798062500  6.816826e-001  -9.048007e+001 
8820506250  6.818998e-001  -9.179060e+001 
8842950000  6.820198e-001  -9.302541e+001 
8865393750  6.817904e-001  -9.429323e+001 
8887837500  6.817228e-001  -9.557092e+001 
8910281250  6.814778e-001  -9.683624e+001 
8932725000  6.813192e-001  -9.809566e+001 
8955168750  6.810359e-001  -9.935832e+001 
8977612500  6.806789e-001  -1.006250e+002 
9000056250  6.801575e-001  -1.018794e+002 
9022500000  6.794938e-001  -1.031328e+002 
9044943750  6.790470e-001  -1.043672e+002 
9067387500  6.784858e-001  -1.056095e+002 
9089831250  6.778656e-001  -1.068453e+002 
9112275000  6.769166e-001  -1.080602e+002 
9134718750  6.756895e-001  -1.093145e+002 
9157162500  6.747595e-001  -1.105511e+002 
9179606250  6.742181e-001  -1.117779e+002 
9202050000  6.731516e-001  -1.130149e+002 
9224493750  6.725457e-001  -1.142116e+002 
9246937500  6.719530e-001  -1.154127e+002 
9269381250  6.709533e-001  -1.166305e+002 
9291825000  6.699331e-001  -1.178152e+002 
9314268750  6.688942e-001  -1.190112e+002 
9336712500  6.675980e-001  -1.202150e+002 
9359156250  6.665921e-001  -1.214417e+002 
9381600000  6.657216e-001  -1.226224e+002 
9404043750  6.645384e-001  -1.238341e+002 
9426487500  6.632912e-001  -1.250066e+002 
9448931250  6.621978e-001  -1.261915e+002 
9471375000  6.612260e-001  -1.273668e+002 
9493818750  6.598465e-001  -1.285585e+002 
9516262500  6.586152e-001  -1.297427e+002 
9538706250  6.571218e-001  -1.309234e+002 
9561150000  6.562569e-001  -1.321317e+002 
9583593750  6.547356e-001  -1.333196e+002 
9606037500  6.538220e-001  -1.345081e+002 
9628481250  6.523131e-001  -1.356851e+002 
9650925000  6.507206e-001  -1.368447e+002 
9673368750  6.499580e-001  -1.380184e+002 
9695812500  6.479404e-001  -1.391799e+002 
9718256250  6.465153e-001  -1.403262e+002 
9740700000  6.449201e-001  -1.414805e+002 
9763143750  6.434411e-001  -1.426560e+002 
9785587500  6.417147e-001  -1.437956e+002 
9808031250  6.400014e-001  -1.449723e+002 
9830475000  6.381360e-001  -1.461222e+002 
9852918750  6.366653e-001  -1.472785e+002 
9875362500  6.345935e-001  -1.484303e+002 
9897806250  6.332643e-001  -1.495589e+002 
9920250000  6.310885e-001  -1.506982e+002 
9942693750  6.293845e-001  -1.518357e+002 
9965137500  6.274627e-001  -1.529329e+002 
9987581250  6.253720e-001  -1.540718e+002 
10010025000  6.235350e-001  -1.551895e+002 
10032468750  6.215696e-001  -1.562787e+002 
10054912500  6.195900e-001  -1.573739e+002 
10077356250  6.176711e-001  -1.584550e+002 
10099800000  6.159005e-001  -1.595520e+002 
10122243750  6.139210e-001  -1.606126e+002 
10144687500  6.116759e-001  -1.616732e+002 
10167131250  6.098437e-001  -1.627233e+002 
10189575000  6.077349e-001  -1.637755e+002 
10212018750  6.054163e-001  -1.648165e+002 
10234462500  6.038482e-001  -1.658537e+002 
