!Agilent Technologies,E8364A,US41440284,A.06.04.32
!Agilent E8364A: A.06.04.32
!Date: Monday, November 18, 2019 12:36:42
!Correction: S11(Full 1 Port(1)) 
!S1P File: Measurement: S11:
# Hz S  MA   R 50
45000000  4.349058e-003  -1.159373e+002 
67443750  7.242403e-003  -1.017938e+002 
89887500  1.005329e-002  -1.024219e+002 
112331250  1.207795e-002  -1.021276e+002 
134775000  1.475313e-002  -9.931932e+001 
157218750  1.725881e-002  -9.843235e+001 
179662500  1.978413e-002  -9.882634e+001 
202106250  2.228730e-002  -9.917394e+001 
224550000  2.513488e-002  -9.935991e+001 
246993750  2.823817e-002  -1.000399e+002 
269437500  3.137719e-002  -1.014539e+002 
291881250  3.402202e-002  -1.038422e+002 
314325000  3.623546e-002  -1.048615e+002 
336768750  3.882511e-002  -1.056728e+002 
359212500  4.163478e-002  -1.061643e+002 
381656250  4.429945e-002  -1.066855e+002 
404100000  4.716370e-002  -1.074485e+002 
426543750  5.011411e-002  -1.086122e+002 
448987500  5.297924e-002  -1.096070e+002 
471431250  5.602342e-002  -1.104292e+002 
493875000  5.889499e-002  -1.116954e+002 
516318750  6.201132e-002  -1.128597e+002 
538762500  6.492102e-002  -1.140689e+002 
561206250  6.820696e-002  -1.154328e+002 
583650000  7.122608e-002  -1.165044e+002 
606093750  7.422367e-002  -1.177322e+002 
628537500  7.741055e-002  -1.189824e+002 
650981250  8.023821e-002  -1.202478e+002 
673425000  8.324540e-002  -1.216040e+002 
695868750  8.619794e-002  -1.228935e+002 
718312500  8.900455e-002  -1.242988e+002 
740756250  9.197400e-002  -1.256350e+002 
763200000  9.466787e-002  -1.269848e+002 
785643750  9.751678e-002  -1.282283e+002 
808087500  1.004349e-001  -1.295495e+002 
830531250  1.031050e-001  -1.308350e+002 
852975000  1.057554e-001  -1.321301e+002 
875418750  1.081407e-001  -1.333655e+002 
897862500  1.107156e-001  -1.346388e+002 
920306250  1.132434e-001  -1.358563e+002 
942750000  1.157311e-001  -1.370337e+002 
965193750  1.181903e-001  -1.382044e+002 
987637500  1.207653e-001  -1.394523e+002 
1010081250  1.234388e-001  -1.405441e+002 
1032525000  1.259182e-001  -1.415788e+002 
1054968750  1.285216e-001  -1.427285e+002 
1077412500  1.310178e-001  -1.438671e+002 
1099856250  1.337225e-001  -1.449300e+002 
1122300000  1.364699e-001  -1.461107e+002 
1144743750  1.390576e-001  -1.472852e+002 
1167187500  1.417182e-001  -1.484979e+002 
1189631250  1.445274e-001  -1.496552e+002 
1212075000  1.473283e-001  -1.509414e+002 
1234518750  1.501323e-001  -1.522499e+002 
1256962500  1.528700e-001  -1.535449e+002 
1279406250  1.554620e-001  -1.549255e+002 
1301850000  1.579881e-001  -1.563298e+002 
1324293750  1.600487e-001  -1.578442e+002 
1346737500  1.619903e-001  -1.594145e+002 
1369181250  1.633267e-001  -1.609548e+002 
1391625000  1.642623e-001  -1.625282e+002 
1414068750  1.646246e-001  -1.638619e+002 
1436512500  1.642089e-001  -1.650870e+002 
1458956250  1.635541e-001  -1.659926e+002 
1481400000  1.631518e-001  -1.664991e+002 
1503843750  1.632850e-001  -1.666588e+002 
1526287500  1.641418e-001  -1.666808e+002 
1548731250  1.660755e-001  -1.666383e+002 
1571175000  1.690850e-001  -1.667380e+002 
1593618750  1.724130e-001  -1.670037e+002 
1616062500  1.762518e-001  -1.674942e+002 
1638506250  1.803318e-001  -1.681292e+002 
1660950000  1.843887e-001  -1.689066e+002 
1683393750  1.880929e-001  -1.697936e+002 
1705837500  1.921956e-001  -1.707265e+002 
1728281250  1.961280e-001  -1.717464e+002 
1750725000  1.998483e-001  -1.728620e+002 
1773168750  2.033892e-001  -1.739549e+002 
1795612500  2.070035e-001  -1.751032e+002 
1818056250  2.103882e-001  -1.762851e+002 
1840500000  2.138434e-001  -1.774986e+002 
1862943750  2.170813e-001  -1.786842e+002 
1885387500  2.202944e-001  -1.799660e+002 
1907831250  2.233060e-001  1.788081e+002 
1930275000  2.260878e-001  1.776010e+002 
1952718750  2.291360e-001  1.763396e+002 
1975162500  2.321085e-001  1.750932e+002 
1997606250  2.346661e-001  1.738796e+002 
2020050000  2.371653e-001  1.726311e+002 
2042493750  2.398646e-001  1.713632e+002 
2064937500  2.423222e-001  1.700903e+002 
2087381250  2.445846e-001  1.688409e+002 
2109825000  2.469360e-001  1.676315e+002 
2132268750  2.492164e-001  1.663874e+002 
2154712500  2.515546e-001  1.652261e+002 
2177156250  2.534930e-001  1.639940e+002 
2199600000  2.557278e-001  1.627555e+002 
2222043750  2.573918e-001  1.615475e+002 
2244487500  2.592005e-001  1.603132e+002 
2266931250  2.612672e-001  1.590618e+002 
2289375000  2.626854e-001  1.578599e+002 
2311818750  2.640643e-001  1.566676e+002 
2334262500  2.656078e-001  1.555235e+002 
2356706250  2.668964e-001  1.543736e+002 
2379150000  2.681769e-001  1.532314e+002 
2401593750  2.693893e-001  1.521230e+002 
2424037500  2.702111e-001  1.509578e+002 
2446481250  2.711385e-001  1.498700e+002 
2468925000  2.720325e-001  1.488591e+002 
2491368750  2.728061e-001  1.477654e+002 
2513812500  2.736249e-001  1.467222e+002 
2536256250  2.742939e-001  1.457347e+002 
2558700000  2.748090e-001  1.447739e+002 
2581143750  2.753834e-001  1.437440e+002 
2603587500  2.760364e-001  1.429044e+002 
2626031250  2.765664e-001  1.420032e+002 
2648475000  2.772206e-001  1.411496e+002 
2670918750  2.777415e-001  1.403379e+002 
2693362500  2.784515e-001  1.396273e+002 
2715806250  2.790364e-001  1.388265e+002 
2738250000  2.796288e-001  1.380809e+002 
2760693750  2.807255e-001  1.373960e+002 
2783137500  2.819140e-001  1.367521e+002 
2805581250  2.831153e-001  1.360377e+002 
2828025000  2.843733e-001  1.354007e+002 
2850468750  2.862379e-001  1.347505e+002 
2872912500  2.878468e-001  1.341149e+002 
2895356250  2.895401e-001  1.334316e+002 
2917800000  2.913923e-001  1.328602e+002 
2940243750  2.939116e-001  1.321956e+002 
2962687500  2.960210e-001  1.314990e+002 
2985131250  2.985110e-001  1.308188e+002 
3007575000  3.013308e-001  1.300999e+002 
3030018750  3.041764e-001  1.293869e+002 
3052462500  3.068227e-001  1.286002e+002 
3074906250  3.100370e-001  1.278196e+002 
3097350000  3.133025e-001  1.270328e+002 
3119793750  3.160170e-001  1.262111e+002 
3142237500  3.190653e-001  1.253455e+002 
3164681250  3.223898e-001  1.244585e+002 
3187125000  3.254487e-001  1.235400e+002 
3209568750  3.282667e-001  1.226066e+002 
3232012500  3.313496e-001  1.216389e+002 
3254456250  3.342855e-001  1.207088e+002 
3276900000  3.371232e-001  1.197487e+002 
3299343750  3.399667e-001  1.187737e+002 
3321787500  3.428485e-001  1.178221e+002 
3344231250  3.457563e-001  1.168824e+002 
3366675000  3.487499e-001  1.159119e+002 
3389118750  3.520994e-001  1.148830e+002 
3411562500  3.552446e-001  1.138093e+002 
3434006250  3.582332e-001  1.126965e+002 
3456450000  3.606752e-001  1.115568e+002 
3478893750  3.628679e-001  1.104639e+002 
3501337500  3.648735e-001  1.094460e+002 
3523781250  3.672886e-001  1.084318e+002 
3546225000  3.701000e-001  1.074219e+002 
3568668750  3.726528e-001  1.063177e+002 
3591112500  3.751099e-001  1.052383e+002 
3613556250  3.774486e-001  1.040798e+002 
3636000000  3.796928e-001  1.029825e+002 
3658443750  3.816859e-001  1.018356e+002 
3680887500  3.838648e-001  1.007112e+002 
3703331250  3.856048e-001  9.956038e+001 
3725775000  3.873290e-001  9.843060e+001 
3748218750  3.889992e-001  9.731300e+001 
3770662500  3.907329e-001  9.617681e+001 
3793106250  3.920700e-001  9.507167e+001 
3815550000  3.936181e-001  9.394834e+001 
3837993750  3.945535e-001  9.284909e+001 
3860437500  3.957765e-001  9.175082e+001 
3882881250  3.966311e-001  9.064617e+001 
3905325000  3.980540e-001  8.953352e+001 
3927768750  3.987739e-001  8.844772e+001 
3950212500  3.998227e-001  8.736196e+001 
3972656250  4.006636e-001  8.627123e+001 
3995100000  4.014349e-001  8.521004e+001 
4017543750  4.020886e-001  8.415028e+001 
4039987500  4.027625e-001  8.309033e+001 
4062431250  4.031963e-001  8.205918e+001 
4084875000  4.036394e-001  8.101051e+001 
4107318750  4.040761e-001  7.994891e+001 
4129762500  4.046506e-001  7.894226e+001 
4152206250  4.051237e-001  7.792287e+001 
4174650000  4.056899e-001  7.686914e+001 
4197093750  4.057417e-001  7.587242e+001 
4219537500  4.059466e-001  7.484605e+001 
4241981250  4.063182e-001  7.385679e+001 
4264425000  4.062708e-001  7.284205e+001 
4286868750  4.063959e-001  7.185155e+001 
4309312500  4.064639e-001  7.086385e+001 
4331756250  4.064904e-001  6.989780e+001 
4354200000  4.064588e-001  6.890517e+001 
4376643750  4.065039e-001  6.794964e+001 
4399087500  4.064979e-001  6.699199e+001 
4421531250  4.065061e-001  6.604869e+001 
4443975000  4.063162e-001  6.508379e+001 
4466418750  4.063548e-001  6.416983e+001 
4488862500  4.063323e-001  6.322923e+001 
4511306250  4.062161e-001  6.229151e+001 
4533750000  4.059512e-001  6.137145e+001 
4556193750  4.059249e-001  6.045541e+001 
4578637500  4.057570e-001  5.952931e+001 
4601081250  4.059023e-001  5.862172e+001 
4623525000  4.055572e-001  5.773340e+001 
4645968750  4.059034e-001  5.682150e+001 
4668412500  4.059764e-001  5.591678e+001 
4690856250  4.062071e-001  5.497760e+001 
4713300000  4.061544e-001  5.404463e+001 
4735743750  4.062688e-001  5.304287e+001 
4758187500  4.058838e-001  5.205568e+001 
4780631250  4.056325e-001  5.107404e+001 
4803075000  4.052196e-001  5.009095e+001 
4825518750  4.043095e-001  4.913166e+001 
4847962500  4.033517e-001  4.815955e+001 
4870406250  4.024886e-001  4.727666e+001 
4892850000  4.011996e-001  4.639227e+001 
4915293750  4.001814e-001  4.548651e+001 
4937737500  3.992655e-001  4.460127e+001 
4960181250  3.985491e-001  4.374133e+001 
4982625000  3.974357e-001  4.289337e+001 
5005068750  3.963143e-001  4.207811e+001 
5027512500  3.954327e-001  4.124332e+001 
5049956250  3.943996e-001  4.040018e+001 
5072400000  3.933745e-001  3.957912e+001 
5094843750  3.925506e-001  3.875445e+001 
5117287500  3.916809e-001  3.797093e+001 
5139731250  3.906840e-001  3.717686e+001 
5162175000  3.895430e-001  3.638221e+001 
5184618750  3.889002e-001  3.559729e+001 
5207062500  3.879175e-001  3.480242e+001 
5229506250  3.869129e-001  3.404654e+001 
5251950000  3.861225e-001  3.326963e+001 
5274393750  3.850832e-001  3.249503e+001 
5296837500  3.843698e-001  3.173425e+001 
5319281250  3.835591e-001  3.095232e+001 
5341725000  3.826025e-001  3.020261e+001 
5364168750  3.818127e-001  2.944526e+001 
5386612500  3.809020e-001  2.867615e+001 
5409056250  3.802100e-001  2.793457e+001 
5431500000  3.792570e-001  2.718487e+001 
5453943750  3.783574e-001  2.645202e+001 
5476387500  3.774605e-001  2.569100e+001 
5498831250  3.766667e-001  2.492772e+001 
5521275000  3.755457e-001  2.420483e+001 
5543718750  3.748342e-001  2.343619e+001 
5566162500  3.735789e-001  2.270465e+001 
5588606250  3.729189e-001  2.196101e+001 
5611050000  3.719265e-001  2.120210e+001 
5633493750  3.711460e-001  2.043832e+001 
5655937500  3.701309e-001  1.968730e+001 
5678381250  3.692949e-001  1.890594e+001 
5700825000  3.681988e-001  1.813449e+001 
5723268750  3.668136e-001  1.736931e+001 
5745712500  3.652597e-001  1.660012e+001 
5768156250  3.637892e-001  1.588118e+001 
5790600000  3.623110e-001  1.512813e+001 
5813043750  3.607496e-001  1.441120e+001 
5835487500  3.590882e-001  1.369062e+001 
5857931250  3.574852e-001  1.298170e+001 
5880375000  3.560424e-001  1.229385e+001 
5902818750  3.543324e-001  1.160398e+001 
5925262500  3.525291e-001  1.093421e+001 
5947706250  3.506243e-001  1.026561e+001 
5970150000  3.490564e-001  9.626863e+000 
5992593750  3.471329e-001  8.943064e+000 
6015037500  3.449502e-001  8.314337e+000 
6037481250  3.429848e-001  7.723874e+000 
6059925000  3.407093e-001  7.120049e+000 
6082368750  3.385967e-001  6.530627e+000 
6104812500  3.362512e-001  5.984998e+000 
6127256250  3.341324e-001  5.442943e+000 
6149700000  3.316432e-001  4.912426e+000 
6172143750  3.292308e-001  4.456493e+000 
6194587500  3.268560e-001  3.965755e+000 
6217031250  3.243391e-001  3.547679e+000 
6239475000  3.216535e-001  3.176030e+000 
6261918750  3.191314e-001  2.849373e+000 
6284362500  3.168657e-001  2.533941e+000 
6306806250  3.142975e-001  2.271580e+000 
6329250000  3.115922e-001  2.076660e+000 
6351693750  3.092368e-001  1.886851e+000 
6374137500  3.067539e-001  1.814485e+000 
6396581250  3.045127e-001  1.782217e+000 
6419025000  3.025653e-001  1.807092e+000 
6441468750  3.005051e-001  1.903622e+000 
6463912500  2.990881e-001  2.043619e+000 
6486356250  2.976088e-001  2.230838e+000 
6508800000  2.967627e-001  2.472813e+000 
6531243750  2.958919e-001  2.792466e+000 
6553687500  2.957337e-001  3.116251e+000 
6576131250  2.959072e-001  3.444304e+000 
6598575000  2.962723e-001  3.848581e+000 
6621018750  2.975718e-001  4.260870e+000 
6643462500  2.991459e-001  4.676353e+000 
6665906250  3.013367e-001  5.032973e+000 
6688350000  3.039549e-001  5.391049e+000 
6710793750  3.070866e-001  5.741692e+000 
6733237500  3.107496e-001  6.003696e+000 
6755681250  3.145685e-001  6.207520e+000 
6778125000  3.189964e-001  6.386890e+000 
6800568750  3.237613e-001  6.446235e+000 
6823012500  3.285311e-001  6.470610e+000 
6845456250  3.340350e-001  6.373761e+000 
6867900000  3.396360e-001  6.307675e+000 
6890343750  3.453182e-001  6.107066e+000 
6912787500  3.510928e-001  5.875872e+000 
6935231250  3.573173e-001  5.567092e+000 
6957675000  3.635340e-001  5.246699e+000 
6980118750  3.697256e-001  4.857400e+000 
7002562500  3.761161e-001  4.436049e+000 
7025006250  3.828641e-001  3.986465e+000 
7047450000  3.895012e-001  3.456804e+000 
7069893750  3.963670e-001  2.891510e+000 
7092337500  4.033378e-001  2.313770e+000 
7114781250  4.105317e-001  1.696563e+000 
7137225000  4.174919e-001  1.030808e+000 
7159668750  4.249352e-001  3.080620e-001 
7182112500  4.324816e-001  -4.476689e-001 
7204556250  4.397794e-001  -1.243033e+000 
7227000000  4.475494e-001  -2.089470e+000 
7249443750  4.554177e-001  -2.958118e+000 
7271887500  4.630134e-001  -3.894218e+000 
7294331250  4.707727e-001  -4.818370e+000 
7316775000  4.783950e-001  -5.823267e+000 
7339218750  4.863610e-001  -6.852582e+000 
7361662500  4.939200e-001  -7.919045e+000 
7384106250  5.013104e-001  -9.017226e+000 
7406550000  5.091507e-001  -1.012821e+001 
7428993750  5.164663e-001  -1.129368e+001 
7451437500  5.234773e-001  -1.245689e+001 
7473881250  5.310541e-001  -1.365886e+001 
7496325000  5.380860e-001  -1.488033e+001 
7518768750  5.449252e-001  -1.611693e+001 
7541212500  5.515413e-001  -1.739180e+001 
7563656250  5.580013e-001  -1.867510e+001 
7586100000  5.644168e-001  -1.997027e+001 
7608543750  5.703800e-001  -2.131779e+001 
7630987500  5.765196e-001  -2.264887e+001 
7653431250  5.821398e-001  -2.398546e+001 
7675875000  5.874907e-001  -2.532998e+001 
7698318750  5.923378e-001  -2.668464e+001 
7720762500  5.975052e-001  -2.798993e+001 
7743206250  6.023529e-001  -2.931729e+001 
7765650000  6.075172e-001  -3.066953e+001 
7788093750  6.121855e-001  -3.207156e+001 
7810537500  6.165130e-001  -3.341980e+001 
7832981250  6.203855e-001  -3.479927e+001 
7855425000  6.242291e-001  -3.616091e+001 
7877868750  6.279553e-001  -3.755667e+001 
7900312500  6.313738e-001  -3.892113e+001 
7922756250  6.344703e-001  -4.030661e+001 
7945200000  6.376162e-001  -4.165591e+001 
7967643750  6.403922e-001  -4.302287e+001 
7990087500  6.430710e-001  -4.435109e+001 
8012531250  6.457339e-001  -4.567926e+001 
8034975000  6.479917e-001  -4.700913e+001 
8057418750  6.502506e-001  -4.834451e+001 
8079862500  6.522750e-001  -4.964913e+001 
8102306250  6.543063e-001  -5.096555e+001 
8124750000  6.560412e-001  -5.224392e+001 
8147193750  6.580217e-001  -5.354903e+001 
8169637500  6.599069e-001  -5.481829e+001 
8192081250  6.615496e-001  -5.608981e+001 
8214525000  6.634070e-001  -5.734866e+001 
8236968750  6.651493e-001  -5.861399e+001 
8259412500  6.670337e-001  -5.985886e+001 
8281856250  6.687185e-001  -6.110833e+001 
8304300000  6.705959e-001  -6.239080e+001 
8326743750  6.726105e-001  -6.364890e+001 
8349187500  6.743273e-001  -6.490993e+001 
8371631250  6.757705e-001  -6.614500e+001 
8394075000  6.776414e-001  -6.742195e+001 
8416518750  6.795937e-001  -6.868021e+001 
8438962500  6.811094e-001  -6.996210e+001 
8461406250  6.825271e-001  -7.122884e+001 
8483850000  6.844140e-001  -7.248943e+001 
8506293750  6.858611e-001  -7.380340e+001 
8528737500  6.873538e-001  -7.508440e+001 
8551181250  6.888289e-001  -7.636720e+001 
8573625000  6.900594e-001  -7.766032e+001 
8596068750  6.908428e-001  -7.896390e+001 
8618512500  6.918907e-001  -8.026124e+001 
8640956250  6.927966e-001  -8.157139e+001 
8663400000  6.937053e-001  -8.289638e+001 
8685843750  6.944447e-001  -8.419587e+001 
8708287500  6.953533e-001  -8.549335e+001 
8730731250  6.959336e-001  -8.680457e+001 
8753175000  6.961563e-001  -8.808797e+001 
8775618750  6.965494e-001  -8.939378e+001 
8798062500  6.968517e-001  -9.068136e+001 
8820506250  6.969645e-001  -9.201181e+001 
8842950000  6.972353e-001  -9.328690e+001 
8865393750  6.968918e-001  -9.457578e+001 
8887837500  6.967381e-001  -9.587533e+001 
8910281250  6.965997e-001  -9.716100e+001 
8932725000  6.962026e-001  -9.844390e+001 
8955168750  6.961450e-001  -9.972208e+001 
8977612500  6.955768e-001  -1.010102e+002 
9000056250  6.950769e-001  -1.022767e+002 
9022500000  6.946537e-001  -1.035535e+002 
9044943750  6.940760e-001  -1.048149e+002 
9067387500  6.935169e-001  -1.060713e+002 
9089831250  6.929383e-001  -1.073360e+002 
9112275000  6.917968e-001  -1.085776e+002 
9134718750  6.907756e-001  -1.098460e+002 
9157162500  6.895730e-001  -1.111127e+002 
9179606250  6.890543e-001  -1.123519e+002 
9202050000  6.880326e-001  -1.136032e+002 
9224493750  6.873441e-001  -1.148358e+002 
9246937500  6.865207e-001  -1.160556e+002 
9269381250  6.854222e-001  -1.172902e+002 
9291825000  6.842254e-001  -1.184882e+002 
9314268750  6.834893e-001  -1.197109e+002 
9336712500  6.819665e-001  -1.209266e+002 
9359156250  6.808307e-001  -1.221733e+002 
9381600000  6.797785e-001  -1.233684e+002 
9404043750  6.788239e-001  -1.245918e+002 
9426487500  6.773265e-001  -1.257806e+002 
9448931250  6.764508e-001  -1.270092e+002 
9471375000  6.751918e-001  -1.281951e+002 
9493818750  6.738642e-001  -1.294077e+002 
9516262500  6.724172e-001  -1.306297e+002 
9538706250  6.706159e-001  -1.318080e+002 
9561150000  6.696332e-001  -1.330387e+002 
9583593750  6.682546e-001  -1.342526e+002 
9606037500  6.666843e-001  -1.354355e+002 
9628481250  6.653720e-001  -1.366298e+002 
9650925000  6.634513e-001  -1.377943e+002 
9673368750  6.623770e-001  -1.389752e+002 
9695812500  6.605106e-001  -1.401609e+002 
9718256250  6.590342e-001  -1.413238e+002 
9740700000  6.573512e-001  -1.424947e+002 
9763143750  6.557689e-001  -1.436851e+002 
9785587500  6.539318e-001  -1.448397e+002 
9808031250  6.520038e-001  -1.460275e+002 
9830475000  6.503296e-001  -1.471850e+002 
9852918750  6.484848e-001  -1.483494e+002 
9875362500  6.464731e-001  -1.494947e+002 
9897806250  6.450107e-001  -1.506482e+002 
9920250000  6.424841e-001  -1.517945e+002 
9942693750  6.407878e-001  -1.529433e+002 
9965137500  6.387053e-001  -1.540569e+002 
9987581250  6.366033e-001  -1.551941e+002 
10010025000  6.348605e-001  -1.562970e+002 
10032468750  6.328451e-001  -1.574146e+002 
10054912500  6.306511e-001  -1.585410e+002 
10077356250  6.287416e-001  -1.596268e+002 
10099800000  6.267059e-001  -1.607523e+002 
10122243750  6.246028e-001  -1.618231e+002 
10144687500  6.222877e-001  -1.629095e+002 
10167131250  6.202405e-001  -1.639820e+002 
10189575000  6.182048e-001  -1.650424e+002 
10212018750  6.157777e-001  -1.660860e+002 
10234462500  6.137581e-001  -1.671467e+002 
