! MDIF file - written using SXPWrite.m
# MHz S RI R 50
67.4437	-5.97304667121113e-06	-0.000109075277302983	0.980145332283452	-0.179372719513619	0.980515973085411	-0.179439493379805	1.89846736038218e-05	0.000133966261918776	
89.8875	-3.34401444697637e-06	-0.000120482800526937	0.967422913214145	-0.237574026838616	0.967066292867469	-0.237085455952205	5.84349697307215e-05	0.00010428129561747	
112.3312	-3.80850221761795e-05	-8.67394929895259e-05	0.950729246709875	-0.294329190937461	0.950386232190779	-0.294114409502224	-2.03137616354056e-06	-2.3539723209303e-06	
134.775	-8.83785051755788e-06	-9.26873227930678e-05	0.931288605113787	-0.350011572179255	0.930584038854939	-0.349501484567752	1.21129058921855e-05	-3.25270131492312e-05	
157.2188	-5.54603464055415e-05	-0.000119681653171494	0.907860751885021	-0.404107872822558	0.908010246811148	-0.403932425627187	7.04725775585246e-05	-7.9113717028612e-05	
179.6625	-9.75545086806916e-05	-0.000146646429695667	0.881859643911713	-0.456917511064441	0.881831222291823	-0.45668976783798	9.7487779563962e-05	-0.000122181604128534	
202.1062	-0.000181038024237109	-0.000169091535740815	0.852843788212427	-0.507898089074983	0.852740780774233	-0.507637181232487	9.95567591728145e-05	-0.00016184617762052	
224.55	-0.000209268700513004	-0.000154404316853567	0.820784929643617	-0.557090167950394	0.820629344246248	-0.556565820205189	0.000134841142026216	-0.000153398033364504	
246.9937	-0.00023072818318604	-0.000135077470196832	0.786046525936955	-0.604423386069905	0.785310701470979	-0.602915244997326	0.000130395347941546	-0.000230455655276244	
269.4375	-0.000296864530991858	-0.000164164398720567	0.74717534107755	-0.647892527813248	0.750646060833745	-0.650042936293925	7.14804380444366e-05	-0.000315577407270724	
291.8812	-0.000367745678335184	-6.5277115913938e-05	0.709050840894541	-0.691584497424719	0.707516668105438	-0.691428483379184	3.46814612196398e-05	-0.000433225166851746	
314.325	-0.0003684803731953	-2.76979663119457e-05	0.666281865791578	-0.732059114039272	0.665795717164949	-0.731109211160376	-4.12526389778958e-05	-0.000513484622854382	
336.7688	-0.000419989779621776	-4.42166352701437e-05	0.621193876334323	-0.769325480988881	0.621369453417066	-0.768661026917915	-8.67790129633883e-05	-0.000612357765136378	
359.2125	-0.000495647523070372	-6.9175939290511e-05	0.574252348045624	-0.803834294876402	0.574665665950422	-0.803617926668897	-0.000138435478312406	-0.000692170682546067	
381.6563	-0.000609918444850711	-9.34986608504485e-05	0.525773594023253	-0.835836416345414	0.525906761161973	-0.83527416492921	-0.000154509214363984	-0.000731777444313573	
404.1	-0.000759616025154458	-8.75049218316831e-05	0.475307726125126	-0.86450603723705	0.475770554614311	-0.864448602405684	-0.000246317319243642	-0.000826528015183061	
426.5437	-0.000871275033594563	-6.76009686965676e-05	0.423343958275565	-0.890367095942314	0.423862338782988	-0.890569076987124	-0.000383852069133084	-0.000803263125820242	
448.9875	-0.000998816087700218	6.54910708962183e-05	0.370431954290931	-0.913747884082114	0.370358472822785	-0.912932127447044	-0.000528529554350655	-0.000841458854479912	
471.4312	-0.00100286303289875	0.0002462974567439	0.316053763176475	-0.933365749325255	0.315710550499615	-0.933072962218303	-0.000702538841743705	-0.000848436003080016	
493.875	-0.00102170601244318	0.000344994904416987	0.260032484834239	-0.949658548892701	0.260312197077469	-0.949710815269215	-0.000863797673606139	-0.000902048037736454	
516.3188	-0.00108162556319949	0.000448135812444732	0.203367486342318	-0.962743693511421	0.204479028176249	-0.96231579754301	-0.00102343771161045	-0.000906256540597319	
538.7625	-0.00115592814781518	0.000548896147197438	0.146820560955201	-0.972583075647008	0.147324438157548	-0.971806209570949	-0.00116735138141172	-0.000907699127417093	
561.2062	-0.00122300845100092	0.000642170323363729	0.0889850894221689	-0.978862134722356	0.0900878302762834	-0.978584370827604	-0.00128357989835847	-0.000903484536402773	
583.65	-0.00132704978691959	0.000751483596565593	0.0316861286472158	-0.98191326668288	0.0320592454091294	-0.981722148740231	-0.00138940934525499	-0.000887466574749479	
606.0938	-0.00142152316175408	0.000851075387514809	-0.0260720378895012	-0.981687181855522	-0.0254912825106325	-0.980896456389168	-0.001511878315198	-0.00083258420017873	
628.5375	-0.00150676914285477	0.000982132210675084	-0.0836463170017486	-0.977813765287448	-0.0833000223094559	-0.977190485084005	-0.00167776799050523	-0.000813113141081548	
650.9812	-0.00156766235438459	0.00116763410901939	-0.140845753629816	-0.970260634989973	-0.140182415113632	-0.970564335028445	-0.00187479986941434	-0.000763484435217448	
673.425	-0.00161126774152286	0.00137044826932334	-0.197497032996859	-0.960242724586933	-0.196989532937808	-0.959861194295785	-0.00213640315402003	-0.000730854599857329	
695.8687	-0.00162570233852896	0.00162818188473679	-0.253315916609571	-0.946050117502927	-0.252825940862635	-0.946117085693328	-0.00238385860814659	-0.00064990779987998	
718.3125	-0.00167265473687735	0.00186869051691595	-0.308333369043333	-0.929047254294073	-0.307882016096211	-0.929057159438203	-0.00263268230438989	-0.000503009169244475	
740.7563	-0.00167374993078806	0.00211634286461793	-0.362198112074347	-0.909193258564687	-0.361455936172603	-0.909158370702911	-0.00280108516317267	-0.000368242339464107	
763.2	-0.00172508377514943	0.00237290622214245	-0.41451257007873	-0.88533107781688	-0.413832081040389	-0.885361267563687	-0.00296753104161374	-0.000206135299177604	
785.6437	-0.0017694126596506	0.00257567760504673	-0.46577277801969	-0.859815634420991	-0.46490602064817	-0.858864907910133	-0.0031117437640947	-9.74476582376884e-05	
808.0875	-0.00177040683013603	0.0027960539345419	-0.514960840823737	-0.83030032007026	-0.514122514578378	-0.829829702495168	-0.00325639717266551	6.415502769333e-05	
830.5313	-0.0016641669965655	0.0030094730512649	-0.562072429679235	-0.797696804170019	-0.562273097828207	-0.798180999207063	-0.00336336648461656	0.000289012067560765	
852.975	-0.00153786220317498	0.00320161558701431	-0.607907006183329	-0.762744746824378	-0.60755956161401	-0.76322362359286	-0.00345457357689691	0.000536784486632894	
875.4187	-0.00141642926198844	0.00340341501503693	-0.651223161701276	-0.725529427250518	-0.651261562502134	-0.72591113887755	-0.00353699351336485	0.000769175772582976	
897.8625	-0.00126909463753838	0.00362246223900978	-0.692755542087061	-0.685648839328859	-0.692183679935407	-0.686165335629014	-0.00360566518879697	0.00104753406454625	
920.3062	-0.00105478958618576	0.00378110190165639	-0.731397965036829	-0.643439386358888	-0.730873572241631	-0.643789321452081	-0.00359021014529338	0.00132706877939426	
942.75	-0.000871652239034381	0.0039605873660788	-0.767059874426608	-0.59872365910008	-0.767092617954002	-0.599605633556193	-0.00356033057670955	0.00157074555835064	
965.1937	-0.000679518217143134	0.00403637045060968	-0.800704727932863	-0.552404800742596	-0.800388860274341	-0.553130075046039	-0.00356708292889499	0.00176820290372532	
987.6375	-0.000404907823047923	0.00407895367008771	-0.831526492058368	-0.503984150780132	-0.830662499282224	-0.504536231887677	-0.00343958401001545	0.00196853880404612	
1010.0812	-0.000223848827580624	0.00405800459017967	-0.858927365275463	-0.453829536145692	-0.858341218068343	-0.454647815681293	-0.0033484013325104	0.00211511970917508	
1032.525	-7.86274140326101e-05	0.00400207368432348	-0.884510677027923	-0.40285643149192	-0.883159830080302	-0.402944646735497	-0.00329098071351238	0.00224875097396208	
1054.9688	0.00019161090450251	0.00396417390515916	-0.905629164189043	-0.349626837509186	-0.905279901270229	-0.350358655087639	-0.00312199757371967	0.00244489503535406	
1077.4125	0.000399353232649538	0.00387262606844039	-0.924302437401681	-0.295885318380345	-0.923919046778187	-0.295968627717108	-0.00290524541758029	0.00251470175810266	
1099.8563	0.000603030735095173	0.0037357275057075	-0.939426792974374	-0.240198467140395	-0.939033318049949	-0.240893018223167	-0.00271558287844219	0.00261120641488772	
1122.3	0.000819941344446872	0.00361249293334101	-0.950805813715413	-0.184405477970363	-0.951396087843756	-0.185102975198197	-0.00248102647476634	0.00268681420258249	
1144.7437	0.00102240446937777	0.00350593410810748	-0.960105927769956	-0.127885194209406	-0.96024876236134	-0.12852645735409	-0.00224021726651581	0.00269909449943533	
1167.1875	0.00115809986859164	0.00320495350241747	-0.965784673220276	-0.0713369189169339	-0.965624834257706	-0.0719035769198222	-0.00195128060386286	0.00258887404353237	
1189.6312	0.00125663801876543	0.00290346628674294	-0.967549353200162	-0.0141287236295157	-0.968063913549504	-0.0149165382389879	-0.00174163948231689	0.0024517253816978	
1212.075	0.00130914039611864	0.00254539782629558	-0.966076606421649	0.0426484900966608	-0.966408160905972	0.0420256767627498	-0.00154223126726424	0.00230241426669614	
1234.5187	0.00136800890621314	0.0021762199073861	-0.961569109420995	0.0994639061436038	-0.961361718225748	0.0990673310312572	-0.00137209760395068	0.00209376660534146	
1256.9625	0.0013483727171455	0.00182652026326741	-0.953633026193461	0.155754088165738	-0.953703110406115	0.155207970680465	-0.00121192680294266	0.00190482557373956	
1279.4063	0.00128775885663537	0.00145214557752033	-0.942508303649284	0.211711506611557	-0.94243015135924	0.211151141188977	-0.00115576934297051	0.00170139167341652	
1301.85	0.00121313126837082	0.00112043284310089	-0.927196048142047	0.266569448483394	-0.92798086993088	0.26608827694393	-0.00102121692096366	0.00149873523026802	
1324.2938	0.00112348749936874	0.000741996064580712	-0.909937898876379	0.320523938071903	-0.909911788332878	0.319661841242162	-0.000929263443112719	0.00121264461660667	
1346.7375	0.000900701490002107	0.000333847003451138	-0.888621747690914	0.372989651680558	-0.889186088777245	0.372528748420408	-0.00101522144567816	0.0010130027606469	
1369.1812	0.000790240072611576	0.000282672117743714	-0.86537789324465	0.424195240699779	-0.86513525887492	0.423694962726564	-0.000685840153323102	0.000867837123806734	
1391.625	0.00066899920634047	9.40549069913468e-06	-0.838209760284159	0.474053392626614	-0.838371567805767	0.473278288504799	-0.000778795594706891	0.000633966609363167	
1414.0687	0.00050909721146592	-0.000201931717032613	-0.808889681020294	0.521973145742802	-0.809128364674596	0.521553648985384	-0.000856554368528963	0.000493401503794468	
1436.5125	0.000340377252529888	-0.000341575765331209	-0.776495407928892	0.568725790135106	-0.776576592403918	0.568202529127284	-0.000907257311165049	0.000383275047403908	
1458.9562	0.000197978143719466	-0.000449995253451067	-0.741366754870582	0.612580077409218	-0.741546083224498	0.611997516765201	-0.000953560374697225	0.000299908297744082	
1481.4	8.67548052957333e-05	-0.000547676979674854	-0.703679486670995	0.654421014581952	-0.70369396224128	0.654125545612997	-0.000990965073735498	0.000267463189135024	
1503.8438	2.59950278828099e-05	-0.000657679053041385	-0.663999381482938	0.694229138321396	-0.664251209743771	0.694161263463807	-0.00101880580357824	0.00027374952559952	
1526.2875	-3.03057443593707e-05	-0.000760299493023692	-0.622113033182403	0.732139854165729	-0.621810806051325	0.731242454567637	-0.000982432365208379	0.000287592351912466	
1548.7312	-4.38747078826568e-05	-0.000839128738551221	-0.577504810418107	0.766491289717909	-0.577735280357698	0.766570322673298	-0.000965656727474426	0.000381799655164284	
1571.175	-2.00465179350528e-05	-0.00093055993362995	-0.530838769146797	0.798413842450284	-0.531245873270866	0.798158432032351	-0.000917648269009392	0.000544671552171934	
1593.6187	1.12169124587126e-05	-0.00104995744405724	-0.483111733442899	0.827699232397216	-0.483429500019957	0.827180518199456	-0.000844606864795224	0.000745214263541514	
1616.0625	-0.000153386689508051	-0.00102347035481368	-0.433555281997559	0.854266798390523	-0.434216257271294	0.854020175044765	-0.000860527589878922	0.000712389133997455	
1638.5062	-0.000582339828487591	-0.000687868969300883	-0.382831780099961	0.877691229782008	-0.383379653044805	0.877803343041033	-0.00118033816349014	0.000466700446162397	
1660.95	-0.00100851238515134	0.000288179576996488	-0.330630968894776	0.898093029992665	-0.330998955756922	0.897949479248442	-0.00204118343005261	0.000275258770517699	
1683.3937	0.000961689063364267	0.0018740720862394	-0.277228648299106	0.914668548187208	-0.277550458861435	0.914649179447997	-0.00296741604945837	0.0021891923348074	
1705.8375	0.00170500093941868	-0.000357652290628954	-0.223126837475827	0.92897436277858	-0.223954197792339	0.929259974858711	-0.000907604911047245	0.00260492323353106	
1728.2813	0.000942459711266401	-0.000971135433887264	-0.168531823995355	0.940169916797491	-0.169059480157277	0.939914981326642	-0.000346869073635313	0.00191052879128638	
1750.725	0.000445680530454245	-0.00110420296998062	-0.113173270227282	0.94779632345072	-0.113600255405282	0.947680959077346	-0.000165361605074082	0.00155610190501556	
1773.1687	7.63033667038899e-05	-0.00110621719076937	-0.0571289888041503	0.952117027115971	-0.0576098544709646	0.952148076958188	-0.000149069988103573	0.00133726702063882	
1795.6125	-0.000135019440949818	-0.00103026770984837	-0.00116109805131112	0.953569810434075	-0.00181431534246057	0.952791606983242	-6.76408098584419e-05	0.00123136570509497	
1818.0562	-0.000377146482202545	-0.000925488505037221	0.0548202459492406	0.951410283546608	0.0542015452516176	0.950791248188743	-0.000151246002988173	0.00110050121210634	
1840.5	-0.000486485656735547	-0.000789313320468333	0.110395500207491	0.945816821663909	0.109574450568318	0.945644803075521	-0.000123944554967914	0.000939672562544904	
1862.9437	-0.000522558860826032	-0.000563260338648946	0.165293043250657	0.936676575608021	0.164817751360289	0.937306277128163	-0.000210037661826728	0.000799074899523479	
1885.3875	-0.000539617153746111	-0.00037258208373688	0.219899539254698	0.924943445282044	0.219255242767623	0.925162993626347	-0.000300831785825092	0.00062911146966773	
1907.8312	-0.000546421210757457	-0.00014268237010043	0.273961220183326	0.910595975810859	0.272943748474005	0.910152386498109	-0.000395078424408126	0.000433818419954269	
1930.275	-0.00076224064734432	-0.000166531406572059	0.326279519879596	0.892328841440282	0.325410020185963	0.892565058249653	-0.000348312504347866	0.000444275292466713	
1952.7188	-0.00103357490640402	-0.000254606808138722	0.377373636031269	0.870401581625815	0.376872915542399	0.870718399694557	-0.000148185604326417	0.000571504600806408	
1975.1625	-0.00194417092414907	-0.000458549719499086	0.427792025438553	0.847360340070312	0.427408401313482	0.847373051281874	0.000627062020082592	0.000685578411777497	
1997.6062	-0.00385887995684586	0.000638397433933391	0.4766446435891	0.819857473572723	0.476055763731349	0.819700844820716	0.00227787341424234	-0.000836157989027677	
2020.05	-0.00261053149398084	0.00349752882557682	0.523670249250315	0.790458494438129	0.523200595246216	0.79037974168304	-0.000125227988605047	-0.00325090730432179	
2042.4937	-0.000975881668246882	0.00325964799732795	0.56875294546909	0.757735053479505	0.568371820961955	0.758322725195271	-0.00168542911742349	-0.00226133148329635	
2064.9375	-0.000494582407305874	0.00289811180738714	0.611507678015804	0.722610067357143	0.611657191900275	0.723288631656092	-0.00210713082017925	-0.00156191277939392	
2087.3812	-0.000260933419295987	0.00280449712161901	0.652486600630172	0.685103518621901	0.652024546272669	0.68554311685558	-0.00227739871209682	-0.00113022360846658	
2109.825	-4.64973349300839e-05	0.00279811712088246	0.691193608101456	0.645502588453046	0.690909362427846	0.646260936857268	-0.00237747287884856	-0.000870873301614103	
2132.2687	0.000139119545964635	0.00271633881392169	0.726913261655453	0.603995510761542	0.727533069028378	0.604771577003782	-0.00242459523326539	-0.000679203846063437	
2154.7125	0.000235812356655527	0.00266015499285064	0.760811742504901	0.559904359243397	0.760839595060843	0.560590390699647	-0.00246733649692785	-0.000572604186664706	
2177.1563	0.000338309432620336	0.00262222735093821	0.791617092335961	0.513892758688233	0.791881970368295	0.51504851626651	-0.00248818999876629	-0.000488235351016414	
2199.6	0.000524409296729987	0.00254547694574769	0.819577163233976	0.466649586981481	0.820012511552669	0.467609475968982	-0.00255249173624143	-0.000412206854824805	
2222.0437	0.000692457014164698	0.00237242605612089	0.845721789049102	0.418133613020665	0.845151215665829	0.418625011900527	-0.00254517154429691	-0.000339196301429612	
2244.4875	0.000789827659509992	0.0022000241245404	0.868624129647253	0.367869859998586	0.868184992292966	0.36853855901314	-0.00252655528288002	-0.00028893762583336	
2266.9313	0.000908598581636779	0.00204531271564534	0.887762001348156	0.316414255493002	0.888003466327918	0.316923423310376	-0.00247717111463392	-0.000252876002123106	
2289.375	0.00102793171787022	0.00188233702714019	0.904289694986559	0.264022442472612	0.904375690092293	0.264395790606497	-0.0023688657572395	-0.000199452027853594	
2311.8187	0.00108339925952612	0.00159422159812123	0.917258314659861	0.210670543264552	0.917773692619612	0.211397769185543	-0.00219015927256076	-0.000173448955051451	
2334.2625	0.000975726388122662	0.00128708539099019	0.928034808353469	0.157324009470586	0.927987113896284	0.157575025854648	-0.0019505646957242	-0.000208068894989414	
2356.7062	0.000833415118049023	0.00106047673347529	0.935382613657421	0.103043528361851	0.935158921443274	0.103528117748813	-0.00183911913326755	-0.000248845156865735	
2379.15	0.000692033906931794	0.000754252279022977	0.93948494498581	0.0486770264240124	0.938916560857542	0.0487782479430182	-0.00165274644424195	-0.000323508095222193	
2401.5938	0.000453508066365109	0.000445574303672138	0.940345776018944	-0.00618659954256344	0.939329214753205	-0.00550589086494216	-0.00146855022146995	-0.000463597404449866	
2424.0375	0.000237522885891702	0.000228606494798402	0.93766890269749	-0.0606193465884297	0.937248637480482	-0.0604114231335643	-0.00130328752862324	-0.00060273400841626	
2446.4812	3.44736828074911e-05	3.55181415869589e-05	0.931887583860375	-0.115501827373554	0.932042187861085	-0.114756526474033	-0.00107718232270925	-0.000728518981909564	
2468.925	-0.000153617886167962	-0.000138724750324598	0.923474165162541	-0.1695127298051	0.923355322381927	-0.169068272779936	-0.000856232184797989	-0.000908016769640082	
2491.3688	-0.000411375151547105	-0.000233361409889506	0.9116416022625	-0.222969845823442	0.911788878284646	-0.222507247289672	-0.000605300896896249	-0.00107139462578012	
2513.8125	-0.000654026610197981	-0.000326397436399078	0.896607464935144	-0.27590217784671	0.896330837932274	-0.274791630586288	-0.000475521849274205	-0.00129774739135944	
2536.2562	-0.00090231530141733	-0.000375645506808091	0.878228374712908	-0.327293075294974	0.878716633889346	-0.32639605052	-0.000335087733537379	-0.00144403792885931	
2558.7	-0.00119616307873857	-0.000444545429417985	0.857111394980143	-0.377629423528447	0.857439834432309	-0.376965769548842	-0.000228415268750714	-0.00164760827092119	
2581.1437	-0.00154529822853342	-0.000460520916559871	0.833435234009521	-0.426712065819837	0.833370646255468	-0.425846668093963	-0.000196378187487372	-0.00187956680269816	
2603.5875	-0.0018449136751632	-0.000397856062381641	0.806734062717787	-0.474110948027799	0.80707644856018	-0.473534991835208	-0.000187489023033583	-0.00209461794708204	
2626.0313	-0.00207441182252656	-0.000290452386872817	0.777373495133988	-0.519903663685837	0.777578947110053	-0.519060638266379	-0.000183954394557712	-0.00225181812526723	
2648.475	-0.00228875408457459	-0.000139767856265438	0.745180457796586	-0.56382446071289	0.745850522319799	-0.563116616845812	-0.000147604618389192	-0.00243367806067562	
2670.9187	-0.00244237151906565	1.10967679173185e-05	0.71076596072248	-0.605886864830506	0.711992610821457	-0.605503333633608	-0.000120961513805859	-0.00261021731155885	
