!Agilent Technologies,E8364A,US41440284,A.06.04.32
!Agilent E8364A: A.06.04.32
!Date: Friday, December 06, 2019 10:54:46
!Correction: S11(Full 2 Port(1,2)) S21(Full 2 Port(1,2)) S12(Full 2 Port(1,2)) S22(Full 2 Port(1,2)) 
!S2P File: Measurements: S11, S21, S12, S22:
# Hz S  MA   R 50
45000000 1.317326e-002 -9.984762e+001 9.960157e-001 -1.193186e+001 9.955666e-001 -1.191337e+001 1.476095e-002 -1.017740e+002
67443750 2.029805e-002 -1.039102e+002 9.936218e-001 -1.776026e+001 9.940670e-001 -1.776137e+001 2.127275e-002 -1.043779e+002
89887500 2.718462e-002 -1.098006e+002 9.925687e-001 -2.361091e+001 9.926182e-001 -2.359012e+001 2.805814e-002 -1.092813e+002
112331250 3.392170e-002 -1.160233e+002 9.905121e-001 -2.943825e+001 9.905944e-001 -2.943151e+001 3.469162e-002 -1.163163e+002
134775000 4.050333e-002 -1.235570e+002 9.892202e-001 -3.523122e+001 9.891904e-001 -3.522161e+001 4.069469e-002 -1.236238e+002
157218750 4.655762e-002 -1.309625e+002 9.877321e-001 -4.102829e+001 9.879414e-001 -4.101863e+001 4.621106e-002 -1.301173e+002
179662500 5.188157e-002 -1.373402e+002 9.863847e-001 -4.681905e+001 9.865047e-001 -4.681018e+001 5.202681e-002 -1.361207e+002
202106250 5.751150e-002 -1.429235e+002 9.847543e-001 -5.260707e+001 9.849355e-001 -5.260027e+001 5.739154e-002 -1.421679e+002
224550000 6.262020e-002 -1.495054e+002 9.832768e-001 -5.835891e+001 9.834043e-001 -5.834443e+001 6.264644e-002 -1.478499e+002
246993750 6.680326e-002 -1.551730e+002 9.815689e-001 -6.412366e+001 9.809860e-001 -6.409784e+001 6.709190e-002 -1.534610e+002
269437500 7.116586e-002 -1.608466e+002 9.803486e-001 -6.982588e+001 9.829413e-001 -6.980160e+001 7.120211e-002 -1.590829e+002
291881250 7.511325e-002 -1.670228e+002 9.796611e-001 -7.564256e+001 9.791898e-001 -7.567246e+001 7.439704e-002 -1.653264e+002
314325000 7.845018e-002 -1.733288e+002 9.780537e-001 -8.139578e+001 9.777918e-001 -8.138314e+001 7.737952e-002 -1.712999e+002
336768750 8.119350e-002 -1.796832e+002 9.765320e-001 -8.714146e+001 9.765705e-001 -8.712129e+001 8.031863e-002 -1.773619e+002
359212500 8.319507e-002 1.740185e+002 9.751403e-001 -9.288020e+001 9.754834e-001 -9.286189e+001 8.262368e-002 1.765295e+002
381656250 8.431983e-002 1.679347e+002 9.742210e-001 -9.861296e+001 9.743030e-001 -9.859657e+001 8.438723e-002 1.706144e+002
404100000 8.492346e-002 1.621020e+002 9.729450e-001 -1.043475e+002 9.734390e-001 -1.043313e+002 8.554303e-002 1.651394e+002
426543750 8.520754e-002 1.561720e+002 9.718753e-001 -1.100616e+002 9.724299e-001 -1.100500e+002 8.616126e-002 1.595316e+002
448987500 8.528824e-002 1.503678e+002 9.712631e-001 -1.157836e+002 9.711226e-001 -1.157739e+002 8.604030e-002 1.537779e+002
471431250 8.490856e-002 1.442672e+002 9.703695e-001 -1.215061e+002 9.702415e-001 -1.215100e+002 8.527765e-002 1.478938e+002
493875000 8.449841e-002 1.379180e+002 9.694221e-001 -1.272420e+002 9.695343e-001 -1.272277e+002 8.391846e-002 1.417627e+002
516318750 8.342876e-002 1.315034e+002 9.685565e-001 -1.329595e+002 9.686502e-001 -1.329164e+002 8.203756e-002 1.354499e+002
538762500 8.161031e-002 1.251515e+002 9.676689e-001 -1.386790e+002 9.675167e-001 -1.386441e+002 7.995129e-002 1.291391e+002
561206250 7.871443e-002 1.191107e+002 9.670832e-001 -1.444195e+002 9.671547e-001 -1.443641e+002 7.764609e-002 1.231811e+002
583650000 7.505981e-002 1.130100e+002 9.668356e-001 -1.501305e+002 9.668663e-001 -1.501139e+002 7.498411e-002 1.173363e+002
606093750 7.104989e-002 1.069687e+002 9.663291e-001 -1.558492e+002 9.661318e-001 -1.558319e+002 7.143595e-002 1.116124e+002
628537500 6.678939e-002 1.009823e+002 9.653758e-001 -1.615779e+002 9.652116e-001 -1.615671e+002 6.738567e-002 1.057605e+002
650981250 6.232992e-002 9.485197e+001 9.648499e-001 -1.673126e+002 9.650201e-001 -1.672931e+002 6.296772e-002 1.001500e+002
673425000 5.784069e-002 8.817372e+001 9.642768e-001 -1.730463e+002 9.642507e-001 -1.730289e+002 5.784575e-002 9.423473e+001
695868750 5.310686e-002 8.127815e+001 9.634286e-001 -1.787769e+002 9.635389e-001 -1.787676e+002 5.242434e-002 8.792323e+001
718312500 4.831082e-002 7.469230e+001 9.627087e-001 1.754806e+002 9.629313e-001 1.754933e+002 4.676868e-002 8.174454e+001
740756250 4.283448e-002 6.802584e+001 9.624173e-001 1.697465e+002 9.625441e-001 1.697656e+002 4.119233e-002 7.487230e+001
763200000 3.671443e-002 6.123787e+001 9.617449e-001 1.640117e+002 9.615120e-001 1.640267e+002 3.517276e-002 6.839886e+001
785643750 3.031688e-002 5.477969e+001 9.613796e-001 1.582664e+002 9.609067e-001 1.582788e+002 2.905885e-002 6.165677e+001
808087500 2.405496e-002 4.802093e+001 9.605151e-001 1.525270e+002 9.602079e-001 1.525404e+002 2.300965e-002 5.525417e+001
830531250 1.774790e-002 3.965496e+001 9.592700e-001 1.467905e+002 9.598864e-001 1.467910e+002 1.693752e-002 4.731645e+001
852975000 1.159326e-002 2.592788e+001 9.584736e-001 1.410397e+002 9.588726e-001 1.410573e+002 1.037480e-002 3.481483e+001
875418750 6.110098e-003 -5.120248e-001 9.577165e-001 1.353014e+002 9.581186e-001 1.353081e+002 4.279547e-003 5.871791e+000
897862500 4.384942e-003 -7.077000e+001 9.570527e-001 1.295511e+002 9.572249e-001 1.295755e+002 3.825624e-003 -1.004899e+002
920306250 8.297808e-003 -1.222286e+002 9.559969e-001 1.238165e+002 9.562539e-001 1.238329e+002 9.509142e-003 -1.300524e+002
942750000 1.412386e-002 -1.412159e+002 9.549919e-001 1.180712e+002 9.554750e-001 1.180966e+002 1.548831e-002 -1.424271e+002
965193750 1.998194e-002 -1.534350e+002 9.542163e-001 1.123359e+002 9.544036e-001 1.123632e+002 2.127754e-002 -1.512930e+002
987637500 2.570018e-002 -1.624018e+002 9.533746e-001 1.066033e+002 9.532354e-001 1.066308e+002 2.672661e-002 -1.593335e+002
1010081250 3.114827e-002 -1.705438e+002 9.518802e-001 1.008787e+002 9.521204e-001 1.009117e+002 3.196048e-002 -1.661996e+002
1032525000 3.647691e-002 -1.774463e+002 9.515157e-001 9.514932e+001 9.511045e-001 9.517119e+001 3.732233e-002 -1.726071e+002
1054968750 4.125877e-002 1.760505e+002 9.501988e-001 8.942907e+001 9.504194e-001 8.945497e+001 4.223217e-002 -1.787150e+002
1077412500 4.597068e-002 1.698504e+002 9.490812e-001 8.371641e+001 9.490349e-001 8.372477e+001 4.672056e-002 1.752522e+002
1099856250 5.034916e-002 1.634758e+002 9.479101e-001 7.798018e+001 9.480905e-001 7.800647e+001 5.097051e-002 1.694766e+002
1122300000 5.461797e-002 1.568446e+002 9.463815e-001 7.227404e+001 9.470322e-001 7.229311e+001 5.505912e-002 1.632716e+002
1144743750 5.815700e-002 1.503238e+002 9.456424e-001 6.655131e+001 9.459393e-001 6.657471e+001 5.831386e-002 1.569770e+002
1167187500 6.113077e-002 1.440374e+002 9.449397e-001 6.085892e+001 9.448598e-001 6.087542e+001 6.093352e-002 1.508661e+002
1189631250 6.366395e-002 1.379164e+002 9.438439e-001 5.514269e+001 9.441612e-001 5.516808e+001 6.345052e-002 1.452457e+002
1212075000 6.558295e-002 1.318857e+002 9.429978e-001 4.943742e+001 9.433828e-001 4.946090e+001 6.580300e-002 1.393122e+002
1234518750 6.699717e-002 1.258139e+002 9.421603e-001 4.373837e+001 9.423500e-001 4.375158e+001 6.749340e-002 1.333935e+002
1256962500 6.810663e-002 1.199368e+002 9.414960e-001 3.803876e+001 9.415411e-001 3.805833e+001 6.852050e-002 1.275904e+002
1279406250 6.895103e-002 1.139246e+002 9.407063e-001 3.233254e+001 9.406686e-001 3.234996e+001 6.910951e-002 1.219132e+002
1301850000 6.939486e-002 1.076612e+002 9.394774e-001 2.662511e+001 9.400473e-001 2.664581e+001 6.945340e-002 1.158654e+002
1324293750 6.972675e-002 1.012458e+002 9.389459e-001 2.092038e+001 9.388995e-001 2.094895e+001 6.891658e-002 1.097557e+002
1346737500 6.935386e-002 9.496127e+001 9.379746e-001 1.522217e+001 9.385362e-001 1.524409e+001 6.798699e-002 1.037201e+002
1369181250 6.854071e-002 8.880679e+001 9.374924e-001 9.523884e+000 9.373816e-001 9.536160e+000 6.682321e-002 9.802425e+001
1391625000 6.667962e-002 8.283864e+001 9.367250e-001 3.810525e+000 9.368669e-001 3.839048e+000 6.541101e-002 9.192304e+001
1414068750 6.466034e-002 7.659677e+001 9.362498e-001 -1.881683e+000 9.364888e-001 -1.864950e+000 6.336450e-002 8.581635e+001
1436512500 6.178567e-002 7.089661e+001 9.358140e-001 -7.603427e+000 9.359523e-001 -7.585780e+000 6.093537e-002 8.032888e+001
1458956250 5.892326e-002 6.487455e+001 9.352221e-001 -1.330007e+001 9.350643e-001 -1.327855e+001 5.823022e-002 7.475956e+001
1481400000 5.579651e-002 5.832681e+001 9.346803e-001 -1.900031e+001 9.345370e-001 -1.899519e+001 5.495687e-002 6.875293e+001
1503843750 5.267831e-002 5.170831e+001 9.339807e-001 -2.470929e+001 9.342594e-001 -2.470094e+001 5.123596e-002 6.220176e+001
1526287500 4.928293e-002 4.494899e+001 9.337165e-001 -3.042823e+001 9.335309e-001 -3.041707e+001 4.723195e-002 5.583117e+001
1548731250 4.520532e-002 3.820355e+001 9.330600e-001 -3.614124e+001 9.331851e-001 -3.613723e+001 4.292684e-002 4.980094e+001
1571175000 4.084771e-002 3.136102e+001 9.322117e-001 -4.186533e+001 9.324830e-001 -4.184990e+001 3.837588e-002 4.328893e+001
1593618750 3.622150e-002 2.481382e+001 9.317125e-001 -4.758619e+001 9.317030e-001 -4.756795e+001 3.393860e-002 3.690431e+001
1616062500 3.152522e-002 1.820640e+001 9.312496e-001 -5.330819e+001 9.314191e-001 -5.328459e+001 2.949039e-002 3.054570e+001
1638506250 2.647649e-002 1.072199e+001 9.305659e-001 -5.902997e+001 9.309828e-001 -5.901694e+001 2.468369e-002 2.341542e+001
1660950000 2.148765e-002 1.840856e+000 9.297622e-001 -6.475053e+001 9.300417e-001 -6.473753e+001 1.949771e-002 1.579444e+001
1683393750 1.678982e-002 -7.761265e+000 9.288175e-001 -7.047854e+001 9.289709e-001 -7.046814e+001 1.456347e-002 6.931075e+000
1705837500 1.223172e-002 -2.192071e+001 9.279704e-001 -7.621175e+001 9.285284e-001 -7.618295e+001 9.574254e-003 -6.390911e+000
1728281250 7.775901e-003 -4.711612e+001 9.273198e-001 -8.192772e+001 9.275122e-001 -8.190176e+001 4.897417e-003 -3.802533e+001
1750725000 5.421371e-003 -9.749551e+001 9.265293e-001 -8.764384e+001 9.266345e-001 -8.762568e+001 4.024361e-003 -1.219202e+002
1773168750 7.098855e-003 -1.489641e+002 9.256389e-001 -9.336889e+001 9.257269e-001 -9.335502e+001 7.635958e-003 -1.618191e+002
1795612500 1.117178e-002 -1.742373e+002 9.249040e-001 -9.909035e+001 9.245761e-001 -9.906874e+001 1.193590e-002 -1.765277e+002
1818056250 1.568389e-002 1.710781e+002 9.238945e-001 -1.048021e+002 9.237570e-001 -1.047863e+002 1.623521e-002 1.739698e+002
1840500000 2.006534e-002 1.606360e+002 9.231883e-001 -1.105259e+002 9.230230e-001 -1.104936e+002 2.116007e-002 1.659737e+002
1862943750 2.458715e-002 1.520107e+002 9.217672e-001 -1.162301e+002 9.221925e-001 -1.162113e+002 2.585794e-002 1.586185e+002
1885387500 2.879908e-002 1.440475e+002 9.209098e-001 -1.219415e+002 9.210695e-001 -1.219166e+002 3.038426e-002 1.514744e+002
1907831250 3.293788e-002 1.365520e+002 9.202019e-001 -1.276526e+002 9.198917e-001 -1.276232e+002 3.478461e-002 1.449475e+002
1930275000 3.701710e-002 1.298868e+002 9.190302e-001 -1.333592e+002 9.191670e-001 -1.333300e+002 3.842982e-002 1.386209e+002
1952718750 4.094497e-002 1.233281e+002 9.177212e-001 -1.390704e+002 9.180983e-001 -1.390527e+002 4.170852e-002 1.320527e+002
1975162500 4.454293e-002 1.169629e+002 9.173215e-001 -1.447628e+002 9.174057e-001 -1.447491e+002 4.471002e-002 1.256754e+002
1997606250 4.753096e-002 1.104851e+002 9.164339e-001 -1.504721e+002 9.163557e-001 -1.504530e+002 4.724240e-002 1.193064e+002
2020050000 5.040667e-002 1.040643e+002 9.158193e-001 -1.561684e+002 9.156261e-001 -1.561603e+002 4.980291e-002 1.132637e+002
2042493750 5.267927e-002 9.759077e+001 9.145094e-001 -1.618786e+002 9.148332e-001 -1.618564e+002 5.237231e-002 1.070709e+002
2064937500 5.462878e-002 9.116919e+001 9.134507e-001 -1.675729e+002 9.140775e-001 -1.675606e+002 5.453649e-002 1.006406e+002
2087381250 5.608560e-002 8.464452e+001 9.126021e-001 -1.732764e+002 9.128508e-001 -1.732549e+002 5.633513e-002 9.458667e+001
2109825000 5.709764e-002 7.845532e+001 9.118868e-001 -1.789739e+002 9.121951e-001 -1.789446e+002 5.734283e-002 8.891334e+001
2132268750 5.820668e-002 7.237334e+001 9.109429e-001 1.753519e+002 9.118115e-001 1.753615e+002 5.812394e-002 8.285368e+001
2154712500 5.899741e-002 6.638490e+001 9.102295e-001 1.696482e+002 9.106953e-001 1.696621e+002 5.822912e-002 7.676688e+001
2177156250 5.914987e-002 6.058091e+001 9.094175e-001 1.639394e+002 9.099739e-001 1.639687e+002 5.779481e-002 7.075977e+001
2199600000 5.896289e-002 5.481422e+001 9.087800e-001 1.582522e+002 9.093302e-001 1.582776e+002 5.708133e-002 6.463028e+001
2222043750 5.825149e-002 4.860220e+001 9.085351e-001 1.525576e+002 9.085371e-001 1.525855e+002 5.650454e-002 5.816025e+001
2244487500 5.730991e-002 4.237288e+001 9.080706e-001 1.468609e+002 9.081398e-001 1.468853e+002 5.559335e-002 5.171982e+001
2266931250 5.526070e-002 3.622453e+001 9.073153e-001 1.411747e+002 9.077536e-001 1.411853e+002 5.429463e-002 4.530754e+001
2289375000 5.334104e-002 2.995964e+001 9.066900e-001 1.354786e+002 9.069784e-001 1.354935e+002 5.244035e-002 3.933450e+001
2311818750 5.152815e-002 2.414775e+001 9.058613e-001 1.297762e+002 9.063234e-001 1.298007e+002 5.046644e-002 3.328072e+001
2334262500 4.953199e-002 1.821901e+001 9.055013e-001 1.240820e+002 9.057383e-001 1.240858e+002 4.803235e-002 2.708913e+001
2356706250 4.705087e-002 1.206201e+001 9.051363e-001 1.183637e+002 9.053517e-001 1.183833e+002 4.507158e-002 2.055533e+001
2379150000 4.410795e-002 6.306432e+000 9.048389e-001 1.126675e+002 9.047555e-001 1.126747e+002 4.199807e-002 1.388117e+001
2401593750 4.108332e-002 1.659029e-001 9.043045e-001 1.069447e+002 9.039456e-001 1.069731e+002 3.888308e-002 7.397863e+000
2424037500 3.749276e-002 -6.506484e+000 9.035142e-001 1.012419e+002 9.035610e-001 1.012535e+002 3.556755e-002 3.821713e-001
2446481250 3.350177e-002 -1.266139e+001 9.028955e-001 9.552264e+001 9.032290e-001 9.555141e+001 3.239604e-002 -6.233707e+000
2468925000 2.969349e-002 -1.947941e+001 9.024148e-001 8.980743e+001 9.026402e-001 8.982642e+001 2.883841e-002 -1.383541e+001
2491368750 2.572485e-002 -2.676001e+001 9.015991e-001 8.410241e+001 9.019892e-001 8.412553e+001 2.502872e-002 -2.174396e+001
2513812500 2.180666e-002 -3.301773e+001 9.011256e-001 7.837211e+001 9.010725e-001 7.840684e+001 2.109029e-002 -3.025938e+001
2536256250 1.788344e-002 -3.974759e+001 9.001479e-001 7.266605e+001 9.004947e-001 7.270399e+001 1.716136e-002 -3.966237e+001
2558700000 1.426638e-002 -4.621936e+001 8.994841e-001 6.695560e+001 8.996730e-001 6.698153e+001 1.361392e-002 -5.050319e+001
2581143750 1.022594e-002 -5.493801e+001 8.989059e-001 6.124641e+001 8.987619e-001 6.127460e+001 1.012742e-002 -6.627220e+001
2603587500 5.865589e-003 -6.752432e+001 8.979165e-001 5.553893e+001 8.982489e-001 5.556416e+001 7.101432e-003 -8.999754e+001
2626031250 2.044667e-003 -1.149989e+002 8.973911e-001 4.982237e+001 8.974115e-001 4.985554e+001 5.595564e-003 -1.285505e+002
2648475000 3.706584e-003 1.502341e+002 8.963432e-001 4.411031e+001 8.966877e-001 4.414417e+001 6.590943e-003 -1.712007e+002
2670918750 7.540544e-003 1.280972e+002 8.956401e-001 3.839573e+001 8.962576e-001 3.843220e+001 9.009463e-003 1.624037e+002
2693362500 1.122168e-002 1.152145e+002 8.949357e-001 3.269185e+001 8.951190e-001 3.272590e+001 1.218614e-002 1.448282e+002
2715806250 1.448156e-002 1.065605e+002 8.938386e-001 2.698674e+001 8.941134e-001 2.701864e+001 1.551523e-002 1.330753e+002
2738250000 1.782544e-002 9.977582e+001 8.933139e-001 2.127542e+001 8.933398e-001 2.129732e+001 1.871601e-002 1.231592e+002
2760693750 2.116396e-002 9.216345e+001 8.924783e-001 1.556957e+001 8.926671e-001 1.560533e+001 2.179710e-002 1.140507e+002
2783137500 2.465033e-002 8.510990e+001 8.918049e-001 9.859856e+000 8.918559e-001 9.891434e+000 2.471394e-002 1.058161e+002
2805581250 2.760413e-002 7.878352e+001 8.905458e-001 4.166050e+000 8.913819e-001 4.194010e+000 2.745797e-002 9.804321e+001
2828025000 3.067567e-002 7.327148e+001 8.900781e-001 -1.542428e+000 8.901648e-001 -1.511002e+000 2.972623e-002 9.141796e+001
2850468750 3.357054e-002 6.679758e+001 8.892598e-001 -7.241917e+000 8.893742e-001 -7.208546e+000 3.235932e-002 8.430409e+001
2872912500 3.627448e-002 5.968673e+001 8.884053e-001 -1.293928e+001 8.886992e-001 -1.291182e+001 3.458159e-002 7.684087e+001
2895356250 3.801586e-002 5.324568e+001 8.872901e-001 -1.864286e+001 8.879166e-001 -1.861593e+001 3.659076e-002 6.974821e+001
2917800000 3.946578e-002 4.721229e+001 8.865606e-001 -2.434153e+001 8.869104e-001 -2.430568e+001 3.793026e-002 6.340935e+001
2940243750 4.103925e-002 4.136098e+001 8.862427e-001 -3.003694e+001 8.862589e-001 -3.000084e+001 3.937373e-002 5.691860e+001
2962687500 4.257263e-002 3.525871e+001 8.851590e-001 -3.573673e+001 8.855007e-001 -3.570143e+001 4.061994e-002 5.004475e+001
2985131250 4.343112e-002 2.935871e+001 8.843400e-001 -4.143348e+001 8.849118e-001 -4.138824e+001 4.120597e-002 4.333892e+001
3007575000 4.417787e-002 2.355559e+001 8.839154e-001 -4.713014e+001 8.842465e-001 -4.708496e+001 4.158134e-002 3.663279e+001
3030018750 4.457925e-002 1.761360e+001 8.833932e-001 -5.283241e+001 8.834044e-001 -5.278460e+001 4.172127e-002 2.965861e+001
3052462500 4.479636e-002 1.120554e+001 8.824114e-001 -5.852327e+001 8.828432e-001 -5.848062e+001 4.172834e-002 2.293727e+001
3074906250 4.459073e-002 4.907135e+000 8.819182e-001 -6.422143e+001 8.818011e-001 -6.417677e+001 4.175908e-002 1.616871e+001
3097350000 4.416408e-002 -1.248649e+000 8.811718e-001 -6.992673e+001 8.814037e-001 -6.987159e+001 4.157890e-002 9.443067e+000
3119793750 4.344651e-002 -7.682562e+000 8.804852e-001 -7.561288e+001 8.811228e-001 -7.557595e+001 4.100841e-002 2.417576e+000
3142237500 4.235494e-002 -1.372726e+001 8.798637e-001 -8.132188e+001 8.802643e-001 -8.127151e+001 3.973852e-002 -4.452043e+000
3164681250 4.096634e-002 -1.901523e+001 8.790963e-001 -8.702470e+001 8.796684e-001 -8.697572e+001 3.834110e-002 -1.097505e+001
3187125000 3.967509e-002 -2.456447e+001 8.785667e-001 -9.272211e+001 8.791551e-001 -9.266872e+001 3.682308e-002 -1.785962e+001
3209568750 3.787951e-002 -3.061179e+001 8.780981e-001 -9.842640e+001 8.784227e-001 -9.837654e+001 3.510102e-002 -2.546575e+001
3232012500 3.577857e-002 -3.679012e+001 8.774389e-001 -1.041260e+002 8.781558e-001 -1.040829e+002 3.338662e-002 -3.301948e+001
3254456250 3.363070e-002 -4.293305e+001 8.770642e-001 -1.098471e+002 8.770578e-001 -1.097837e+002 3.194351e-002 -4.076685e+001
3276900000 3.119850e-002 -5.003093e+001 8.762906e-001 -1.155425e+002 8.768556e-001 -1.154864e+002 3.028640e-002 -4.891969e+001
3299343750 2.821641e-002 -5.631338e+001 8.760221e-001 -1.212464e+002 8.759325e-001 -1.211968e+002 2.791073e-002 -5.673189e+001
3321787500 2.508157e-002 -6.195827e+001 8.750479e-001 -1.269453e+002 8.754465e-001 -1.268981e+002 2.535623e-002 -6.438277e+001
3344231250 2.240018e-002 -6.705873e+001 8.744456e-001 -1.326646e+002 8.748078e-001 -1.326173e+002 2.296654e-002 -7.265798e+001
3366675000 1.990071e-002 -7.280504e+001 8.738380e-001 -1.383782e+002 8.740902e-001 -1.383267e+002 2.052430e-002 -8.214661e+001
3389118750 1.690508e-002 -7.925270e+001 8.731551e-001 -1.440906e+002 8.736171e-001 -1.440324e+002 1.804426e-002 -9.332350e+001
3411562500 1.351266e-002 -8.502764e+001 8.721544e-001 -1.498047e+002 8.729290e-001 -1.497554e+002 1.561384e-002 -1.061847e+002
3434006250 1.056338e-002 -9.118949e+001 8.716075e-001 -1.555038e+002 8.722478e-001 -1.554585e+002 1.379659e-002 -1.196292e+002
3456450000 7.658680e-003 -1.007675e+002 8.710351e-001 -1.612168e+002 8.717204e-001 -1.611749e+002 1.261650e-002 -1.339214e+002
3478893750 4.211304e-003 -1.113055e+002 8.697641e-001 -1.669280e+002 8.708584e-001 -1.668744e+002 1.130001e-002 -1.500607e+002
3501337500 5.985139e-004 -1.394648e+002 8.692830e-001 -1.726293e+002 8.701458e-001 -1.725853e+002 9.814817e-003 -1.709171e+002
3523781250 3.023316e-003 6.951864e+001 8.684300e-001 -1.783402e+002 8.695214e-001 -1.782888e+002 8.965715e-003 1.640109e+002
