!Agilent Technologies,E8364A,US41440284,A.06.04.32
!Agilent E8364A: A.06.04.32
!Date: Friday, December 06, 2019 10:39:14
!Correction: S11(Full 2 Port(1,2)) S21(Full 2 Port(1,2)) S12(Full 2 Port(1,2)) S22(Full 2 Port(1,2)) 
!S2P File: Measurements: S11, S21, S12, S22:
# Hz S  MA   R 50
45000000 1.049113e-002 -9.423823e+000 3.952920e-005 -1.061681e+002 4.632003e-005 -1.648624e+002 8.814001e-003 -1.390097e+001
67443750 1.080517e-002 -1.259510e+001 2.291953e-005 -1.564920e+002 3.235870e-005 9.661150e+001 9.176863e-003 -1.892126e+001
89887500 1.100807e-002 -1.642601e+001 3.593916e-005 1.496909e+002 2.136442e-005 7.112722e+001 9.610715e-003 -2.244601e+001
112331250 1.110673e-002 -2.000956e+001 4.786916e-005 8.414217e+001 5.716383e-006 -1.362025e+002 9.869086e-003 -2.619804e+001
134775000 1.110883e-002 -2.370093e+001 3.113315e-005 9.609444e+001 3.013887e-005 9.805852e+001 1.011955e-002 -2.989025e+001
157218750 1.115882e-002 -2.794787e+001 6.832799e-005 3.697964e+001 2.174308e-005 -1.866778e+001 1.030860e-002 -3.339141e+001
179662500 1.127754e-002 -3.250474e+001 2.728894e-005 3.698006e+001 4.756451e-005 9.415364e+001 1.042209e-002 -3.762057e+001
202106250 1.158687e-002 -3.692405e+001 1.193400e-005 1.324026e+002 5.513716e-006 1.154417e+002 1.057159e-002 -4.160118e+001
224550000 1.194724e-002 -4.123670e+001 4.562300e-005 9.003938e+001 1.905540e-005 8.961401e+001 1.095086e-002 -4.633977e+001
246993750 1.237320e-002 -4.470975e+001 1.557012e-005 1.338443e+002 2.764054e-005 1.038627e+002 1.132013e-002 -5.051313e+001
269437500 1.273922e-002 -4.746883e+001 2.272922e-005 3.293942e+001 2.310121e-005 4.478621e+001 1.169385e-002 -5.420430e+001
291881250 1.297352e-002 -4.995913e+001 3.023767e-005 6.443680e+001 1.972316e-005 1.640478e+001 1.214166e-002 -5.785092e+001
314325000 1.313224e-002 -5.301929e+001 4.318189e-005 5.566999e+001 4.018111e-005 5.073087e+001 1.254083e-002 -6.109533e+001
336768750 1.327024e-002 -5.630365e+001 3.597374e-005 6.313834e+001 2.655868e-005 2.617668e+001 1.294156e-002 -6.430345e+001
359212500 1.351853e-002 -5.995907e+001 4.642901e-005 6.111762e+001 3.802856e-005 4.849189e+001 1.331137e-002 -6.750327e+001
381656250 1.383717e-002 -6.366957e+001 4.295593e-005 2.337715e+001 4.577455e-005 5.596165e+001 1.376486e-002 -7.063706e+001
404100000 1.428716e-002 -6.709968e+001 4.424951e-005 5.367999e+001 3.912708e-005 4.978889e+001 1.423253e-002 -7.367909e+001
426543750 1.482301e-002 -7.010933e+001 4.450209e-005 4.361312e+001 5.355383e-005 5.120904e+001 1.483630e-002 -7.646512e+001
448987500 1.533414e-002 -7.259704e+001 3.311082e-005 3.294258e+001 5.565631e-005 4.685691e+001 1.541573e-002 -7.920116e+001
471431250 1.575986e-002 -7.488617e+001 4.610901e-005 2.522039e+001 6.570092e-005 5.470768e+001 1.601501e-002 -8.150873e+001
493875000 1.610953e-002 -7.710964e+001 6.239230e-005 3.904243e+001 6.099597e-005 4.858456e+001 1.655994e-002 -8.352859e+001
516318750 1.639329e-002 -7.948708e+001 4.868703e-005 5.727605e+001 6.037950e-005 4.175715e+001 1.706333e-002 -8.544736e+001
538762500 1.667089e-002 -8.223895e+001 6.138662e-005 2.491499e+001 5.516345e-005 4.134768e+001 1.747944e-002 -8.741983e+001
561206250 1.702226e-002 -8.524564e+001 5.118030e-005 2.259910e+001 6.706826e-005 4.628341e+001 1.785201e-002 -8.952180e+001
583650000 1.749829e-002 -8.806992e+001 5.573404e-005 2.043547e+001 5.759983e-005 4.607016e+001 1.821356e-002 -9.189912e+001
606093750 1.804588e-002 -9.072730e+001 6.299534e-005 3.264754e+001 6.626678e-005 2.655452e+001 1.857888e-002 -9.453326e+001
628537500 1.861813e-002 -9.301521e+001 7.150653e-005 3.222362e+001 7.443618e-005 3.174613e+001 1.905758e-002 -9.714046e+001
650981250 1.914709e-002 -9.508308e+001 7.897819e-005 2.163226e+001 6.291626e-005 1.837618e+001 1.968110e-002 -9.983038e+001
673425000 1.959692e-002 -9.703359e+001 7.890485e-005 1.846634e+001 6.400167e-005 2.427075e+001 2.038933e-002 -1.022035e+002
695868750 1.995070e-002 -9.903508e+001 7.570048e-005 1.692949e+001 8.302154e-005 1.650815e+001 2.113392e-002 -1.043205e+002
718312500 2.027655e-002 -1.012388e+002 7.529115e-005 1.840490e+001 7.607390e-005 1.625628e+001 2.184580e-002 -1.060844e+002
740756250 2.063192e-002 -1.035896e+002 7.722797e-005 1.356299e+001 7.540250e-005 1.629017e+001 2.248229e-002 -1.076811e+002
763200000 2.106280e-002 -1.060994e+002 9.163225e-005 1.389677e+001 6.692208e-005 3.008891e+000 2.303299e-002 -1.092437e+002
785643750 2.159572e-002 -1.085453e+002 9.475720e-005 9.754455e+000 9.575354e-005 1.181000e+001 2.351452e-002 -1.109690e+002
808087500 2.216525e-002 -1.108190e+002 1.019567e-004 5.980871e+000 8.667493e-005 8.255790e+000 2.392444e-002 -1.128123e+002
830531250 2.274690e-002 -1.127172e+002 8.377282e-005 4.276452e+000 8.796931e-005 4.464524e+000 2.442668e-002 -1.148745e+002
852975000 2.330076e-002 -1.145984e+002 9.238667e-005 9.237129e+000 9.700232e-005 4.322901e+000 2.499759e-002 -1.169989e+002
875418750 2.374847e-002 -1.163494e+002 9.081468e-005 3.619526e+000 8.111251e-005 2.979212e+000 2.568116e-002 -1.190397e+002
897862500 2.412954e-002 -1.181841e+002 9.232265e-005 4.591094e+000 1.071482e-004 -1.195118e+000 2.645366e-002 -1.209239e+002
920306250 2.450074e-002 -1.201620e+002 1.040417e-004 -5.425815e+000 8.794203e-005 -1.167831e+001 2.717489e-002 -1.225285e+002
942750000 2.489017e-002 -1.223109e+002 1.013615e-004 -1.900238e+000 9.790931e-005 8.990421e-001 2.782722e-002 -1.239401e+002
965193750 2.536293e-002 -1.245469e+002 1.098090e-004 -1.336828e+001 1.097360e-004 -8.590473e+000 2.842753e-002 -1.253346e+002
987637500 2.591782e-002 -1.267680e+002 1.001844e-004 -1.132052e+001 9.886152e-005 -1.289060e+001 2.891217e-002 -1.267520e+002
1010081250 2.653226e-002 -1.287243e+002 1.083271e-004 -8.341168e+000 9.393207e-005 -7.631576e+000 2.935147e-002 -1.284439e+002
1032525000 2.713090e-002 -1.305779e+002 1.183409e-004 -1.710272e+001 1.060759e-004 -1.715672e+001 2.979482e-002 -1.303020e+002
1054968750 2.771315e-002 -1.322251e+002 1.078675e-004 -2.105280e+001 1.085235e-004 -6.592627e+000 3.030608e-002 -1.321449e+002
1077412500 2.815548e-002 -1.339062e+002 1.059423e-004 -2.197617e+001 1.139978e-004 -2.725320e+001 3.093053e-002 -1.340365e+002
1099856250 2.857633e-002 -1.356394e+002 1.080913e-004 -1.739073e+001 1.322381e-004 -2.231808e+001 3.162872e-002 -1.358250e+002
1122300000 2.894871e-002 -1.375086e+002 1.062764e-004 -2.522204e+001 1.195827e-004 -2.843836e+001 3.237300e-002 -1.374866e+002
1144743750 2.938752e-002 -1.395538e+002 1.125116e-004 -2.656104e+001 1.146544e-004 -2.995435e+001 3.305598e-002 -1.389837e+002
1167187500 2.988940e-002 -1.415894e+002 1.263981e-004 -3.602594e+001 1.165149e-004 -2.965666e+001 3.369615e-002 -1.404184e+002
1189631250 3.050516e-002 -1.435739e+002 1.257539e-004 -3.043464e+001 1.255942e-004 -3.317870e+001 3.430577e-002 -1.418600e+002
1212075000 3.114590e-002 -1.454273e+002 1.267400e-004 -3.366080e+001 1.418173e-004 -3.494876e+001 3.482416e-002 -1.434104e+002
1234518750 3.172832e-002 -1.470988e+002 1.238219e-004 -4.046410e+001 1.264441e-004 -4.095690e+001 3.538357e-002 -1.450038e+002
1256962500 3.228978e-002 -1.487188e+002 1.338059e-004 -3.706053e+001 1.162042e-004 -3.992298e+001 3.589720e-002 -1.466278e+002
1279406250 3.273134e-002 -1.503073e+002 1.310985e-004 -3.669982e+001 1.262584e-004 -4.523104e+001 3.648221e-002 -1.482748e+002
1301850000 3.317345e-002 -1.519972e+002 1.253589e-004 -4.056348e+001 1.195161e-004 -4.384056e+001 3.711446e-002 -1.499187e+002
1324293750 3.361300e-002 -1.538492e+002 1.333165e-004 -4.592807e+001 1.355149e-004 -5.209239e+001 3.774321e-002 -1.514664e+002
1346737500 3.407216e-002 -1.557867e+002 1.363911e-004 -4.501472e+001 1.490700e-004 -4.677935e+001 3.838194e-002 -1.529999e+002
1369181250 3.463922e-002 -1.577075e+002 1.317548e-004 -5.289301e+001 1.369901e-004 -4.985791e+001 3.898008e-002 -1.545278e+002
1391625000 3.524246e-002 -1.595391e+002 1.293393e-004 -5.498875e+001 1.257404e-004 -5.624835e+001 3.956298e-002 -1.560602e+002
1414068750 3.589079e-002 -1.612359e+002 1.389133e-004 -5.879994e+001 1.428364e-004 -5.568406e+001 4.014968e-002 -1.575919e+002
1436512500 3.647422e-002 -1.628626e+002 1.505019e-004 -6.099638e+001 1.262664e-004 -6.132697e+001 4.071719e-002 -1.591855e+002
1458956250 3.699787e-002 -1.643971e+002 1.399342e-004 -6.052225e+001 1.344842e-004 -5.945106e+001 4.135504e-002 -1.608216e+002
1481400000 3.743408e-002 -1.660103e+002 1.352946e-004 -5.651630e+001 1.432602e-004 -5.985334e+001 4.196890e-002 -1.623631e+002
1503843750 3.785645e-002 -1.677174e+002 1.435305e-004 -6.824311e+001 1.390495e-004 -6.815468e+001 4.260134e-002 -1.638683e+002
1526287500 3.828875e-002 -1.695196e+002 1.294058e-004 -7.016702e+001 1.349472e-004 -6.429332e+001 4.322950e-002 -1.654072e+002
1548731250 3.880451e-002 -1.713290e+002 1.491949e-004 -6.950294e+001 1.406176e-004 -7.048901e+001 4.380438e-002 -1.668524e+002
1571175000 3.937660e-002 -1.731855e+002 1.391523e-004 -7.052117e+001 1.554636e-004 -7.069158e+001 4.438386e-002 -1.683356e+002
1593618750 3.997109e-002 -1.749439e+002 1.370095e-004 -6.972848e+001 1.625629e-004 -7.206427e+001 4.491249e-002 -1.698379e+002
1616062500 4.057132e-002 -1.765846e+002 1.517400e-004 -7.641325e+001 1.339055e-004 -7.418355e+001 4.546952e-002 -1.714069e+002
1638506250 4.110835e-002 -1.781828e+002 1.498761e-004 -7.926764e+001 1.450785e-004 -7.854627e+001 4.606085e-002 -1.730024e+002
1660950000 4.160355e-002 -1.797481e+002 1.520884e-004 -8.268524e+001 1.407687e-004 -8.170707e+001 4.665021e-002 -1.745242e+002
1683393750 4.201189e-002 1.785988e+002 1.502285e-004 -8.075604e+001 1.554367e-004 -8.235577e+001 4.726098e-002 -1.761304e+002
1705837500 4.241211e-002 1.768667e+002 1.493963e-004 -8.535211e+001 1.591341e-004 -8.931277e+001 4.789764e-002 -1.777232e+002
1728281250 4.283896e-002 1.750368e+002 1.575935e-004 -8.902908e+001 1.579067e-004 -9.339138e+001 4.851373e-002 -1.791698e+002
1750725000 4.333264e-002 1.731567e+002 1.562090e-004 -9.334554e+001 1.572906e-004 -8.851090e+001 4.907367e-002 1.793954e+002
1773168750 4.390904e-002 1.713136e+002 1.562344e-004 -9.279433e+001 1.522532e-004 -9.271754e+001 4.959891e-002 1.779082e+002
1795612500 4.450445e-002 1.695852e+002 1.733914e-004 -9.696905e+001 1.571743e-004 -1.012235e+002 5.008078e-002 1.763938e+002
1818056250 4.507193e-002 1.678907e+002 1.671881e-004 -9.597576e+001 1.573330e-004 -9.410222e+001 5.053146e-002 1.748345e+002
1840500000 4.559631e-002 1.662729e+002 1.459813e-004 -9.836217e+001 1.533227e-004 -1.011957e+002 5.104842e-002 1.732989e+002
1862943750 4.607679e-002 1.646220e+002 1.659735e-004 -9.935340e+001 1.539688e-004 -1.057397e+002 5.160305e-002 1.716358e+002
1885387500 4.648316e-002 1.629010e+002 1.686826e-004 -1.052213e+002 1.568639e-004 -1.031437e+002 5.218379e-002 1.699647e+002
1907831250 4.687901e-002 1.610962e+002 1.788037e-004 -1.093139e+002 1.593086e-004 -1.082486e+002 5.278005e-002 1.684108e+002
1930275000 4.735104e-002 1.592938e+002 1.541994e-004 -1.148235e+002 1.578051e-004 -1.099520e+002 5.334482e-002 1.668773e+002
1952718750 4.788203e-002 1.573747e+002 1.647381e-004 -1.112778e+002 1.727343e-004 -1.085712e+002 5.383208e-002 1.653706e+002
1975162500 4.844726e-002 1.555573e+002 1.704222e-004 -1.130187e+002 1.504863e-004 -1.137365e+002 5.428300e-002 1.638159e+002
1997606250 4.903162e-002 1.538590e+002 1.605889e-004 -1.145266e+002 1.639897e-004 -1.163397e+002 5.471413e-002 1.621799e+002
2020050000 4.962095e-002 1.521280e+002 1.629813e-004 -1.193238e+002 1.662936e-004 -1.185082e+002 5.518860e-002 1.604922e+002
2042493750 5.017908e-002 1.503565e+002 1.797579e-004 -1.209462e+002 1.665837e-004 -1.169721e+002 5.570288e-002 1.587518e+002
2064937500 5.068922e-002 1.487041e+002 1.715421e-004 -1.250666e+002 1.654801e-004 -1.264576e+002 5.626525e-002 1.570519e+002
2087381250 5.109696e-002 1.469186e+002 1.712377e-004 -1.248208e+002 1.604612e-004 -1.246529e+002 5.696325e-002 1.553932e+002
2109825000 5.154502e-002 1.451326e+002 1.654198e-004 -1.308068e+002 1.533464e-004 -1.350362e+002 5.761767e-002 1.538300e+002
2132268750 5.205813e-002 1.432865e+002 1.714148e-004 -1.341850e+002 1.577571e-004 -1.296862e+002 5.820378e-002 1.523161e+002
2154712500 5.260347e-002 1.414322e+002 1.570363e-004 -1.324242e+002 1.658681e-004 -1.322921e+002 5.870018e-002 1.508476e+002
2177156250 5.319925e-002 1.396281e+002 1.643626e-004 -1.323580e+002 1.554917e-004 -1.375475e+002 5.914521e-002 1.493172e+002
2199600000 5.378691e-002 1.378436e+002 1.528022e-004 -1.368744e+002 1.554680e-004 -1.395094e+002 5.949448e-002 1.477917e+002
2222043750 5.442939e-002 1.360764e+002 1.595325e-004 -1.405516e+002 1.657294e-004 -1.377293e+002 5.988888e-002 1.460919e+002
2244487500 5.502997e-002 1.344113e+002 1.669059e-004 -1.332068e+002 1.548445e-004 -1.382907e+002 6.038801e-002 1.442974e+002
2266931250 5.551993e-002 1.326988e+002 1.579226e-004 -1.378007e+002 1.634132e-004 -1.473388e+002 6.089536e-002 1.425646e+002
2289375000 5.596165e-002 1.309806e+002 1.595297e-004 -1.433470e+002 1.420088e-004 -1.396695e+002 6.149505e-002 1.409019e+002
2311818750 5.640986e-002 1.292241e+002 1.488430e-004 -1.451689e+002 1.714236e-004 -1.465589e+002 6.209061e-002 1.392736e+002
2334262500 5.686185e-002 1.274311e+002 1.462445e-004 -1.510835e+002 1.616101e-004 -1.570857e+002 6.261754e-002 1.377500e+002
2356706250 5.745124e-002 1.256444e+002 1.556577e-004 -1.548588e+002 1.551915e-004 -1.543460e+002 6.309939e-002 1.362446e+002
2379150000 5.796477e-002 1.238084e+002 1.452411e-004 -1.638200e+002 1.512320e-004 -1.551922e+002 6.350080e-002 1.346597e+002
2401593750 5.858278e-002 1.219811e+002 1.488888e-004 -1.623561e+002 1.316418e-004 -1.534409e+002 6.380263e-002 1.330096e+002
2424037500 5.915767e-002 1.202867e+002 1.418105e-004 -1.597640e+002 1.527573e-004 -1.532646e+002 6.419512e-002 1.312124e+002
2446481250 5.965623e-002 1.186237e+002 1.351851e-004 -1.602140e+002 1.379616e-004 -1.619264e+002 6.464878e-002 1.294523e+002
2468925000 6.011997e-002 1.169056e+002 1.289078e-004 -1.639964e+002 1.287247e-004 -1.611721e+002 6.514839e-002 1.277048e+002
2491368750 6.053122e-002 1.151430e+002 1.389290e-004 -1.708447e+002 1.317303e-004 -1.624427e+002 6.563587e-002 1.260368e+002
2513812500 6.095477e-002 1.133233e+002 1.337344e-004 -1.690339e+002 1.379673e-004 -1.725725e+002 6.616107e-002 1.244072e+002
2536256250 6.135940e-002 1.114984e+002 1.306859e-004 -1.662632e+002 1.247152e-004 -1.700907e+002 6.663342e-002 1.228424e+002
2558700000 6.186595e-002 1.096405e+002 1.211144e-004 -1.666807e+002 1.251204e-004 -1.629519e+002 6.703258e-002 1.212539e+002
2581143750 6.242745e-002 1.077695e+002 1.298409e-004 -1.685970e+002 1.262831e-004 -1.705302e+002 6.733870e-002 1.195829e+002
2603587500 6.299557e-002 1.059961e+002 1.357878e-004 -1.756311e+002 1.281453e-004 -1.688163e+002 6.767582e-002 1.178346e+002
2626031250 6.351669e-002 1.042483e+002 1.353746e-004 -1.734465e+002 1.256338e-004 -1.704080e+002 6.804586e-002 1.161148e+002
2648475000 6.395914e-002 1.025409e+002 1.109247e-004 -1.741093e+002 1.288080e-004 -1.740482e+002 6.840594e-002 1.143477e+002
2670918750 6.434523e-002 1.007607e+002 1.185035e-004 -1.728469e+002 1.142858e-004 -1.743262e+002 6.880733e-002 1.125742e+002
2693362500 6.473445e-002 9.896466e+001 1.221883e-004 -1.778065e+002 1.252405e-004 -1.690647e+002 6.925265e-002 1.109040e+002
2715806250 6.511772e-002 9.707558e+001 1.297165e-004 -1.763124e+002 1.254218e-004 -1.772854e+002 6.967004e-002 1.092167e+002
2738250000 6.556504e-002 9.515851e+001 1.287322e-004 -1.751688e+002 1.264452e-004 1.794056e+002 7.003219e-002 1.075212e+002
2760693750 6.606877e-002 9.325136e+001 1.236850e-004 -1.737946e+002 1.333849e-004 -1.747012e+002 7.036063e-002 1.057955e+002
2783137500 6.662087e-002 9.137297e+001 1.265470e-004 -1.738229e+002 1.207720e-004 -1.779992e+002 7.067937e-002 1.040485e+002
2805581250 6.710307e-002 8.956244e+001 1.243832e-004 1.762203e+002 1.288106e-004 1.741578e+002 7.101534e-002 1.022341e+002
2828025000 6.755786e-002 8.777860e+001 1.352776e-004 1.718042e+002 1.253445e-004 1.795943e+002 7.129061e-002 1.004595e+002
2850468750 6.795676e-002 8.599159e+001 1.199027e-004 1.701712e+002 1.218866e-004 1.799750e+002 7.160928e-002 9.866072e+001
2872912500 6.831066e-002 8.418347e+001 1.252103e-004 1.764972e+002 1.149181e-004 1.751163e+002 7.194030e-002 9.692658e+001
2895356250 6.866715e-002 8.225826e+001 1.133134e-004 1.655048e+002 1.076413e-004 1.710634e+002 7.226172e-002 9.509901e+001
2917800000 6.906108e-002 8.029424e+001 1.158362e-004 1.714038e+002 1.234380e-004 1.676014e+002 7.261816e-002 9.332931e+001
2940243750 6.956404e-002 7.831110e+001 1.246306e-004 1.712144e+002 1.140287e-004 1.725931e+002 7.293098e-002 9.153767e+001
2962687500 7.014023e-002 7.635879e+001 1.231692e-004 1.680000e+002 1.081594e-004 1.760738e+002 7.321777e-002 8.975347e+001
2985131250 7.072698e-002 7.450916e+001 1.183120e-004 1.691536e+002 1.138014e-004 1.641712e+002 7.354958e-002 8.792310e+001
3007575000 7.119332e-002 7.273210e+001 1.287991e-004 1.661186e+002 1.092241e-004 1.688380e+002 7.383766e-002 8.618253e+001
3030018750 7.157465e-002 7.097026e+001 1.129208e-004 1.623464e+002 1.201232e-004 1.638875e+002 7.404435e-002 8.435466e+001
3052462500 7.197945e-002 6.912311e+001 1.234793e-004 1.631851e+002 1.157165e-004 1.655717e+002 7.427336e-002 8.249887e+001
3074906250 7.228944e-002 6.724255e+001 1.297960e-004 1.599407e+002 1.174438e-004 1.634500e+002 7.457548e-002 8.062232e+001
3097350000 7.262272e-002 6.524377e+001 1.340598e-004 1.626266e+002 1.327385e-004 1.633998e+002 7.487029e-002 7.872964e+001
3119793750 7.308588e-002 6.325407e+001 1.049065e-004 1.568799e+002 1.199238e-004 1.597294e+002 7.518408e-002 7.685658e+001
3142237500 7.363035e-002 6.126430e+001 1.080869e-004 1.678685e+002 1.203877e-004 1.554467e+002 7.554445e-002 7.497791e+001
3164681250 7.419274e-002 5.937038e+001 1.264071e-004 1.612924e+002 1.212488e-004 1.555953e+002 7.584596e-002 7.316724e+001
3187125000 7.472551e-002 5.750208e+001 1.127653e-004 1.613786e+002 1.009679e-004 1.629106e+002 7.614043e-002 7.136301e+001
3209568750 7.514299e-002 5.571841e+001 1.179513e-004 1.596226e+002 1.064883e-004 1.594965e+002 7.631959e-002 6.959772e+001
3232012500 7.552031e-002 5.390271e+001 1.347315e-004 1.509064e+002 1.189248e-004 1.534379e+002 7.650954e-002 6.774677e+001
3254456250 7.579462e-002 5.200622e+001 1.244023e-004 1.453232e+002 1.269116e-004 1.495501e+002 7.662850e-002 6.583619e+001
3276900000 7.614057e-002 5.003603e+001 1.166578e-004 1.495237e+002 1.060940e-004 1.468330e+002 7.684270e-002 6.390220e+001
3299343750 7.653157e-002 4.804510e+001 1.158547e-004 1.397753e+002 1.241821e-004 1.470807e+002 7.713030e-002 6.189619e+001
3321787500 7.702473e-002 4.603199e+001 1.196343e-004 1.366517e+002 1.128238e-004 1.406220e+002 7.743980e-002 5.998846e+001
3344231250 7.756533e-002 4.410661e+001 1.036692e-004 1.442991e+002 1.004377e-004 1.397605e+002 7.773215e-002 5.809693e+001
3366675000 7.803846e-002 4.221877e+001 1.153793e-004 1.432067e+002 1.204772e-004 1.422594e+002 7.801631e-002 5.631438e+001
3389118750 7.852221e-002 4.041100e+001 1.008073e-004 1.383877e+002 1.152725e-004 1.398785e+002 7.817870e-002 5.447142e+001
3411562500 7.883065e-002 3.854909e+001 1.047886e-004 1.330538e+002 1.009718e-004 1.503060e+002 7.829897e-002 5.261424e+001
3434006250 7.911675e-002 3.667728e+001 9.251524e-005 1.293655e+002 9.433199e-005 1.452885e+002 7.838552e-002 5.069590e+001
3456450000 7.936446e-002 3.473386e+001 9.409748e-005 1.334434e+002 1.017499e-004 1.441850e+002 7.852669e-002 4.869324e+001
3478893750 7.970084e-002 3.272033e+001 6.252194e-005 1.343234e+002 9.960883e-005 1.464465e+002 7.872754e-002 4.666627e+001
3501337500 8.012810e-002 3.065830e+001 7.821459e-005 1.397463e+002 7.912724e-005 1.443491e+002 7.895932e-002 4.463897e+001
3523781250 8.057252e-002 2.863566e+001 7.027533e-005 1.525714e+002 8.709462e-005 1.389872e+002 7.926326e-002 4.267465e+001
