!Agilent Technologies,E8364A,US41440284,A.06.04.32
!Agilent E8364A: A.06.04.32
!Date: Friday, December 06, 2019 10:33:37
!Correction: S11(Full 2 Port(1,2)) S21(Full 2 Port(1,2)) S12(Full 2 Port(1,2)) S22(Full 2 Port(1,2)) 
!S2P File: Measurements: S11, S21, S12, S22:
# Hz S  MA   R 50
45000000 9.970861e-001 -5.149809e+000 4.722238e-005 -6.487788e+001 3.023760e-005 6.190706e+001 9.994910e-001 -5.137987e+000
67443750 9.968826e-001 -7.682034e+000 8.224234e-005 2.245992e+001 4.039568e-005 -9.910731e+001 1.000240e+000 -7.679128e+000
89887500 9.970567e-001 -1.024623e+001 4.443928e-005 6.740217e+001 5.595331e-005 -1.509356e+001 1.000717e+000 -1.020559e+001
112331250 9.961073e-001 -1.279866e+001 4.631882e-005 2.061478e+001 1.186789e-005 7.456930e+001 1.000611e+000 -1.272719e+001
134775000 9.954737e-001 -1.532554e+001 1.736497e-005 -4.757907e+001 1.588594e-005 -8.070506e+001 1.000055e+000 -1.524286e+001
157218750 9.949125e-001 -1.785044e+001 1.577876e-005 -1.332652e+002 6.453328e-005 2.744542e+001 9.990758e-001 -1.775205e+001
179662500 9.947186e-001 -2.037872e+001 1.141765e-005 -9.654362e+000 3.084020e-005 7.636830e+001 9.982551e-001 -2.025406e+001
202106250 9.941263e-001 -2.290204e+001 2.049957e-005 5.329771e+001 2.292555e-005 1.524980e+002 9.978378e-001 -2.278244e+001
224550000 9.940251e-001 -2.543959e+001 7.528633e-006 5.506808e+001 4.290033e-005 7.029578e+001 9.971991e-001 -2.530335e+001
246993750 9.933352e-001 -2.794852e+001 4.146366e-005 6.237056e+001 2.096017e-005 -2.448548e+001 9.966167e-001 -2.780123e+001
269437500 9.940681e-001 -3.045311e+001 3.991422e-005 3.215276e+001 1.195827e-005 3.066025e+001 9.978340e-001 -3.020068e+001
291881250 9.924631e-001 -3.297413e+001 2.920806e-005 4.899120e+001 6.963297e-006 6.330271e+001 9.979408e-001 -3.285376e+001
314325000 9.918109e-001 -3.548999e+001 3.601244e-005 3.334094e+001 3.219310e-005 4.911395e+000 9.973969e-001 -3.534700e+001
336768750 9.911640e-001 -3.801315e+001 2.056353e-005 6.419492e+001 1.083763e-005 6.272005e+001 9.966503e-001 -3.784449e+001
359212500 9.905577e-001 -4.053761e+001 2.892061e-005 4.068553e+001 3.973523e-005 3.404575e+001 9.958865e-001 -4.034084e+001
381656250 9.901540e-001 -4.305872e+001 2.957652e-005 8.073170e+000 2.133233e-005 2.127701e+001 9.949703e-001 -4.284046e+001
404100000 9.900599e-001 -4.555391e+001 3.191713e-005 4.127673e+001 3.250469e-005 2.191578e+001 9.939950e-001 -4.532404e+001
426543750 9.898056e-001 -4.805727e+001 1.962826e-005 3.472705e+001 2.890306e-005 8.890135e+000 9.937654e-001 -4.780581e+001
448987500 9.893495e-001 -5.056274e+001 1.761751e-005 2.691987e+000 2.598863e-005 1.696758e+001 9.934791e-001 -5.029115e+001
471431250 9.888774e-001 -5.305400e+001 3.832179e-005 1.655899e+001 4.022243e-005 4.222083e+001 9.937424e-001 -5.278326e+001
493875000 9.882178e-001 -5.555131e+001 3.455094e-005 3.934801e+001 3.510537e-005 2.746809e+001 9.937599e-001 -5.527342e+001
516318750 9.874198e-001 -5.805315e+001 2.615813e-005 1.681244e+001 1.950830e-005 3.416287e+001 9.935378e-001 -5.776087e+001
538762500 9.869067e-001 -6.057047e+001 3.196822e-005 3.795321e+001 1.849240e-005 -4.407921e+001 9.931032e-001 -6.024627e+001
561206250 9.861248e-001 -6.307260e+001 3.957094e-005 1.967929e+001 3.429659e-005 1.754125e+001 9.923781e-001 -6.270091e+001
583650000 9.859872e-001 -6.556339e+001 2.638825e-005 2.312196e+001 3.469084e-005 1.940561e+001 9.914876e-001 -6.516755e+001
606093750 9.857426e-001 -6.804848e+001 4.005434e-005 3.597235e+001 2.236763e-005 2.757663e+001 9.903468e-001 -6.764055e+001
628537500 9.853974e-001 -7.053973e+001 4.942139e-005 1.590248e+001 5.044191e-005 2.919697e+001 9.894741e-001 -7.011727e+001
650981250 9.849116e-001 -7.301607e+001 4.256704e-005 1.815473e+001 4.508429e-005 1.425426e+001 9.888916e-001 -7.257619e+001
673425000 9.845230e-001 -7.547583e+001 4.459922e-005 1.752158e+001 5.807320e-005 2.207617e+001 9.885630e-001 -7.506792e+001
695868750 9.838907e-001 -7.796641e+001 4.361498e-005 1.399960e+001 4.538625e-005 2.069456e+000 9.885741e-001 -7.754710e+001
718312500 9.829003e-001 -8.044017e+001 4.523291e-005 1.625956e+000 4.854183e-005 3.609752e+000 9.886127e-001 -8.001117e+001
740756250 9.825352e-001 -8.292523e+001 5.607424e-005 1.232773e+001 5.133651e-005 4.831378e+000 9.879893e-001 -8.245107e+001
763200000 9.812886e-001 -8.539141e+001 4.245271e-005 1.130852e+001 4.404543e-005 -8.628496e-001 9.871989e-001 -8.487588e+001
785643750 9.810864e-001 -8.787843e+001 4.699831e-005 3.873266e+000 5.780991e-005 -7.742010e+000 9.868759e-001 -8.732304e+001
808087500 9.805630e-001 -9.034102e+001 6.263236e-005 -2.006051e+000 6.164311e-005 9.942497e+000 9.862106e-001 -8.975485e+001
830531250 9.804318e-001 -9.279967e+001 4.464456e-005 -1.785565e+001 5.635576e-005 1.761256e+001 9.850361e-001 -9.217218e+001
852975000 9.798856e-001 -9.526796e+001 6.761438e-005 -1.015262e+001 5.516921e-005 -6.767149e+000 9.845505e-001 -9.462215e+001
875418750 9.795858e-001 -9.772633e+001 4.565942e-005 -1.962514e+000 4.307126e-005 -8.641398e+000 9.841484e-001 -9.708167e+001
897862500 9.790223e-001 -1.001665e+002 5.768991e-005 -2.416673e+001 5.404445e-005 -7.218433e+000 9.846711e-001 -9.952833e+001
920306250 9.781768e-001 -1.026171e+002 6.044718e-005 -1.515655e+001 6.231402e-005 -1.606039e+001 9.839937e-001 -1.019583e+002
942750000 9.773036e-001 -1.050802e+002 7.688560e-005 -5.968669e+000 5.825071e-005 -2.536584e+001 9.833956e-001 -1.043850e+002
965193750 9.768975e-001 -1.075353e+002 6.670185e-005 -1.881740e+001 7.744690e-005 -1.463575e+001 9.833393e-001 -1.067872e+002
987637500 9.764621e-001 -1.099818e+002 7.426860e-005 -2.088012e+001 8.080326e-005 -1.813810e+001 9.829581e-001 -1.091943e+002
1010081250 9.761151e-001 -1.124288e+002 8.615848e-005 -2.610439e+001 7.707935e-005 -2.028467e+001 9.818996e-001 -1.115905e+002
1032525000 9.757289e-001 -1.148744e+002 6.929977e-005 -3.561936e+001 7.422883e-005 -2.000961e+001 9.811283e-001 -1.140126e+002
1054968750 9.760391e-001 -1.173174e+002 7.883243e-005 -2.853117e+001 5.823286e-005 -3.173537e+001 9.804774e-001 -1.164090e+002
1077412500 9.753913e-001 -1.197399e+002 7.789755e-005 -2.598286e+001 6.881612e-005 -3.877594e+001 9.799612e-001 -1.188447e+002
1099856250 9.745711e-001 -1.221722e+002 8.576621e-005 -3.217068e+001 8.450940e-005 -2.476959e+001 9.795780e-001 -1.212668e+002
1122300000 9.734508e-001 -1.246031e+002 9.049076e-005 -3.260192e+001 7.517490e-005 -3.528144e+001 9.788029e-001 -1.236755e+002
1144743750 9.730005e-001 -1.270384e+002 9.439722e-005 -4.385839e+001 8.399089e-005 -3.827465e+001 9.785776e-001 -1.260830e+002
1167187500 9.722253e-001 -1.294719e+002 8.746558e-005 -4.393808e+001 1.021252e-004 -3.781521e+001 9.778276e-001 -1.284705e+002
1189631250 9.720568e-001 -1.319000e+002 9.551046e-005 -3.882295e+001 7.734514e-005 -4.544806e+001 9.774912e-001 -1.308370e+002
1212075000 9.716860e-001 -1.343210e+002 8.803649e-005 -4.613142e+001 8.887845e-005 -4.908708e+001 9.772124e-001 -1.331960e+002
1234518750 9.710491e-001 -1.367420e+002 9.881151e-005 -4.786204e+001 8.698976e-005 -4.473094e+001 9.763275e-001 -1.355670e+002
1256962500 9.710992e-001 -1.391622e+002 8.278708e-005 -4.432640e+001 9.816284e-005 -5.169813e+001 9.760830e-001 -1.379504e+002
1279406250 9.704238e-001 -1.415583e+002 9.430407e-005 -5.823720e+001 9.529873e-005 -5.914509e+001 9.753839e-001 -1.403380e+002
1301850000 9.695715e-001 -1.439793e+002 9.103708e-005 -5.502003e+001 1.049935e-004 -5.563844e+001 9.750454e-001 -1.427140e+002
1324293750 9.686219e-001 -1.463765e+002 1.052942e-004 -5.246862e+001 9.213687e-005 -6.064723e+001 9.741673e-001 -1.451186e+002
1346737500 9.678297e-001 -1.487860e+002 1.098308e-004 -6.453139e+001 1.015991e-004 -5.652855e+001 9.737507e-001 -1.475169e+002
1369181250 9.676095e-001 -1.511837e+002 1.104985e-004 -6.071729e+001 1.216285e-004 -6.505794e+001 9.728494e-001 -1.498739e+002
1391625000 9.671109e-001 -1.535970e+002 1.180041e-004 -7.257529e+001 9.432851e-005 -6.392310e+001 9.725017e-001 -1.522213e+002
1414068750 9.664785e-001 -1.560134e+002 1.079044e-004 -6.845009e+001 1.094614e-004 -6.538463e+001 9.719287e-001 -1.545906e+002
1436512500 9.665074e-001 -1.584031e+002 1.066677e-004 -6.707760e+001 1.124547e-004 -7.791531e+001 9.717373e-001 -1.569283e+002
1458956250 9.663277e-001 -1.607723e+002 1.180544e-004 -8.397144e+001 1.204091e-004 -7.312162e+001 9.715096e-001 -1.592514e+002
1481400000 9.654755e-001 -1.631555e+002 1.276160e-004 -7.346914e+001 1.242907e-004 -7.444666e+001 9.707158e-001 -1.616075e+002
1503843750 9.644995e-001 -1.655661e+002 1.235396e-004 -7.896944e+001 1.171056e-004 -7.343060e+001 9.703181e-001 -1.639800e+002
1526287500 9.641749e-001 -1.679547e+002 1.237301e-004 -7.893925e+001 1.229171e-004 -8.195071e+001 9.696697e-001 -1.663325e+002
1548731250 9.634126e-001 -1.703284e+002 1.248121e-004 -8.350739e+001 1.235365e-004 -8.768359e+001 9.688965e-001 -1.686740e+002
1571175000 9.628974e-001 -1.727127e+002 1.375013e-004 -8.212962e+001 1.199107e-004 -9.159752e+001 9.684410e-001 -1.710230e+002
1593618750 9.625306e-001 -1.750983e+002 1.443784e-004 -9.135844e+001 1.336377e-004 -8.741697e+001 9.679009e-001 -1.733572e+002
1616062500 9.627772e-001 -1.774734e+002 1.285135e-004 -8.415907e+001 1.366860e-004 -9.171054e+001 9.678956e-001 -1.756755e+002
1638506250 9.619685e-001 -1.798544e+002 1.359063e-004 -9.459898e+001 1.377606e-004 -9.531886e+001 9.675950e-001 -1.779982e+002
1660950000 9.612701e-001 1.777730e+002 1.351374e-004 -9.591932e+001 1.322786e-004 -9.713630e+001 9.666485e-001 1.796679e+002
1683393750 9.607039e-001 1.754031e+002 1.306679e-004 -1.055983e+002 1.312235e-004 -9.831873e+001 9.664301e-001 1.773340e+002
1705837500 9.602593e-001 1.730328e+002 1.424704e-004 -1.005706e+002 1.428724e-004 -9.750376e+001 9.658001e-001 1.749944e+002
1728281250 9.591252e-001 1.706569e+002 1.536034e-004 -9.906455e+001 1.605874e-004 -1.007962e+002 9.649878e-001 1.726690e+002
1750725000 9.586278e-001 1.682940e+002 1.568705e-004 -1.042292e+002 1.536075e-004 -1.088363e+002 9.643480e-001 1.703263e+002
1773168750 9.584244e-001 1.659324e+002 1.506272e-004 -1.036991e+002 1.564763e-004 -1.136571e+002 9.643201e-001 1.680146e+002
1795612500 9.582186e-001 1.635710e+002 1.592449e-004 -1.092023e+002 1.552575e-004 -1.092321e+002 9.634836e-001 1.657023e+002
1818056250 9.580370e-001 1.612182e+002 1.654202e-004 -1.127184e+002 1.491718e-004 -1.116919e+002 9.631052e-001 1.634192e+002
1840500000 9.577553e-001 1.588653e+002 1.580773e-004 -1.138075e+002 1.739638e-004 -1.119446e+002 9.627620e-001 1.610984e+002
1862943750 9.573043e-001 1.564926e+002 1.762736e-004 -1.175648e+002 1.735052e-004 -1.162050e+002 9.622889e-001 1.587827e+002
1885387500 9.564737e-001 1.541291e+002 1.748927e-004 -1.232069e+002 1.900194e-004 -1.163654e+002 9.620106e-001 1.564816e+002
1907831250 9.556912e-001 1.517795e+002 1.845879e-004 -1.254323e+002 1.794568e-004 -1.230604e+002 9.615762e-001 1.541613e+002
1930275000 9.552416e-001 1.494094e+002 1.900410e-004 -1.247728e+002 1.880012e-004 -1.268976e+002 9.610398e-001 1.518378e+002
1952718750 9.547009e-001 1.470594e+002 1.801361e-004 -1.306967e+002 1.913229e-004 -1.325873e+002 9.604255e-001 1.495238e+002
1975162500 9.542608e-001 1.447195e+002 2.053844e-004 -1.329214e+002 1.902746e-004 -1.330576e+002 9.600134e-001 1.472197e+002
1997606250 9.542628e-001 1.423824e+002 1.937664e-004 -1.302889e+002 2.040666e-004 -1.348596e+002 9.592898e-001 1.449330e+002
2020050000 9.542413e-001 1.400293e+002 1.986465e-004 -1.378072e+002 1.996696e-004 -1.388130e+002 9.587869e-001 1.426204e+002
2042493750 9.537567e-001 1.376661e+002 2.226796e-004 -1.404192e+002 2.078530e-004 -1.372949e+002 9.584627e-001 1.403104e+002
2064937500 9.532204e-001 1.353339e+002 2.334210e-004 -1.438649e+002 2.309677e-004 -1.440404e+002 9.580712e-001 1.380068e+002
2087381250 9.525009e-001 1.329956e+002 2.223184e-004 -1.420108e+002 2.240983e-004 -1.459689e+002 9.579107e-001 1.357221e+002
2109825000 9.523209e-001 1.306458e+002 2.222428e-004 -1.458270e+002 2.181672e-004 -1.472249e+002 9.576773e-001 1.334258e+002
2132268750 9.516421e-001 1.283090e+002 2.442014e-004 -1.510768e+002 2.500007e-004 -1.497977e+002 9.575472e-001 1.311288e+002
2154712500 9.511396e-001 1.259755e+002 2.481616e-004 -1.531537e+002 2.327804e-004 -1.530481e+002 9.567059e-001 1.288457e+002
2177156250 9.512667e-001 1.236357e+002 2.611462e-004 -1.570655e+002 2.522166e-004 -1.548005e+002 9.564378e-001 1.265493e+002
2199600000 9.512202e-001 1.212988e+002 2.550101e-004 -1.584976e+002 2.469238e-004 -1.612673e+002 9.559525e-001 1.242470e+002
2222043750 9.508582e-001 1.189730e+002 2.534271e-004 -1.614782e+002 2.528824e-004 -1.620033e+002 9.555849e-001 1.219673e+002
2244487500 9.509250e-001 1.166418e+002 2.630972e-004 -1.641864e+002 2.516195e-004 -1.647444e+002 9.551815e-001 1.196478e+002
2266931250 9.504706e-001 1.143204e+002 2.736015e-004 -1.685105e+002 2.870689e-004 -1.665102e+002 9.549866e-001 1.173780e+002
2289375000 9.503202e-001 1.119884e+002 3.004834e-004 -1.734155e+002 2.835067e-004 -1.687634e+002 9.547562e-001 1.150942e+002
2311818750 9.497031e-001 1.096631e+002 2.961462e-004 -1.770391e+002 3.102727e-004 -1.747754e+002 9.548023e-001 1.128043e+002
2334262500 9.485812e-001 1.073259e+002 3.120917e-004 1.766262e+002 2.960485e-004 -1.775298e+002 9.540782e-001 1.105184e+002
2356706250 9.488791e-001 1.049993e+002 2.930396e-004 1.762894e+002 3.124176e-004 1.775594e+002 9.534904e-001 1.082190e+002
2379150000 9.485649e-001 1.026824e+002 3.093912e-004 1.731808e+002 3.206258e-004 1.693143e+002 9.537161e-001 1.059472e+002
2401593750 9.488074e-001 1.003382e+002 3.235870e-004 1.686673e+002 3.300951e-004 1.700372e+002 9.529897e-001 1.036362e+002
2424037500 9.487787e-001 9.802306e+001 3.277532e-004 1.670739e+002 3.384798e-004 1.669292e+002 9.522768e-001 1.013426e+002
2446481250 9.485053e-001 9.570622e+001 3.286545e-004 1.641623e+002 3.320152e-004 1.652612e+002 9.526662e-001 9.905405e+001
2468925000 9.479463e-001 9.338874e+001 3.468354e-004 1.607652e+002 3.505363e-004 1.613482e+002 9.521654e-001 9.677303e+001
2491368750 9.473646e-001 9.107198e+001 3.414682e-004 1.578866e+002 3.504095e-004 1.569224e+002 9.516136e-001 9.450370e+001
2513812500 9.463254e-001 8.874204e+001 3.405751e-004 1.552340e+002 3.574850e-004 1.537547e+002 9.518183e-001 9.221179e+001
2536256250 9.463182e-001 8.642099e+001 3.672472e-004 1.506923e+002 3.584389e-004 1.503017e+002 9.514565e-001 8.992677e+001
2558700000 9.462265e-001 8.408611e+001 3.645573e-004 1.481563e+002 3.556330e-004 1.476756e+002 9.510731e-001 8.763177e+001
2581143750 9.462596e-001 8.175102e+001 3.866642e-004 1.468690e+002 3.738037e-004 1.452789e+002 9.509723e-001 8.533355e+001
2603587500 9.460375e-001 7.943070e+001 3.884951e-004 1.411200e+002 4.053552e-004 1.425331e+002 9.509068e-001 8.304394e+001
2626031250 9.462938e-001 7.712291e+001 4.015836e-004 1.396785e+002 4.084426e-004 1.389161e+002 9.507489e-001 8.076105e+001
2648475000 9.459567e-001 7.482878e+001 4.096068e-004 1.354833e+002 4.032567e-004 1.353037e+002 9.499872e-001 7.848160e+001
2670918750 9.455963e-001 7.250747e+001 4.153859e-004 1.318281e+002 4.249147e-004 1.317350e+002 9.496595e-001 7.619720e+001
2693362500 9.450214e-001 7.018340e+001 4.309640e-004 1.289761e+002 4.234833e-004 1.272039e+002 9.496202e-001 7.390374e+001
2715806250 9.443585e-001 6.786060e+001 4.399044e-004 1.255283e+002 4.288931e-004 1.249596e+002 9.493606e-001 7.162246e+001
2738250000 9.443249e-001 6.552170e+001 4.454037e-004 1.214794e+002 4.379035e-004 1.209110e+002 9.489135e-001 6.930064e+001
2760693750 9.444029e-001 6.318408e+001 4.431524e-004 1.180864e+002 4.578181e-004 1.170258e+002 9.494120e-001 6.698326e+001
2783137500 9.448059e-001 6.088207e+001 4.416050e-004 1.162396e+002 4.462323e-004 1.140060e+002 9.491023e-001 6.469953e+001
2805581250 9.446005e-001 5.858084e+001 4.661626e-004 1.128897e+002 4.484633e-004 1.133095e+002 9.489592e-001 6.241781e+001
2828025000 9.445339e-001 5.626433e+001 4.752098e-004 1.118041e+002 4.854638e-004 1.094547e+002 9.484928e-001 6.011437e+001
2850468750 9.437647e-001 5.395290e+001 4.811461e-004 1.079816e+002 4.796548e-004 1.077023e+002 9.483085e-001 5.782081e+001
2872912500 9.435139e-001 5.164812e+001 4.860930e-004 1.039165e+002 5.070189e-004 1.035973e+002 9.479840e-001 5.555851e+001
2895356250 9.432458e-001 4.932358e+001 5.037751e-004 1.016696e+002 4.987996e-004 1.021407e+002 9.474930e-001 5.325267e+001
2917800000 9.424472e-001 4.695941e+001 5.066488e-004 9.812932e+001 5.182917e-004 9.743916e+001 9.472362e-001 5.092947e+001
2940243750 9.433509e-001 4.461855e+001 5.410603e-004 9.489469e+001 5.450322e-004 9.418166e+001 9.476726e-001 4.860723e+001
2962687500 9.430416e-001 4.231224e+001 5.368490e-004 9.138123e+001 5.484208e-004 9.187011e+001 9.474755e-001 4.631277e+001
2985131250 9.435285e-001 4.001212e+001 5.460973e-004 8.921165e+001 5.541659e-004 8.719232e+001 9.473383e-001 4.400352e+001
3007575000 9.432778e-001 3.771175e+001 5.556269e-004 8.658311e+001 5.431568e-004 8.353353e+001 9.471862e-001 4.170602e+001
3030018750 9.430505e-001 3.541173e+001 5.698623e-004 8.292738e+001 5.627592e-004 8.155210e+001 9.471275e-001 3.940570e+001
3052462500 9.425153e-001 3.308506e+001 5.803961e-004 7.930940e+001 5.769112e-004 7.791969e+001 9.467309e-001 3.712062e+001
3074906250 9.419391e-001 3.074570e+001 5.895430e-004 7.426945e+001 5.766884e-004 7.492834e+001 9.463315e-001 3.480048e+001
3097350000 9.419189e-001 2.839984e+001 6.115996e-004 7.356514e+001 5.910952e-004 7.261256e+001 9.468136e-001 3.248572e+001
3119793750 9.421651e-001 2.606832e+001 6.175198e-004 7.195288e+001 6.198788e-004 6.978708e+001 9.468854e-001 3.018312e+001
3142237500 9.425253e-001 2.375948e+001 6.447170e-004 6.681120e+001 6.097573e-004 6.685849e+001 9.465201e-001 2.787726e+001
3164681250 9.431038e-001 2.145079e+001 6.497781e-004 6.267339e+001 6.182159e-004 6.492244e+001 9.467422e-001 2.556102e+001
3187125000 9.429958e-001 1.914690e+001 6.569292e-004 5.882696e+001 6.434214e-004 6.134646e+001 9.468434e-001 2.324040e+001
3209568750 9.428195e-001 1.683802e+001 6.719300e-004 5.851684e+001 6.611577e-004 5.823507e+001 9.460915e-001 2.093757e+001
3232012500 9.422151e-001 1.452080e+001 6.930612e-004 5.427043e+001 6.733407e-004 5.459249e+001 9.459065e-001 1.860793e+001
3254456250 9.421378e-001 1.217168e+001 6.994053e-004 5.205284e+001 6.792184e-004 5.211290e+001 9.461176e-001 1.627016e+001
3276900000 9.420242e-001 9.832290e+000 7.148284e-004 4.713734e+001 6.990521e-004 4.889889e+001 9.463031e-001 1.397872e+001
3299343750 9.423617e-001 7.493577e+000 7.231936e-004 4.544937e+001 7.138507e-004 4.506295e+001 9.464454e-001 1.165622e+001
3321787500 9.426774e-001 5.179208e+000 7.336119e-004 4.230381e+001 7.116557e-004 4.266008e+001 9.469653e-001 9.364698e+000
3344231250 9.425626e-001 2.875231e+000 7.573974e-004 4.046212e+001 7.438486e-004 4.088390e+001 9.471495e-001 7.054894e+000
3366675000 9.427616e-001 5.451853e-001 7.828024e-004 3.706319e+001 7.687497e-004 3.863031e+001 9.467375e-001 4.707473e+000
3389118750 9.428279e-001 -1.789299e+000 8.074020e-004 3.343133e+001 7.922639e-004 3.442229e+001 9.462150e-001 2.359542e+000
3411562500 9.426062e-001 -4.109942e+000 8.060241e-004 3.103207e+001 7.960811e-004 3.299403e+001 9.462893e-001 2.463389e-002
3434006250 9.423368e-001 -6.429957e+000 8.569926e-004 2.850256e+001 8.395207e-004 3.035849e+001 9.462333e-001 -2.311512e+000
3456450000 9.420164e-001 -8.786618e+000 8.625878e-004 2.324194e+001 8.644278e-004 2.621420e+001 9.458311e-001 -4.666083e+000
3478893750 9.422362e-001 -1.116580e+001 8.950054e-004 2.134453e+001 9.093497e-004 2.460689e+001 9.467489e-001 -6.998166e+000
3501337500 9.427897e-001 -1.347165e+001 9.020334e-004 1.770863e+001 9.284973e-004 1.888784e+001 9.470719e-001 -9.311607e+000
3523781250 9.430081e-001 -1.577304e+001 9.304861e-004 1.295276e+001 9.545817e-004 1.734488e+001 9.473054e-001 -1.159180e+001
