!Agilent Technologies,E8364A,US41440284,A.06.04.32
!Agilent E8364A: A.06.04.32
!Date: Friday, December 06, 2019 10:27:10
!Correction: S11(Full 2 Port(1,2)) S21(Full 2 Port(1,2)) S12(Full 2 Port(1,2)) S22(Full 2 Port(1,2)) 
!S2P File: Measurements: S11, S21, S12, S22:
# Hz S  MA   R 50
45000000 9.956724e-001 1.751338e+002 6.174207e-005 -1.787948e+001 9.855002e-005 -1.932996e+001 9.982957e-001 1.751779e+002
67443750 9.940850e-001 1.727792e+002 4.033036e-005 -4.714663e+000 1.116809e-004 -5.494264e+001 9.962200e-001 1.728522e+002
89887500 9.934213e-001 1.704189e+002 3.133304e-005 1.453321e+002 4.667835e-005 6.803590e+001 9.947924e-001 1.705365e+002
112331250 9.923028e-001 1.680683e+002 4.996336e-005 7.310593e+001 6.082836e-005 8.990285e+001 9.934999e-001 1.682050e+002
134775000 9.920840e-001 1.657414e+002 8.342347e-005 5.273103e+001 4.845354e-005 2.583279e+001 9.932544e-001 1.658994e+002
157218750 9.917531e-001 1.634074e+002 6.240491e-005 4.778064e+001 3.376514e-005 1.114529e+002 9.933693e-001 1.635865e+002
179662500 9.910522e-001 1.610665e+002 7.630842e-005 9.134682e+001 8.326027e-005 6.929761e+001 9.934326e-001 1.612597e+002
202106250 9.902114e-001 1.587300e+002 3.400386e-005 7.709607e+001 5.547112e-005 7.409776e+001 9.924298e-001 1.589419e+002
224550000 9.897262e-001 1.564128e+002 7.043187e-005 6.848633e+001 7.812308e-005 6.021889e+001 9.923136e-001 1.567052e+002
246993750 9.886088e-001 1.540844e+002 8.815484e-005 4.845609e+001 8.073088e-005 7.615461e+001 9.911020e-001 1.544009e+002
269437500 9.890633e-001 1.517523e+002 1.139535e-004 6.798872e+001 1.255657e-004 4.711396e+001 9.911056e-001 1.521839e+002
291881250 9.877103e-001 1.494083e+002 1.238377e-004 6.278065e+001 1.094440e-004 6.719398e+001 9.902021e-001 1.497726e+002
314325000 9.872405e-001 1.470784e+002 1.176011e-004 5.862935e+001 1.229724e-004 6.823227e+001 9.891469e-001 1.474907e+002
336768750 9.868588e-001 1.447645e+002 1.132164e-004 5.781779e+001 1.075047e-004 5.604779e+001 9.890562e-001 1.451852e+002
359212500 9.864331e-001 1.424463e+002 1.449231e-004 5.278671e+001 1.267118e-004 5.343415e+001 9.890173e-001 1.428833e+002
381656250 9.862233e-001 1.401284e+002 1.569511e-004 5.328607e+001 1.423716e-004 5.219210e+001 9.894380e-001 1.405808e+002
404100000 9.857206e-001 1.378038e+002 1.456292e-004 5.763814e+001 1.530764e-004 4.787320e+001 9.893208e-001 1.382523e+002
426543750 9.849592e-001 1.354835e+002 1.697354e-004 4.549983e+001 1.560621e-004 5.206155e+001 9.888699e-001 1.359851e+002
448987500 9.842822e-001 1.331543e+002 1.794967e-004 4.298249e+001 1.617768e-004 5.086321e+001 9.881501e-001 1.336823e+002
471431250 9.836859e-001 1.308305e+002 1.696375e-004 4.747427e+001 1.720670e-004 4.505764e+001 9.874583e-001 1.313775e+002
493875000 9.832355e-001 1.285027e+002 1.926986e-004 4.089615e+001 1.928771e-004 4.463382e+001 9.864033e-001 1.290956e+002
516318750 9.832441e-001 1.261894e+002 1.955916e-004 3.758070e+001 2.064446e-004 3.876369e+001 9.858192e-001 1.268107e+002
538762500 9.829783e-001 1.238671e+002 2.066283e-004 3.681978e+001 1.970628e-004 3.758127e+001 9.854646e-001 1.244913e+002
561206250 9.823881e-001 1.215527e+002 2.316919e-004 2.989857e+001 2.215991e-004 3.525558e+001 9.857531e-001 1.221641e+002
583650000 9.824896e-001 1.192201e+002 2.303198e-004 3.380476e+001 2.240495e-004 3.403447e+001 9.861689e-001 1.198753e+002
606093750 9.824882e-001 1.168748e+002 2.238146e-004 2.863928e+001 2.278571e-004 3.082462e+001 9.860717e-001 1.175751e+002
628537500 9.818145e-001 1.145766e+002 2.393354e-004 2.593104e+001 2.482771e-004 2.726137e+001 9.854624e-001 1.152658e+002
650981250 9.810235e-001 1.122276e+002 2.474234e-004 2.402636e+001 2.380837e-004 2.388861e+001 9.855446e-001 1.129541e+002
673425000 9.807413e-001 1.098918e+002 2.496979e-004 2.217443e+001 2.615054e-004 2.410576e+001 9.846227e-001 1.106607e+002
695868750 9.804715e-001 1.075690e+002 2.625535e-004 1.904972e+001 2.626847e-004 1.922548e+001 9.841403e-001 1.083660e+002
718312500 9.803954e-001 1.052358e+002 2.650156e-004 1.725328e+001 2.613887e-004 1.594282e+001 9.830573e-001 1.060478e+002
740756250 9.807268e-001 1.028934e+002 2.870401e-004 1.517153e+001 2.612563e-004 1.577992e+001 9.829129e-001 1.037324e+002
763200000 9.807752e-001 1.005879e+002 2.769082e-004 1.247105e+001 2.867604e-004 1.219130e+001 9.832293e-001 1.013948e+002
785643750 9.806003e-001 9.825903e+001 2.968105e-004 1.120613e+001 2.770197e-004 1.180345e+001 9.835594e-001 9.906756e+001
808087500 9.799126e-001 9.591826e+001 3.093070e-004 9.421209e+000 3.083579e-004 9.258191e+000 9.832445e-001 9.672189e+001
830531250 9.796717e-001 9.356422e+001 3.118935e-004 5.384551e+000 3.031913e-004 6.202299e+000 9.830405e-001 9.437535e+001
852975000 9.793618e-001 9.124009e+001 3.144911e-004 8.742513e-001 3.250836e-004 3.186033e+000 9.830972e-001 9.207236e+001
875418750 9.792392e-001 8.889299e+001 3.154243e-004 9.318678e-001 3.282322e-004 3.099174e+000 9.826959e-001 8.976395e+001
897862500 9.791284e-001 8.653227e+001 3.297669e-004 -1.472781e+000 3.362707e-004 -1.119938e+000 9.819616e-001 8.745051e+001
920306250 9.791561e-001 8.417169e+001 3.378240e-004 -4.314112e+000 3.471767e-004 -3.522033e+000 9.815678e-001 8.511852e+001
942750000 9.796908e-001 8.182542e+001 3.514660e-004 -3.696031e+000 3.399752e-004 -7.629047e+000 9.815547e-001 8.277495e+001
965193750 9.791157e-001 7.948791e+001 3.549259e-004 -7.578359e+000 3.495055e-004 -5.218674e+000 9.816338e-001 8.042540e+001
987637500 9.791772e-001 7.714404e+001 3.517153e-004 -7.849821e+000 3.666161e-004 -1.019729e+001 9.815933e-001 7.807409e+001
1010081250 9.787800e-001 7.479699e+001 3.851972e-004 -1.039885e+001 3.760268e-004 -1.157322e+001 9.816455e-001 7.571900e+001
1032525000 9.785832e-001 7.243648e+001 3.900022e-004 -1.421330e+001 3.761479e-004 -1.395438e+001 9.820827e-001 7.336377e+001
1054968750 9.783202e-001 7.008313e+001 3.910160e-004 -1.722138e+001 3.859289e-004 -1.691404e+001 9.815949e-001 7.101714e+001
1077412500 9.777628e-001 6.771025e+001 4.014392e-004 -1.732241e+001 3.932723e-004 -1.922050e+001 9.814352e-001 6.868429e+001
1099856250 9.779751e-001 6.534744e+001 4.091064e-004 -2.224002e+001 4.226028e-004 -2.129139e+001 9.816061e-001 6.633253e+001
1122300000 9.780900e-001 6.298375e+001 4.098307e-004 -2.374723e+001 3.914955e-004 -2.404142e+001 9.814254e-001 6.400629e+001
1144743750 9.782248e-001 6.060921e+001 4.109836e-004 -2.578098e+001 4.278464e-004 -2.567853e+001 9.810988e-001 6.163975e+001
1167187500 9.784698e-001 5.824445e+001 4.186823e-004 -2.875146e+001 4.241837e-004 -2.920560e+001 9.811650e-001 5.927692e+001
1189631250 9.779964e-001 5.586506e+001 4.273879e-004 -3.050144e+001 4.297579e-004 -3.220919e+001 9.811692e-001 5.688165e+001
1212075000 9.783274e-001 5.350634e+001 4.358051e-004 -3.189886e+001 4.335334e-004 -3.127898e+001 9.812350e-001 5.448256e+001
1234518750 9.777252e-001 5.113433e+001 4.346225e-004 -3.519951e+001 4.425113e-004 -3.609948e+001 9.812636e-001 5.211947e+001
1256962500 9.776186e-001 4.876892e+001 4.393670e-004 -3.674725e+001 4.511697e-004 -3.682238e+001 9.809639e-001 4.974994e+001
1279406250 9.772380e-001 4.636884e+001 4.540925e-004 -3.859463e+001 4.534532e-004 -3.924936e+001 9.808532e-001 4.736955e+001
1301850000 9.772556e-001 4.398279e+001 4.514609e-004 -3.994337e+001 4.541093e-004 -3.893960e+001 9.807888e-001 4.498898e+001
1324293750 9.775580e-001 4.159506e+001 4.788247e-004 -4.292841e+001 4.649759e-004 -4.374992e+001 9.808404e-001 4.263166e+001
1346737500 9.775682e-001 3.921460e+001 4.906853e-004 -4.476778e+001 4.744696e-004 -4.391695e+001 9.808568e-001 4.024861e+001
1369181250 9.774975e-001 3.681175e+001 4.808603e-004 -4.668328e+001 4.935261e-004 -4.762796e+001 9.804894e-001 3.788001e+001
1391625000 9.776143e-001 3.442550e+001 4.950687e-004 -4.895248e+001 4.962130e-004 -5.030390e+001 9.805019e-001 3.545259e+001
1414068750 9.773960e-001 3.205205e+001 4.934068e-004 -5.120790e+001 5.104796e-004 -5.142588e+001 9.803783e-001 3.307833e+001
1436512500 9.767207e-001 2.964636e+001 5.009357e-004 -5.357587e+001 5.082389e-004 -5.462416e+001 9.804313e-001 3.065235e+001
1458956250 9.767802e-001 2.722330e+001 5.295121e-004 -5.597264e+001 5.170478e-004 -5.662494e+001 9.800801e-001 2.823327e+001
1481400000 9.766713e-001 2.482294e+001 5.326463e-004 -5.963799e+001 5.332867e-004 -5.905005e+001 9.802956e-001 2.584221e+001
1503843750 9.769034e-001 2.243629e+001 5.248869e-004 -6.047223e+001 5.274677e-004 -6.093100e+001 9.803873e-001 2.345874e+001
1526287500 9.772176e-001 2.004655e+001 5.318715e-004 -6.282953e+001 5.361575e-004 -6.309806e+001 9.800944e-001 2.106611e+001
1548731250 9.767918e-001 1.761810e+001 5.376125e-004 -6.598483e+001 5.274202e-004 -6.415732e+001 9.803026e-001 1.864380e+001
1571175000 9.769912e-001 1.521988e+001 5.567052e-004 -6.882116e+001 5.352172e-004 -6.645850e+001 9.801223e-001 1.626006e+001
1593618750 9.765203e-001 1.281299e+001 5.610053e-004 -6.960299e+001 5.548564e-004 -6.829568e+001 9.802354e-001 1.382138e+001
1616062500 9.763643e-001 1.039511e+001 5.618409e-004 -7.184184e+001 5.602441e-004 -7.180577e+001 9.796849e-001 1.138817e+001
1638506250 9.762078e-001 7.968641e+000 5.806061e-004 -7.356838e+001 5.713642e-004 -7.459837e+001 9.797521e-001 8.944310e+000
1660950000 9.760907e-001 5.558018e+000 5.743087e-004 -7.733861e+001 5.722142e-004 -7.486736e+001 9.798840e-001 6.539911e+000
1683393750 9.757222e-001 3.131691e+000 5.800604e-004 -7.782642e+001 5.726315e-004 -7.787967e+001 9.793604e-001 4.100632e+000
1705837500 9.757586e-001 7.092945e-001 5.981901e-004 -8.027220e+001 5.815584e-004 -7.890666e+001 9.792109e-001 1.674549e+000
1728281250 9.761318e-001 -1.686288e+000 6.009527e-004 -8.351219e+001 5.843292e-004 -8.118896e+001 9.796400e-001 -7.340078e-001
1750725000 9.764332e-001 -4.118962e+000 5.890119e-004 -8.360426e+001 6.057071e-004 -8.408235e+001 9.796596e-001 -3.152910e+000
1773168750 9.758451e-001 -6.547921e+000 5.965740e-004 -8.592582e+001 6.051398e-004 -8.406556e+001 9.795027e-001 -5.602762e+000
1795612500 9.758893e-001 -8.989998e+000 6.157755e-004 -8.697227e+001 5.906324e-004 -8.725374e+001 9.791870e-001 -8.048685e+000
1818056250 9.754317e-001 -1.142379e+001 6.134532e-004 -8.944135e+001 6.178723e-004 -8.834900e+001 9.792075e-001 -1.050121e+001
1840500000 9.755879e-001 -1.385277e+001 6.258042e-004 -9.287257e+001 6.374620e-004 -9.058677e+001 9.791131e-001 -1.295084e+001
1862943750 9.754704e-001 -1.627733e+001 6.499140e-004 -9.456346e+001 6.244156e-004 -9.206334e+001 9.790338e-001 -1.539902e+001
1885387500 9.757710e-001 -1.871854e+001 6.371028e-004 -9.547790e+001 6.533731e-004 -9.480186e+001 9.788067e-001 -1.783154e+001
1907831250 9.758477e-001 -2.112543e+001 6.551748e-004 -9.742740e+001 6.709886e-004 -9.667369e+001 9.788892e-001 -2.026798e+001
1930275000 9.753823e-001 -2.358016e+001 6.802836e-004 -1.008851e+002 6.600488e-004 -9.955972e+001 9.787151e-001 -2.270679e+001
1952718750 9.754747e-001 -2.602798e+001 6.764696e-004 -1.041739e+002 6.745039e-004 -1.014171e+002 9.787352e-001 -2.516360e+001
1975162500 9.751981e-001 -2.846473e+001 6.760235e-004 -1.057618e+002 6.792878e-004 -1.052825e+002 9.788629e-001 -2.761254e+001
1997606250 9.749056e-001 -3.093568e+001 6.788052e-004 -1.065204e+002 6.764540e-004 -1.068602e+002 9.790223e-001 -3.007277e+001
2020050000 9.747434e-001 -3.336961e+001 6.806861e-004 -1.102553e+002 6.998378e-004 -1.078772e+002 9.791378e-001 -3.255211e+001
2042493750 9.746400e-001 -3.580677e+001 6.747381e-004 -1.111422e+002 6.912659e-004 -1.115149e+002 9.787318e-001 -3.499815e+001
2064937500 9.750686e-001 -3.826353e+001 6.926756e-004 -1.143496e+002 6.753362e-004 -1.123129e+002 9.786741e-001 -3.744769e+001
2087381250 9.746435e-001 -4.070825e+001 6.767984e-004 -1.154565e+002 7.073507e-004 -1.153644e+002 9.782245e-001 -3.993609e+001
2109825000 9.742991e-001 -4.314961e+001 6.879634e-004 -1.167985e+002 7.140344e-004 -1.168274e+002 9.778502e-001 -4.239058e+001
2132268750 9.744166e-001 -4.559938e+001 6.984930e-004 -1.187042e+002 7.004770e-004 -1.181121e+002 9.779162e-001 -4.484254e+001
2154712500 9.743336e-001 -4.806487e+001 6.982815e-004 -1.203753e+002 7.023428e-004 -1.191296e+002 9.778333e-001 -4.731473e+001
2177156250 9.738905e-001 -5.053352e+001 6.996656e-004 -1.211126e+002 7.168495e-004 -1.212669e+002 9.775401e-001 -4.978619e+001
2199600000 9.732993e-001 -5.300108e+001 7.222624e-004 -1.232441e+002 7.134076e-004 -1.225911e+002 9.777079e-001 -5.223729e+001
2222043750 9.730386e-001 -5.546163e+001 7.020634e-004 -1.232715e+002 7.353126e-004 -1.240236e+002 9.778730e-001 -5.470670e+001
2244487500 9.729228e-001 -5.792470e+001 7.324190e-004 -1.246373e+002 7.511433e-004 -1.243677e+002 9.775273e-001 -5.716968e+001
2266931250 9.730465e-001 -6.037336e+001 7.451677e-004 -1.260462e+002 7.590206e-004 -1.255739e+002 9.769255e-001 -5.964926e+001
2289375000 9.727803e-001 -6.284669e+001 7.684085e-004 -1.286508e+002 7.843591e-004 -1.287141e+002 9.767843e-001 -6.211418e+001
2311818750 9.729203e-001 -6.530345e+001 7.817797e-004 -1.298757e+002 8.096345e-004 -1.293696e+002 9.762412e-001 -6.457662e+001
2334262500 9.721196e-001 -6.777000e+001 8.176470e-004 -1.307542e+002 8.255632e-004 -1.308634e+002 9.759462e-001 -6.705521e+001
2356706250 9.724922e-001 -7.023654e+001 8.393028e-004 -1.326812e+002 8.502878e-004 -1.327912e+002 9.761080e-001 -6.953175e+001
2379150000 9.720497e-001 -7.270732e+001 8.583756e-004 -1.354037e+002 8.684341e-004 -1.357861e+002 9.762729e-001 -7.199254e+001
2401593750 9.709551e-001 -7.517631e+001 8.908912e-004 -1.376854e+002 9.125282e-004 -1.388112e+002 9.759528e-001 -7.445109e+001
2424037500 9.706743e-001 -7.765614e+001 9.178696e-004 -1.412307e+002 9.236208e-004 -1.417924e+002 9.757703e-001 -7.691853e+001
2446481250 9.706688e-001 -8.012671e+001 9.174168e-004 -1.429868e+002 9.320145e-004 -1.427711e+002 9.754739e-001 -7.939522e+001
2468925000 9.706292e-001 -8.261216e+001 9.391907e-004 -1.469200e+002 9.342136e-004 -1.457811e+002 9.749448e-001 -8.188147e+001
2491368750 9.706995e-001 -8.508536e+001 9.517494e-004 -1.492195e+002 9.649475e-004 -1.490797e+002 9.748345e-001 -8.435165e+001
2513812500 9.706820e-001 -8.755226e+001 9.629269e-004 -1.522230e+002 9.626719e-004 -1.512214e+002 9.747478e-001 -8.683954e+001
2536256250 9.703595e-001 -9.002480e+001 9.736308e-004 -1.533994e+002 9.976466e-004 -1.538261e+002 9.741991e-001 -8.931055e+001
2558700000 9.695728e-001 -9.248441e+001 9.903862e-004 -1.558890e+002 1.005450e-003 -1.551906e+002 9.741105e-001 -9.176325e+001
2581143750 9.689242e-001 -9.494285e+001 1.001671e-003 -1.583909e+002 1.021423e-003 -1.591718e+002 9.737885e-001 -9.421851e+001
2603587500 9.682247e-001 -9.742774e+001 1.003823e-003 -1.614741e+002 1.031361e-003 -1.617805e+002 9.733953e-001 -9.667816e+001
2626031250 9.678416e-001 -9.990170e+001 1.017236e-003 -1.632352e+002 1.048891e-003 -1.643884e+002 9.733921e-001 -9.915771e+001
2648475000 9.677981e-001 -1.024047e+002 1.039391e-003 -1.658833e+002 1.049028e-003 -1.659185e+002 9.729505e-001 -1.016204e+002
2670918750 9.681229e-001 -1.048586e+002 1.043733e-003 -1.672651e+002 1.052554e-003 -1.688541e+002 9.733209e-001 -1.040979e+002
2693362500 9.678776e-001 -1.073410e+002 1.078941e-003 -1.700870e+002 1.081785e-003 -1.714573e+002 9.725383e-001 -1.065739e+002
2715806250 9.680223e-001 -1.098085e+002 1.081763e-003 -1.725801e+002 1.090318e-003 -1.730227e+002 9.720185e-001 -1.090182e+002
2738250000 9.675171e-001 -1.122546e+002 1.096812e-003 -1.750496e+002 1.101997e-003 -1.755697e+002 9.719637e-001 -1.114643e+002
2760693750 9.665799e-001 -1.147336e+002 1.097369e-003 -1.772729e+002 1.100013e-003 -1.785320e+002 9.712275e-001 -1.139160e+002
2783137500 9.655169e-001 -1.172078e+002 1.106334e-003 -1.794944e+002 1.130447e-003 1.791117e+002 9.708609e-001 -1.163965e+002
2805581250 9.650455e-001 -1.197076e+002 1.121095e-003 1.791576e+002 1.138011e-003 1.779140e+002 9.708692e-001 -1.188489e+002
2828025000 9.648772e-001 -1.221774e+002 1.137127e-003 1.763816e+002 1.155582e-003 1.751802e+002 9.707327e-001 -1.213164e+002
2850468750 9.646977e-001 -1.246539e+002 1.178050e-003 1.746550e+002 1.208769e-003 1.718904e+002 9.704026e-001 -1.237788e+002
2872912500 9.646032e-001 -1.271405e+002 1.187236e-003 1.705176e+002 1.199259e-003 1.683391e+002 9.700713e-001 -1.262680e+002
2895356250 9.646909e-001 -1.296114e+002 1.190457e-003 1.680022e+002 1.187988e-003 1.650513e+002 9.694625e-001 -1.287307e+002
2917800000 9.642230e-001 -1.320608e+002 1.196670e-003 1.659328e+002 1.199726e-003 1.636744e+002 9.693032e-001 -1.311559e+002
2940243750 9.634413e-001 -1.345025e+002 1.199980e-003 1.639359e+002 1.200476e-003 1.613199e+002 9.684540e-001 -1.335950e+002
2962687500 9.621575e-001 -1.369918e+002 1.221938e-003 1.613911e+002 1.208731e-003 1.591255e+002 9.679399e-001 -1.360501e+002
2985131250 9.619568e-001 -1.394785e+002 1.233744e-003 1.593118e+002 1.224266e-003 1.566688e+002 9.670956e-001 -1.384986e+002
3007575000 9.611744e-001 -1.419747e+002 1.263453e-003 1.567843e+002 1.230899e-003 1.548196e+002 9.667051e-001 -1.409551e+002
3030018750 9.605150e-001 -1.444648e+002 1.273047e-003 1.542319e+002 1.239907e-003 1.516515e+002 9.665305e-001 -1.433981e+002
3052462500 9.607881e-001 -1.469239e+002 1.305348e-003 1.517025e+002 1.227817e-003 1.494589e+002 9.663993e-001 -1.458681e+002
3074906250 9.608399e-001 -1.493814e+002 1.305027e-003 1.484937e+002 1.258135e-003 1.475563e+002 9.658248e-001 -1.483076e+002
3097350000 9.602494e-001 -1.518072e+002 1.326990e-003 1.470117e+002 1.275643e-003 1.452714e+002 9.649296e-001 -1.507287e+002
3119793750 9.594502e-001 -1.542820e+002 1.347192e-003 1.442996e+002 1.284102e-003 1.430371e+002 9.638765e-001 -1.531759e+002
3142237500 9.583690e-001 -1.567513e+002 1.347391e-003 1.416394e+002 1.282580e-003 1.413292e+002 9.635991e-001 -1.556357e+002
3164681250 9.577343e-001 -1.592360e+002 1.386592e-003 1.392845e+002 1.297214e-003 1.397347e+002 9.629048e-001 -1.580771e+002
3187125000 9.573134e-001 -1.617249e+002 1.364246e-003 1.367943e+002 1.309447e-003 1.376769e+002 9.628004e-001 -1.605143e+002
3209568750 9.568103e-001 -1.642019e+002 1.409957e-003 1.340769e+002 1.340312e-003 1.348916e+002 9.624975e-001 -1.629460e+002
3232012500 9.566866e-001 -1.666664e+002 1.413651e-003 1.311230e+002 1.331327e-003 1.324108e+002 9.621140e-001 -1.653795e+002
3254456250 9.564882e-001 -1.691173e+002 1.429159e-003 1.284044e+002 1.362798e-003 1.296878e+002 9.618546e-001 -1.678043e+002
3276900000 9.562078e-001 -1.715527e+002 1.424119e-003 1.264959e+002 1.374998e-003 1.273219e+002 9.607649e-001 -1.702367e+002
3299343750 9.551479e-001 -1.740047e+002 1.426969e-003 1.241631e+002 1.389019e-003 1.251921e+002 9.595197e-001 -1.726624e+002
3321787500 9.538506e-001 -1.764708e+002 1.439136e-003 1.215803e+002 1.409742e-003 1.234053e+002 9.585595e-001 -1.751156e+002
3344231250 9.533130e-001 -1.789590e+002 1.457436e-003 1.186289e+002 1.434122e-003 1.195555e+002 9.580771e-001 -1.775386e+002
3366675000 9.524004e-001 1.785690e+002 1.479001e-003 1.164237e+002 1.440097e-003 1.177049e+002 9.578906e-001 -1.799473e+002
3389118750 9.520440e-001 1.761169e+002 1.482774e-003 1.135564e+002 1.463392e-003 1.155869e+002 9.576966e-001 1.776300e+002
3411562500 9.513019e-001 1.736454e+002 1.491419e-003 1.110774e+002 1.465532e-003 1.127188e+002 9.571489e-001 1.752254e+002
3434006250 9.509595e-001 1.711982e+002 1.490318e-003 1.089669e+002 1.484057e-003 1.098868e+002 9.566808e-001 1.728210e+002
3456450000 9.510275e-001 1.687715e+002 1.482792e-003 1.061917e+002 1.476573e-003 1.079380e+002 9.561320e-001 1.704256e+002
3478893750 9.501227e-001 1.663686e+002 1.490141e-003 1.047787e+002 1.509312e-003 1.060940e+002 9.549885e-001 1.680087e+002
3501337500 9.488477e-001 1.639045e+002 1.527772e-003 1.024308e+002 1.517917e-003 1.033078e+002 9.535393e-001 1.655816e+002
3523781250 9.477415e-001 1.614225e+002 1.545889e-003 1.001893e+002 1.519075e-003 1.004240e+002 9.525449e-001 1.631182e+002
