!Agilent Technologies,E8364A,US41440284,A.06.04.32
!Agilent E8364A: A.06.04.32
!Date: Friday, December 06, 2019 10:21:40
!Correction: S11(Full 2 Port(1,2)) S21(Full 2 Port(1,2)) S12(Full 2 Port(1,2)) S22(Full 2 Port(1,2)) 
!S2P File: Measurements: S11, S21, S12, S22:
# Hz S  MA   R 50
45000000 2.788311e-003 -7.745063e+001 9.983353e-001 -4.948036e+000 9.974895e-001 -4.924117e+000 3.368071e-003 -9.444608e+001
67443750 4.546739e-003 -7.608360e+001 9.974073e-001 -7.357142e+000 9.970248e-001 -7.361688e+000 4.459728e-003 -8.500353e+001
89887500 6.306917e-003 -7.856021e+001 9.971477e-001 -9.771977e+000 9.962927e-001 -9.772959e+000 6.572735e-003 -8.104587e+001
112331250 8.153073e-003 -8.129723e+001 9.962410e-001 -1.218425e+001 9.954607e-001 -1.218878e+001 8.787979e-003 -8.726629e+001
134775000 9.862976e-003 -8.951410e+001 9.958873e-001 -1.458358e+001 9.947769e-001 -1.457958e+001 1.025093e-002 -9.396212e+001
157218750 1.167334e-002 -9.665104e+001 9.951655e-001 -1.698369e+001 9.947965e-001 -1.698217e+001 1.151636e-002 -9.704086e+001
179662500 1.319963e-002 -1.019151e+002 9.947187e-001 -1.937863e+001 9.942300e-001 -1.937893e+001 1.318157e-002 -9.961942e+001
202106250 1.514383e-002 -1.037544e+002 9.940229e-001 -2.178148e+001 9.936037e-001 -2.178265e+001 1.477846e-002 -1.031871e+002
224550000 1.738895e-002 -1.082368e+002 9.935557e-001 -2.415937e+001 9.929138e-001 -2.415659e+001 1.682021e-002 -1.061362e+002
246993750 1.896842e-002 -1.097119e+002 9.930874e-001 -2.655192e+001 9.920031e-001 -2.654119e+001 1.856744e-002 -1.083312e+002
269437500 2.067196e-002 -1.108987e+002 9.925348e-001 -2.890496e+001 9.932500e-001 -2.889402e+001 2.046742e-002 -1.106657e+002
291881250 2.248609e-002 -1.127589e+002 9.925531e-001 -3.133026e+001 9.916476e-001 -3.135154e+001 2.209367e-002 -1.137942e+002
314325000 2.414260e-002 -1.156189e+002 9.919032e-001 -3.372237e+001 9.908273e-001 -3.371959e+001 2.375146e-002 -1.163648e+002
336768750 2.584494e-002 -1.190878e+002 9.912066e-001 -3.611185e+001 9.905570e-001 -3.610337e+001 2.560844e-002 -1.188239e+002
359212500 2.761875e-002 -1.230319e+002 9.905141e-001 -3.849279e+001 9.900873e-001 -3.848830e+001 2.736429e-002 -1.220703e+002
381656250 2.914263e-002 -1.270225e+002 9.902429e-001 -4.088028e+001 9.895958e-001 -4.087405e+001 2.905257e-002 -1.251112e+002
404100000 3.059199e-002 -1.302382e+002 9.897491e-001 -4.326673e+001 9.891754e-001 -4.325925e+001 3.043096e-002 -1.276484e+002
426543750 3.241603e-002 -1.326978e+002 9.890422e-001 -4.563480e+001 9.888042e-001 -4.562688e+001 3.222138e-002 -1.295972e+002
448987500 3.382824e-002 -1.346812e+002 9.888713e-001 -4.801217e+001 9.880360e-001 -4.801085e+001 3.398790e-002 -1.320956e+002
471431250 3.526377e-002 -1.368793e+002 9.881299e-001 -5.038604e+001 9.874855e-001 -5.040025e+001 3.563565e-002 -1.342579e+002
493875000 3.700924e-002 -1.388673e+002 9.875640e-001 -5.276990e+001 9.873539e-001 -5.277105e+001 3.728843e-002 -1.367477e+002
516318750 3.870608e-002 -1.413794e+002 9.874225e-001 -5.515112e+001 9.866176e-001 -5.513394e+001 3.893559e-002 -1.397038e+002
538762500 4.041141e-002 -1.443578e+002 9.868177e-001 -5.751915e+001 9.858438e-001 -5.752167e+001 4.048916e-002 -1.425989e+002
561206250 4.171877e-002 -1.478790e+002 9.862041e-001 -5.989145e+001 9.854535e-001 -5.988829e+001 4.182335e-002 -1.453266e+002
583650000 4.332540e-002 -1.513380e+002 9.858504e-001 -6.226930e+001 9.853923e-001 -6.227312e+001 4.328015e-002 -1.478568e+002
606093750 4.478943e-002 -1.542044e+002 9.858842e-001 -6.464217e+001 9.847700e-001 -6.463079e+001 4.455097e-002 -1.507810e+002
628537500 4.607333e-002 -1.567113e+002 9.849502e-001 -6.700233e+001 9.841284e-001 -6.699752e+001 4.621148e-002 -1.532957e+002
650981250 4.723054e-002 -1.592939e+002 9.844986e-001 -6.938498e+001 9.842121e-001 -6.937444e+001 4.774078e-002 -1.554501e+002
673425000 4.863046e-002 -1.616213e+002 9.840915e-001 -7.175333e+001 9.833260e-001 -7.174919e+001 4.927888e-002 -1.578838e+002
695868750 5.011913e-002 -1.641786e+002 9.834707e-001 -7.413203e+001 9.829893e-001 -7.410973e+001 5.087318e-002 -1.602541e+002
718312500 5.124161e-002 -1.667016e+002 9.831055e-001 -7.649625e+001 9.823717e-001 -7.648350e+001 5.204862e-002 -1.628363e+002
740756250 5.245615e-002 -1.696064e+002 9.826170e-001 -7.886903e+001 9.818957e-001 -7.885809e+001 5.340601e-002 -1.651506e+002
763200000 5.393148e-002 -1.725839e+002 9.821543e-001 -8.122754e+001 9.818202e-001 -8.120631e+001 5.445061e-002 -1.680271e+002
785643750 5.510938e-002 -1.754189e+002 9.820795e-001 -8.359062e+001 9.809696e-001 -8.358926e+001 5.560481e-002 -1.706618e+002
808087500 5.606481e-002 -1.780334e+002 9.817196e-001 -8.596602e+001 9.808375e-001 -8.596111e+001 5.640678e-002 -1.732558e+002
830531250 5.690999e-002 1.793532e+002 9.808692e-001 -8.832280e+001 9.805549e-001 -8.832771e+001 5.751440e-002 -1.755829e+002
852975000 5.826705e-002 1.769930e+002 9.805368e-001 -9.069120e+001 9.801752e-001 -9.068271e+001 5.905110e-002 -1.780244e+002
875418750 5.928234e-002 1.743786e+002 9.802098e-001 -9.305483e+001 9.797065e-001 -9.305618e+001 6.013237e-002 1.795350e+002
897862500 6.027753e-002 1.720263e+002 9.797503e-001 -9.542986e+001 9.791240e-001 -9.540860e+001 6.092759e-002 1.771231e+002
920306250 6.112599e-002 1.692731e+002 9.793779e-001 -9.778816e+001 9.783109e-001 -9.777528e+001 6.186768e-002 1.747465e+002
942750000 6.257090e-002 1.665795e+002 9.788703e-001 -1.001517e+002 9.787071e-001 -1.001464e+002 6.271976e-002 1.721423e+002
965193750 6.357791e-002 1.638550e+002 9.786037e-001 -1.025267e+002 9.783232e-001 -1.025128e+002 6.350148e-002 1.696291e+002
987637500 6.441735e-002 1.612759e+002 9.784710e-001 -1.048832e+002 9.778889e-001 -1.048604e+002 6.399473e-002 1.669535e+002
1010081250 6.502470e-002 1.586328e+002 9.781159e-001 -1.072433e+002 9.773094e-001 -1.072232e+002 6.462967e-002 1.645671e+002
1032525000 6.577166e-002 1.562405e+002 9.778053e-001 -1.096063e+002 9.766587e-001 -1.095959e+002 6.564007e-002 1.622364e+002
1054968750 6.628106e-002 1.536730e+002 9.774444e-001 -1.119647e+002 9.765538e-001 -1.119517e+002 6.647544e-002 1.598504e+002
1077412500 6.707470e-002 1.511720e+002 9.768894e-001 -1.143188e+002 9.763719e-001 -1.143219e+002 6.701967e-002 1.575636e+002
1099856250 6.777644e-002 1.485335e+002 9.766576e-001 -1.166925e+002 9.759234e-001 -1.166784e+002 6.777546e-002 1.553384e+002
1122300000 6.875493e-002 1.456556e+002 9.760541e-001 -1.190508e+002 9.757140e-001 -1.190421e+002 6.856443e-002 1.526671e+002
1144743750 6.948523e-002 1.428633e+002 9.756349e-001 -1.214221e+002 9.750922e-001 -1.214100e+002 6.884267e-002 1.499319e+002
1167187500 6.986958e-002 1.402906e+002 9.753404e-001 -1.237725e+002 9.747738e-001 -1.237650e+002 6.881744e-002 1.473309e+002
1189631250 7.027083e-002 1.378595e+002 9.749223e-001 -1.261307e+002 9.747893e-001 -1.261212e+002 6.920798e-002 1.451866e+002
1212075000 7.052463e-002 1.354128e+002 9.750513e-001 -1.284949e+002 9.745288e-001 -1.284876e+002 6.986459e-002 1.426798e+002
1234518750 7.061414e-002 1.327635e+002 9.749537e-001 -1.308452e+002 9.737210e-001 -1.308430e+002 7.027559e-002 1.401778e+002
1256962500 7.072338e-002 1.303505e+002 9.742752e-001 -1.332094e+002 9.736051e-001 -1.332013e+002 7.053562e-002 1.378081e+002
1279406250 7.090700e-002 1.278762e+002 9.740013e-001 -1.355663e+002 9.733393e-001 -1.355595e+002 7.074947e-002 1.356473e+002
1301850000 7.126515e-002 1.251643e+002 9.735067e-001 -1.379346e+002 9.731723e-001 -1.379220e+002 7.130936e-002 1.331106e+002
1324293750 7.195666e-002 1.223145e+002 9.733607e-001 -1.402944e+002 9.726504e-001 -1.402850e+002 7.127540e-002 1.304240e+002
1346737500 7.237452e-002 1.196464e+002 9.731453e-001 -1.426558e+002 9.723662e-001 -1.426466e+002 7.114054e-002 1.277629e+002
1369181250 7.286946e-002 1.171078e+002 9.727676e-001 -1.450037e+002 9.721318e-001 -1.450020e+002 7.108356e-002 1.254471e+002
1391625000 7.273617e-002 1.146423e+002 9.724932e-001 -1.473742e+002 9.717191e-001 -1.473624e+002 7.131872e-002 1.227977e+002
1414068750 7.293373e-002 1.120244e+002 9.719151e-001 -1.497268e+002 9.714115e-001 -1.497225e+002 7.144474e-002 1.201171e+002
1436512500 7.221120e-002 1.097289e+002 9.720106e-001 -1.520825e+002 9.710931e-001 -1.520793e+002 7.134909e-002 1.180031e+002
1458956250 7.181258e-002 1.072995e+002 9.715656e-001 -1.544381e+002 9.711808e-001 -1.544330e+002 7.145478e-002 1.158467e+002
1481400000 7.173846e-002 1.043931e+002 9.712403e-001 -1.567957e+002 9.709659e-001 -1.567871e+002 7.149294e-002 1.134095e+002
1503843750 7.183450e-002 1.016496e+002 9.710968e-001 -1.591515e+002 9.703754e-001 -1.591521e+002 7.157657e-002 1.107186e+002
1526287500 7.204117e-002 9.889275e+001 9.711600e-001 -1.615118e+002 9.699192e-001 -1.615091e+002 7.141024e-002 1.081073e+002
1548731250 7.207198e-002 9.618811e+001 9.703572e-001 -1.638690e+002 9.702016e-001 -1.638675e+002 7.072982e-002 1.055690e+002
1571175000 7.219961e-002 9.352068e+001 9.700120e-001 -1.662279e+002 9.697188e-001 -1.662136e+002 7.030394e-002 1.028647e+002
1593618750 7.186554e-002 9.114385e+001 9.699274e-001 -1.685957e+002 9.694583e-001 -1.685834e+002 6.997044e-002 1.003864e+002
1616062500 7.123558e-002 8.891418e+001 9.700577e-001 -1.709490e+002 9.696860e-001 -1.709341e+002 6.975262e-002 9.814753e+001
1638506250 7.053709e-002 8.637560e+001 9.696122e-001 -1.733145e+002 9.692233e-001 -1.732999e+002 6.960861e-002 9.560296e+001
1660950000 7.006554e-002 8.363931e+001 9.692202e-001 -1.756562e+002 9.685288e-001 -1.756506e+002 6.935859e-002 9.310359e+001
1683393750 6.945581e-002 8.102586e+001 9.690924e-001 -1.780165e+002 9.685147e-001 -1.780131e+002 6.910694e-002 9.082216e+001
1705837500 6.929161e-002 7.817940e+001 9.687893e-001 1.796142e+002 9.682466e-001 1.796270e+002 6.865939e-002 8.832039e+001
1728281250 6.932784e-002 7.513214e+001 9.684227e-001 1.772697e+002 9.678728e-001 1.772788e+002 6.821203e-002 8.546622e+001
1750725000 6.920981e-002 7.235205e+001 9.682844e-001 1.749143e+002 9.677917e-001 1.749189e+002 6.728198e-002 8.253559e+001
1773168750 6.876802e-002 7.001212e+001 9.677963e-001 1.725470e+002 9.673935e-001 1.725611e+002 6.627153e-002 8.007911e+001
1795612500 6.815734e-002 6.769597e+001 9.678980e-001 1.701905e+002 9.669365e-001 1.702051e+002 6.545162e-002 7.773372e+001
1818056250 6.756542e-002 6.526057e+001 9.678717e-001 1.678300e+002 9.668915e-001 1.678525e+002 6.510759e-002 7.540869e+001
1840500000 6.655261e-002 6.282921e+001 9.674926e-001 1.654696e+002 9.671965e-001 1.654796e+002 6.467976e-002 7.262982e+001
1862943750 6.570901e-002 5.996168e+001 9.671205e-001 1.631214e+002 9.671125e-001 1.631299e+002 6.417526e-002 6.997944e+001
1885387500 6.481969e-002 5.717346e+001 9.670966e-001 1.607592e+002 9.666651e-001 1.607755e+002 6.348270e-002 6.727852e+001
1907831250 6.418720e-002 5.429951e+001 9.669062e-001 1.584084e+002 9.661651e-001 1.584217e+002 6.286076e-002 6.439060e+001
1930275000 6.386445e-002 5.159337e+001 9.665728e-001 1.560360e+002 9.659498e-001 1.560566e+002 6.187793e-002 6.200552e+001
1952718750 6.342895e-002 4.894781e+001 9.665538e-001 1.536806e+002 9.657511e-001 1.536900e+002 6.078813e-002 5.929227e+001
1975162500 6.294065e-002 4.656511e+001 9.661143e-001 1.513311e+002 9.654126e-001 1.513284e+002 5.980264e-002 5.654375e+001
1997606250 6.206212e-002 4.428119e+001 9.662682e-001 1.489706e+002 9.655499e-001 1.489718e+002 5.885451e-002 5.394464e+001
2020050000 6.113854e-002 4.159678e+001 9.659016e-001 1.466080e+002 9.653577e-001 1.466147e+002 5.826662e-002 5.134565e+001
2042493750 5.986506e-002 3.887018e+001 9.656581e-001 1.442453e+002 9.650755e-001 1.442535e+002 5.763618e-002 4.858838e+001
2064937500 5.876976e-002 3.606924e+001 9.652796e-001 1.418895e+002 9.649187e-001 1.418897e+002 5.672875e-002 4.566920e+001
2087381250 5.769964e-002 3.311607e+001 9.652814e-001 1.395211e+002 9.646372e-001 1.395302e+002 5.589722e-002 4.287312e+001
2109825000 5.674541e-002 3.048104e+001 9.648702e-001 1.371634e+002 9.644371e-001 1.371683e+002 5.490193e-002 4.052800e+001
2132268750 5.604395e-002 2.777603e+001 9.647067e-001 1.348151e+002 9.644336e-001 1.348144e+002 5.377078e-002 3.758436e+001
2154712500 5.543355e-002 2.533385e+001 9.644618e-001 1.324477e+002 9.638042e-001 1.324616e+002 5.243866e-002 3.483103e+001
2177156250 5.460630e-002 2.317003e+001 9.639345e-001 1.300764e+002 9.639468e-001 1.300923e+002 5.120447e-002 3.231695e+001
2199600000 5.365400e-002 2.078098e+001 9.638404e-001 1.277279e+002 9.638504e-001 1.277328e+002 5.013436e-002 2.986112e+001
2222043750 5.214654e-002 1.787154e+001 9.640767e-001 1.253585e+002 9.633036e-001 1.253706e+002 4.922794e-002 2.668750e+001
2244487500 5.101131e-002 1.491941e+001 9.636967e-001 1.229927e+002 9.630463e-001 1.230128e+002 4.828654e-002 2.366832e+001
2266931250 4.927847e-002 1.227457e+001 9.634427e-001 1.206484e+002 9.629663e-001 1.206540e+002 4.731067e-002 2.065835e+001
2289375000 4.807366e-002 9.218547e+000 9.633368e-001 1.182864e+002 9.625671e-001 1.182881e+002 4.619649e-002 1.803980e+001
2311818750 4.722713e-002 6.700349e+000 9.627677e-001 1.159302e+002 9.626159e-001 1.159313e+002 4.528517e-002 1.525892e+001
2334262500 4.646120e-002 4.348722e+000 9.627962e-001 1.135663e+002 9.620676e-001 1.135729e+002 4.416545e-002 1.235599e+001
2356706250 4.552490e-002 1.812504e+000 9.627174e-001 1.112002e+002 9.618105e-001 1.112055e+002 4.279923e-002 9.472129e+000
2379150000 4.424956e-002 -3.975710e-001 9.625631e-001 1.088533e+002 9.616452e-001 1.088457e+002 4.153096e-002 6.394221e+000
2401593750 4.310634e-002 -3.007908e+000 9.624566e-001 1.064805e+002 9.614217e-001 1.064888e+002 4.038765e-002 3.601060e+000
2424037500 4.174335e-002 -6.072028e+000 9.620571e-001 1.041278e+002 9.611560e-001 1.041198e+002 3.924050e-002 3.640938e-001
2446481250 4.016164e-002 -8.742213e+000 9.618393e-001 1.017589e+002 9.612150e-001 1.017690e+002 3.851602e-002 -2.433302e+000
2468925000 3.896647e-002 -1.192844e+001 9.617130e-001 9.939647e+001 9.608893e-001 9.939719e+001 3.757137e-002 -6.010801e+000
2491368750 3.780221e-002 -1.512547e+001 9.610871e-001 9.704282e+001 9.602462e-001 9.704714e+001 3.655770e-002 -9.470675e+000
2513812500 3.659352e-002 -1.753543e+001 9.610498e-001 9.467394e+001 9.599578e-001 9.469054e+001 3.528425e-002 -1.283168e+001
2536256250 3.559070e-002 -2.005494e+001 9.606223e-001 9.231439e+001 9.601508e-001 9.232922e+001 3.409815e-002 -1.585372e+001
2558700000 3.474033e-002 -2.197127e+001 9.602473e-001 8.995314e+001 9.597824e-001 8.997044e+001 3.311836e-002 -1.873105e+001
2581143750 3.349685e-002 -2.445715e+001 9.599698e-001 8.759302e+001 9.595285e-001 8.760883e+001 3.191555e-002 -2.225102e+001
2603587500 3.191981e-002 -2.710727e+001 9.597434e-001 8.524395e+001 9.591380e-001 8.525254e+001 3.064663e-002 -2.563153e+001
2626031250 3.030756e-002 -3.038629e+001 9.596111e-001 8.287945e+001 9.591005e-001 8.288939e+001 2.967355e-002 -2.906949e+001
2648475000 2.905061e-002 -3.377694e+001 9.595014e-001 8.051741e+001 9.588054e-001 8.053918e+001 2.886196e-002 -3.311063e+001
2670918750 2.783176e-002 -3.752614e+001 9.589851e-001 7.815537e+001 9.588147e-001 7.817744e+001 2.812865e-002 -3.675112e+001
2693362500 2.655102e-002 -4.030323e+001 9.589747e-001 7.580011e+001 9.584935e-001 7.582163e+001 2.717873e-002 -4.076566e+001
2715806250 2.575752e-002 -4.278458e+001 9.584994e-001 7.344107e+001 9.580082e-001 7.345749e+001 2.630229e-002 -4.477171e+001
2738250000 2.501751e-002 -4.535783e+001 9.582981e-001 7.108479e+001 9.582013e-001 7.108530e+001 2.528841e-002 -4.855000e+001
2760693750 2.372745e-002 -4.728870e+001 9.582530e-001 6.871490e+001 9.578450e-001 6.873061e+001 2.410875e-002 -5.263265e+001
2783137500 2.216424e-002 -5.012277e+001 9.583419e-001 6.635648e+001 9.571672e-001 6.636951e+001 2.294417e-002 -5.713566e+001
2805581250 2.081108e-002 -5.262518e+001 9.575496e-001 6.399933e+001 9.574540e-001 6.400916e+001 2.194528e-002 -6.201988e+001
2828025000 1.973267e-002 -5.679753e+001 9.578038e-001 6.164034e+001 9.569306e-001 6.164464e+001 2.148314e-002 -6.602391e+001
2850468750 1.823699e-002 -6.095612e+001 9.576191e-001 5.927586e+001 9.570025e-001 5.928710e+001 2.099533e-002 -7.173283e+001
2872912500 1.663668e-002 -6.629469e+001 9.571247e-001 5.691053e+001 9.568836e-001 5.693626e+001 2.014458e-002 -7.713634e+001
2895356250 1.563452e-002 -6.892414e+001 9.566283e-001 5.455316e+001 9.565489e-001 5.456040e+001 1.941430e-002 -8.220821e+001
2917800000 1.489848e-002 -7.109789e+001 9.563264e-001 5.219193e+001 9.562259e-001 5.220193e+001 1.887350e-002 -8.569421e+001
2940243750 1.389658e-002 -7.324667e+001 9.564856e-001 4.982354e+001 9.558626e-001 4.983924e+001 1.811107e-002 -9.084157e+001
2962687500 1.253612e-002 -7.706553e+001 9.559675e-001 4.746874e+001 9.554335e-001 4.747509e+001 1.731133e-002 -9.758920e+001
2985131250 1.116402e-002 -7.983741e+001 9.557567e-001 4.510175e+001 9.554710e-001 4.512236e+001 1.647698e-002 -1.033040e+002
3007575000 9.896534e-003 -8.473255e+001 9.555243e-001 4.274591e+001 9.547682e-001 4.276424e+001 1.604857e-002 -1.094677e+002
3030018750 8.708137e-003 -9.097055e+001 9.550449e-001 4.038419e+001 9.547389e-001 4.039569e+001 1.574308e-002 -1.160405e+002
3052462500 7.501822e-003 -9.861440e+001 9.549297e-001 3.802072e+001 9.547626e-001 3.803789e+001 1.549377e-002 -1.215779e+002
3074906250 6.614749e-003 -1.062376e+002 9.546670e-001 3.566927e+001 9.536591e-001 3.568180e+001 1.542546e-002 -1.266564e+002
3097350000 5.786415e-003 -1.114520e+002 9.542391e-001 3.331036e+001 9.535786e-001 3.332847e+001 1.527629e-002 -1.321478e+002
3119793750 4.531419e-003 -1.224656e+002 9.536612e-001 3.095525e+001 9.535908e-001 3.095843e+001 1.485711e-002 -1.395057e+002
3142237500 3.428436e-003 -1.364446e+002 9.535739e-001 2.858407e+001 9.532042e-001 2.860467e+001 1.420350e-002 -1.468309e+002
3164681250 2.564752e-003 -1.485832e+002 9.532869e-001 2.622942e+001 9.530964e-001 2.624913e+001 1.401291e-002 -1.530909e+002
3187125000 2.398552e-003 -1.745115e+002 9.531599e-001 2.386140e+001 9.527733e-001 2.389079e+001 1.424779e-002 -1.601480e+002
3209568750 2.749880e-003 1.546956e+002 9.528775e-001 2.151064e+001 9.525583e-001 2.153114e+001 1.449108e-002 -1.674761e+002
3232012500 3.368290e-003 1.354870e+002 9.522992e-001 1.914938e+001 9.521776e-001 1.916768e+001 1.476863e-002 -1.725226e+002
3254456250 4.052494e-003 1.240713e+002 9.523774e-001 1.678325e+001 9.518871e-001 1.681163e+001 1.525180e-002 -1.765501e+002
3276900000 5.276264e-003 1.121402e+002 9.520962e-001 1.443018e+001 9.518226e-001 1.444789e+001 1.570670e-002 1.779202e+002
3299343750 6.254242e-003 9.983206e+001 9.518864e-001 1.207181e+001 9.512123e-001 1.209047e+001 1.539520e-002 1.710880e+002
3321787500 7.357466e-003 8.908620e+001 9.513399e-001 9.718109e+000 9.507982e-001 9.739559e+000 1.525035e-002 1.643160e+002
3344231250 8.051997e-003 8.383430e+001 9.509242e-001 7.359121e+000 9.505253e-001 7.386568e+000 1.553293e-002 1.587093e+002
3366675000 8.811079e-003 8.294103e+001 9.507582e-001 5.002660e+000 9.501222e-001 5.020754e+000 1.627277e-002 1.534696e+002
3389118750 9.912607e-003 7.994624e+001 9.503171e-001 2.632710e+000 9.499785e-001 2.665239e+000 1.684201e-002 1.481365e+002
3411562500 1.091814e-002 7.467631e+001 9.500499e-001 2.707246e-001 9.499009e-001 2.943546e-001 1.723394e-002 1.429445e+002
3434006250 1.152173e-002 7.156515e+001 9.496234e-001 -2.082365e+000 9.492419e-001 -2.056218e+000 1.752271e-002 1.393388e+002
3456450000 1.228901e-002 6.971919e+001 9.494055e-001 -4.437201e+000 9.491308e-001 -4.409984e+000 1.806839e-002 1.367573e+002
3478893750 1.352987e-002 6.541232e+001 9.491834e-001 -6.800675e+000 9.490917e-001 -6.771352e+000 1.840517e-002 1.325329e+002
3501337500 1.480896e-002 5.983324e+001 9.490020e-001 -9.148481e+000 9.487094e-001 -9.128270e+000 1.856110e-002 1.261435e+002
3523781250 1.624049e-002 5.576862e+001 9.487401e-001 -1.150609e+001 9.483904e-001 -1.148106e+001 1.878984e-002 1.200459e+002
